Title: 5DC_input.txt
Date: Tue Mar 19 16:54:01 2024
Plotname: DC dc1[1] <5DC_input.txt>   VGGROUND.Vdc=(-9 V->1.8 V)
Flags: real 
No. Variables: 14     
No. Points: 109     
Variables:	0	VGGROUND.Vdc	none 
		1	n1	voltage plot=0 grid=1
		2	n2	voltage plot=0 grid=1
		3	n3	voltage plot=0 grid=1
		4	XCKT.Gi	voltage plot=0 grid=1
		5	XCKT.Di	voltage plot=0 grid=1
		6	XCKT.X1.Si	voltage plot=0 grid=1
		7	XCKT.X1.Gi	voltage plot=0 grid=1
		8	XCKT.X1.Di	voltage plot=0 grid=1
		9	XCKT.X1.Sii	voltage plot=0 grid=1
		10	XCKT.X1.Gii	voltage plot=0 grid=1
		11	XCKT.X1.Dii	voltage plot=0 grid=1
		12	VDGROUND.i	current plot=0 grid=1
		13	VGGROUND.i	current plot=0 grid=1
Values:
0	-9.000000000000000e+00	0.000000000000000e+00
	-9.000000000000000e+00	9.266216773301498e-46
	-8.999999999395623e+00	-5.995199999986838e-10
	-1.214400000329047e-14	-8.999999999394111e+00
	-6.010187999986805e-10	-1.214400000329047e-14
	-8.999999999394111e+00	-6.010187999986805e-10
	-1.498799999996710e-09	1.510944000000000e-09

1	-8.900000000000000e+00	0.000000000000000e+00
	-8.900000000000000e+00	-4.590341082540103e-46
	-8.899999999395623e+00	-5.995199999986839e-10
	-1.214400000329047e-14	-8.899999999394112e+00
	-6.010187999986805e-10	-1.214400000329047e-14
	-8.899999999394112e+00	-6.010187999986805e-10
	-1.498799999996710e-09	1.510944000000000e-09

2	-8.800000000000001e+00	0.000000000000000e+00
	-8.800000000000001e+00	-5.411671001545671e-46
	-8.799999999395624e+00	-5.995199999986838e-10
	-1.214400000329047e-14	-8.799999999394112e+00
	-6.010187999986805e-10	-1.214400000329047e-14
	-8.799999999394112e+00	-6.010187999986805e-10
	-1.498799999996710e-09	1.510944000000000e-09

3	-8.700000000000001e+00	0.000000000000000e+00
	-8.700000000000001e+00	1.012057432440112e-45
	-8.699999999395624e+00	-5.995199999986839e-10
	-1.214400000329047e-14	-8.699999999394112e+00
	-6.010187999986805e-10	-1.214400000329047e-14
	-8.699999999394112e+00	-6.010187999986805e-10
	-1.498799999996710e-09	1.510944000000000e-09

4	-8.600000000000001e+00	0.000000000000000e+00
	-8.600000000000001e+00	-5.409548505506390e-46
	-8.599999999395624e+00	-5.995199999986838e-10
	-1.214400000329047e-14	-8.599999999394113e+00
	-6.010187999986805e-10	-1.214400000329047e-14
	-8.599999999394113e+00	-6.010187999986805e-10
	-1.498799999996710e-09	1.510944000000000e-09

5	-8.500000000000002e+00	0.000000000000000e+00
	-8.500000000000002e+00	-4.593124969081077e-46
	-8.499999999395625e+00	-5.995199999986839e-10
	-1.214400000329047e-14	-8.499999999394113e+00
	-6.010187999986805e-10	-1.214400000329047e-14
	-8.499999999394113e+00	-6.010187999986805e-10
	-1.498799999996710e-09	1.510944000000000e-09

6	-8.400000000000002e+00	0.000000000000000e+00
	-8.400000000000002e+00	9.310617074561476e-46
	-8.399999999395625e+00	-5.995199999986838e-10
	-1.214400000329047e-14	-8.399999999394113e+00
	-6.010187999986805e-10	-1.214400000329047e-14
	-8.399999999394113e+00	-6.010187999986805e-10
	-1.498799999996710e-09	1.510944000000000e-09

7	-8.300000000000002e+00	0.000000000000000e+00
	-8.300000000000002e+00	-4.592973293927130e-46
	-8.299999999395625e+00	-5.995199999986839e-10
	-1.214400000329047e-14	-8.299999999394114e+00
	-6.010187999986805e-10	-1.214400000329047e-14
	-8.299999999394114e+00	-6.010187999986805e-10
	-1.498799999996710e-09	1.510944000000000e-09

8	-8.200000000000003e+00	0.000000000000000e+00
	-8.200000000000003e+00	-5.408984412106891e-46
	-8.199999999395626e+00	-5.995199999986838e-10
	-1.214400000329047e-14	-8.199999999394114e+00
	-6.010187999986805e-10	-1.214400000329047e-14
	-8.199999999394114e+00	-6.010187999986805e-10
	-1.498799999996710e-09	1.510944000000000e-09

9	-8.100000000000003e+00	0.000000000000000e+00
	-8.100000000000003e+00	1.011801679280246e-45
	-8.099999999395626e+00	-5.995199999986839e-10
	-1.214400000329047e-14	-8.099999999394115e+00
	-6.010187999986805e-10	-1.214400000329047e-14
	-8.099999999394115e+00	-6.010187999986805e-10
	-1.498799999996710e-09	1.510944000000000e-09

10	-8.000000000000004e+00	0.000000000000000e+00
	-8.000000000000004e+00	-5.408868054066037e-46
	-7.999999999395626e+00	-5.995199999986838e-10
	-1.214400000329047e-14	-7.999999999394115e+00
	-6.010187999986805e-10	-1.214400000329047e-14
	-7.999999999394115e+00	-6.010187999986805e-10
	-1.498799999996710e-09	1.510944000000000e-09

11	-7.900000000000004e+00	0.000000000000000e+00
	-7.900000000000004e+00	-4.592522302182772e-46
	-7.899999999395626e+00	-5.995199999986839e-10
	-1.214400000329047e-14	-7.899999999394115e+00
	-6.010187999986805e-10	-1.214400000329047e-14
	-7.899999999394115e+00	-6.010187999986805e-10
	-1.498799999996710e-09	1.510944000000000e-09

12	-7.800000000000004e+00	0.000000000000000e+00
	-7.800000000000004e+00	9.307951591771923e-46
	-7.799999999395626e+00	-5.995199999986838e-10
	-1.214400000329047e-14	-7.799999999394116e+00
	-6.010187999986805e-10	-1.214400000329047e-14
	-7.799999999394116e+00	-6.010187999986805e-10
	-1.498799999996710e-09	1.510944000000000e-09

13	-7.700000000000005e+00	0.000000000000000e+00
	-7.700000000000005e+00	-4.590165585856073e-46
	-7.699999999395627e+00	-5.995199999986839e-10
	-1.214400000329047e-14	-7.699999999394116e+00
	-6.010187999986805e-10	-1.214400000329047e-14
	-7.699999999394116e+00	-6.010187999986805e-10
	-1.498799999996710e-09	1.510944000000000e-09

14	-7.600000000000005e+00	0.000000000000000e+00
	-7.600000000000005e+00	-5.410542651029385e-46
	-7.599999999395627e+00	-5.995199999986838e-10
	-1.214400000329047e-14	-7.599999999394116e+00
	-6.010187999986805e-10	-1.214400000329047e-14
	-7.599999999394116e+00	-6.010187999986805e-10
	-1.498799999996710e-09	1.510944000000000e-09

15	-7.500000000000005e+00	0.000000000000000e+00
	-7.500000000000005e+00	1.012780069117669e-45
	-7.499999999395627e+00	-5.995199999986839e-10
	-1.214400000329047e-14	-7.499999999394117e+00
	-6.010187999986805e-10	-1.214400000329047e-14
	-7.499999999394117e+00	-6.010187999986805e-10
	-1.498799999996710e-09	1.510944000000000e-09

16	-7.400000000000006e+00	0.000000000000000e+00
	-7.400000000000006e+00	-5.408719891697226e-46
	-7.399999999395628e+00	-5.995199999986838e-10
	-1.214400000329047e-14	-7.399999999394117e+00
	-6.010187999986805e-10	-1.214400000329047e-14
	-7.399999999394117e+00	-6.010187999986805e-10
	-1.498799999996710e-09	1.510944000000000e-09

17	-7.300000000000006e+00	0.000000000000000e+00
	-7.300000000000006e+00	-4.593002781149097e-46
	-7.299999999395628e+00	-5.995199999986839e-10
	-1.214400000329047e-14	-7.299999999394117e+00
	-6.010187999986805e-10	-1.214400000329047e-14
	-7.299999999394117e+00	-6.010187999986805e-10
	-1.498799999996710e-09	1.510944000000000e-09

18	-7.200000000000006e+00	0.000000000000000e+00
	-7.200000000000006e+00	9.307006479478605e-46
	-7.199999999395629e+00	-5.995199999986838e-10
	-1.214400000329047e-14	-7.199999999394118e+00
	-6.010187999986805e-10	-1.214400000329047e-14
	-7.199999999394118e+00	-6.010187999986805e-10
	-1.498799999996710e-09	1.510944000000000e-09

19	-7.100000000000007e+00	0.000000000000000e+00
	-7.100000000000007e+00	-4.593460051677606e-46
	-7.099999999395629e+00	-5.995199999986839e-10
	-1.214400000329047e-14	-7.099999999394118e+00
	-6.010187999986805e-10	-1.214400000329047e-14
	-7.099999999394118e+00	-6.010187999986805e-10
	-1.498799999996710e-09	1.510944000000000e-09

20	-7.000000000000007e+00	0.000000000000000e+00
	-7.000000000000007e+00	-5.408701473671701e-46
	-6.999999999395629e+00	-5.995199999986838e-10
	-1.214400000329047e-14	-6.999999999394118e+00
	-6.010187999986805e-10	-1.214400000329047e-14
	-6.999999999394118e+00	-6.010187999986805e-10
	-1.498799999996710e-09	1.510944000000000e-09

21	-6.900000000000007e+00	0.000000000000000e+00
	-6.900000000000007e+00	1.012255403161259e-45
	-6.899999999395630e+00	-5.995199999986839e-10
	-1.214400000329047e-14	-6.899999999394119e+00
	-6.010187999986805e-10	-1.214400000329047e-14
	-6.899999999394119e+00	-6.010187999986805e-10
	-1.498799999996710e-09	1.510944000000000e-09

22	-6.800000000000008e+00	0.000000000000000e+00
	-6.800000000000008e+00	-5.409192359291087e-46
	-6.799999999395630e+00	-5.995199999986838e-10
	-1.214400000329047e-14	-6.799999999394119e+00
	-6.010187999986805e-10	-1.214400000329047e-14
	-6.799999999394119e+00	-6.010187999986805e-10
	-1.498799999996710e-09	1.510944000000000e-09

23	-6.700000000000008e+00	0.000000000000000e+00
	-6.700000000000008e+00	-4.592726467706735e-46
	-6.699999999395630e+00	-5.995199999986839e-10
	-1.214400000329047e-14	-6.699999999394119e+00
	-6.010187999986805e-10	-1.214400000329047e-14
	-6.699999999394119e+00	-6.010187999986805e-10
	-1.498799999996710e-09	1.510944000000000e-09

24	-6.600000000000009e+00	0.000000000000000e+00
	-6.600000000000009e+00	9.309905918153388e-46
	-6.599999999395631e+00	-5.995199999986838e-10
	-1.214400000329047e-14	-6.599999999394120e+00
	-6.010187999986805e-10	-1.214400000329047e-14
	-6.599999999394120e+00	-6.010187999986805e-10
	-1.498799999996710e-09	1.510944000000000e-09

25	-6.500000000000009e+00	0.000000000000000e+00
	-6.500000000000009e+00	-4.591637185774205e-46
	-6.499999999395631e+00	-5.995199999986839e-10
	-1.214400000329047e-14	-6.499999999394120e+00
	-6.010187999986805e-10	-1.214400000329047e-14
	-6.499999999394120e+00	-6.010187999986805e-10
	-1.498799999996710e-09	1.510944000000000e-09

26	-6.400000000000009e+00	0.000000000000000e+00
	-6.400000000000009e+00	-5.410991692286817e-46
	-6.399999999395631e+00	-5.995199999986838e-10
	-1.214400000329047e-14	-6.399999999394121e+00
	-6.010187999986805e-10	-1.214400000329047e-14
	-6.399999999394121e+00	-6.010187999986805e-10
	-1.498799999996710e-09	1.510944000000000e-09

27	-6.300000000000010e+00	0.000000000000000e+00
	-6.300000000000010e+00	1.011899959354639e-45
	-6.299999999395632e+00	-5.995199999986839e-10
	-1.214400000329047e-14	-6.299999999394121e+00
	-6.010187999986805e-10	-1.214400000329047e-14
	-6.299999999394121e+00	-6.010187999986805e-10
	-1.498799999996710e-09	1.510944000000000e-09

28	-6.200000000000010e+00	0.000000000000000e+00
	-6.200000000000010e+00	-5.407834200738010e-46
	-6.199999999395632e+00	-5.995199999986838e-10
	-1.214400000329047e-14	-6.199999999394121e+00
	-6.010187999986805e-10	-1.214400000329047e-14
	-6.199999999394121e+00	-6.010187999986805e-10
	-1.498799999996710e-09	1.510944000000000e-09

29	-6.100000000000010e+00	0.000000000000000e+00
	-6.100000000000010e+00	-4.593871606533889e-46
	-6.099999999395632e+00	-5.995199999986839e-10
	-1.214400000329047e-14	-6.099999999394122e+00
	-6.010187999986805e-10	-1.214400000329047e-14
	-6.099999999394122e+00	-6.010187999986805e-10
	-1.498799999996710e-09	1.510944000000000e-09

30	-6.000000000000011e+00	0.000000000000000e+00
	-6.000000000000011e+00	9.301649737207759e-46
	-5.999999999395633e+00	-5.995199999986838e-10
	-1.214400000329047e-14	-5.999999999394122e+00
	-6.010187999986805e-10	-1.214400000329047e-14
	-5.999999999394122e+00	-6.010187999986805e-10
	-1.498799999996710e-09	1.510944000000000e-09

31	-5.900000000000011e+00	0.000000000000000e+00
	-5.900000000000011e+00	-4.590600831270740e-46
	-5.899999999395633e+00	-5.995199999986839e-10
	-1.214400000329047e-14	-5.899999999394122e+00
	-6.010187999986805e-10	-1.214400000329047e-14
	-5.899999999394122e+00	-6.010187999986805e-10
	-1.498799999996710e-09	1.510944000000000e-09

32	-5.800000000000011e+00	0.000000000000000e+00
	-5.800000000000011e+00	-5.409448584703567e-46
	-5.799999999395633e+00	-5.995199999986838e-10
	-1.214400000329047e-14	-5.799999999394123e+00
	-6.010187999986805e-10	-1.214400000329047e-14
	-5.799999999394123e+00	-6.010187999986805e-10
	-1.498799999996710e-09	1.510944000000000e-09

33	-5.700000000000012e+00	0.000000000000000e+00
	-5.700000000000012e+00	1.012172028497523e-45
	-5.699999999395634e+00	-5.995199999986839e-10
	-1.214400000329047e-14	-5.699999999394123e+00
	-6.010187999986805e-10	-1.214400000329047e-14
	-5.699999999394123e+00	-6.010187999986805e-10
	-1.498799999996710e-09	1.510944000000000e-09

34	-5.600000000000012e+00	0.000000000000000e+00
	-5.600000000000012e+00	-5.411989645621558e-46
	-5.599999999395634e+00	-5.995199999986838e-10
	-1.214400000329047e-14	-5.599999999394123e+00
	-6.010187999986805e-10	-1.214400000329047e-14
	-5.599999999394123e+00	-6.010187999986805e-10
	-1.498799999996710e-09	1.510944000000000e-09

35	-5.500000000000012e+00	0.000000000000000e+00
	-5.500000000000012e+00	-4.592375209605578e-46
	-5.499999999395635e+00	-5.995199999986839e-10
	-1.214400000329047e-14	-5.499999999394124e+00
	-6.010187999986805e-10	-1.214400000329047e-14
	-5.499999999394124e+00	-6.010187999986805e-10
	-1.498799999996710e-09	1.510944000000000e-09

36	-5.400000000000013e+00	0.000000000000000e+00
	-5.400000000000013e+00	9.299676256363655e-46
	-5.399999999395635e+00	-5.995199999986838e-10
	-1.214400000329047e-14	-5.399999999394124e+00
	-6.010187999986805e-10	-1.214400000329047e-14
	-5.399999999394124e+00	-6.010187999986805e-10
	-1.498799999996710e-09	1.510944000000000e-09

37	-5.300000000000013e+00	0.000000000000000e+00
	-5.300000000000013e+00	-4.592411242098306e-46
	-5.299999999395635e+00	-5.995199999986839e-10
	-1.214400000329047e-14	-5.299999999394124e+00
	-6.010187999986805e-10	-1.214400000329047e-14
	-5.299999999394124e+00	-6.010187999986805e-10
	-1.498799999996710e-09	1.510944000000000e-09

38	-5.200000000000014e+00	0.000000000000000e+00
	-5.200000000000014e+00	-5.410484738255654e-46
	-5.199999999395636e+00	-5.995199999986838e-10
	-1.214400000329047e-14	-5.199999999394125e+00
	-6.010187999986805e-10	-1.214400000329047e-14
	-5.199999999394125e+00	-6.010187999986805e-10
	-1.498799999996710e-09	1.510944000000000e-09

39	-5.100000000000014e+00	0.000000000000000e+00
	-5.100000000000014e+00	1.012755592064950e-45
	-5.099999999395636e+00	-5.995199999986839e-10
	-1.214400000329047e-14	-5.099999999394125e+00
	-6.010187999986805e-10	-1.214400000329047e-14
	-5.099999999394125e+00	-6.010187999986805e-10
	-1.498799999996710e-09	1.510944000000000e-09

40	-5.000000000000014e+00	0.000000000000000e+00
	-5.000000000000014e+00	-5.410272505933301e-46
	-4.999999999395636e+00	-5.995199999986838e-10
	-1.214400000329047e-14	-4.999999999394126e+00
	-6.010187999986805e-10	-1.214400000329047e-14
	-4.999999999394126e+00	-6.010187999986805e-10
	-1.498799999996710e-09	1.510944000000000e-09

41	-4.900000000000015e+00	0.000000000000000e+00
	-4.900000000000015e+00	-4.593251963936487e-46
	-4.899999999395637e+00	-5.995199999986839e-10
	-1.214400000329047e-14	-4.899999999394126e+00
	-6.010187999986805e-10	-1.214400000329047e-14
	-4.899999999394126e+00	-6.010187999986805e-10
	-1.498799999996710e-09	1.510944000000000e-09

42	-4.800000000000015e+00	0.000000000000000e+00
	-4.800000000000015e+00	9.304124394869761e-46
	-4.799999999395637e+00	-5.995199999986838e-10
	-1.214400000329047e-14	-4.799999999394126e+00
	-6.010187999986805e-10	-1.214400000329047e-14
	-4.799999999394126e+00	-6.010187999986805e-10
	-1.498799999996710e-09	1.510944000000000e-09

43	-4.700000000000015e+00	0.000000000000000e+00
	-4.700000000000015e+00	-4.590192040646433e-46
	-4.699999999395637e+00	-5.995199999986839e-10
	-1.214400000329047e-14	-4.699999999394127e+00
	-6.010187999986805e-10	-1.214400000329047e-14
	-4.699999999394127e+00	-6.010187999986805e-10
	-1.498799999996710e-09	1.510944000000000e-09

44	-4.600000000000016e+00	0.000000000000000e+00
	-4.600000000000016e+00	-5.418474348421433e-46
	-4.599999999395638e+00	-5.995199999986838e-10
	-1.214400000329047e-14	-4.599999999394127e+00
	-6.010187999986805e-10	-1.214400000329047e-14
	-4.599999999394127e+00	-6.010187999986805e-10
	-1.498799999996710e-09	1.510944000000000e-09

45	-4.500000000000016e+00	0.000000000000000e+00
	-4.500000000000016e+00	1.014175257854935e-45
	-4.499999999395638e+00	-5.995199999986839e-10
	-1.214400000329047e-14	-4.499999999394127e+00
	-6.010187999986805e-10	-1.214400000329047e-14
	-4.499999999394127e+00	-6.010187999986805e-10
	-1.498799999996710e-09	1.510944000000000e-09

46	-4.400000000000016e+00	0.000000000000000e+00
	-4.400000000000016e+00	-5.419739569074368e-46
	-4.399999999395638e+00	-5.995199999986838e-10
	-1.214400000329047e-14	-4.399999999394128e+00
	-6.010187999986805e-10	-1.214400000329047e-14
	-4.399999999394128e+00	-6.010187999986805e-10
	-1.498799999996710e-09	1.510944000000000e-09

47	-4.300000000000017e+00	0.000000000000000e+00
	-4.300000000000017e+00	-4.603977496077773e-46
	-4.299999999395639e+00	-5.995199999986839e-10
	-1.214400000329047e-14	-4.299999999394128e+00
	-6.010187999986805e-10	-1.214400000329047e-14
	-4.299999999394128e+00	-6.010187999986805e-10
	-1.498799999996710e-09	1.510944000000000e-09

48	-4.200000000000017e+00	0.000000000000000e+00
	-4.200000000000017e+00	9.401909958399026e-46
	-4.199999999395639e+00	-5.995199999986838e-10
	-1.214400000329047e-14	-4.199999999394128e+00
	-6.010187999986805e-10	-1.214400000329047e-14
	-4.199999999394128e+00	-6.010187999986805e-10
	-1.498799999996710e-09	1.510944000000000e-09

49	-4.100000000000017e+00	0.000000000000000e+00
	-4.100000000000017e+00	-1.171957148382972e-45
	-4.099999999395640e+00	-5.995199999986839e-10
	-1.214400000329047e-14	-4.099999999394129e+00
	-6.010187999986805e-10	-1.214400000329047e-14
	-4.099999999394129e+00	-6.010187999986805e-10
	-1.498799999996710e-09	1.510944000000000e-09

50	-4.000000000000018e+00	0.000000000000000e+00
	-4.000000000000018e+00	-6.351438022828608e-45
	-3.999999999395640e+00	-5.995199999986838e-10
	-1.214400000329047e-14	-3.999999999394129e+00
	-6.010187999986805e-10	-1.214400000329047e-14
	-3.999999999394129e+00	-6.010187999986805e-10
	-1.498799999996710e-09	1.510944000000000e-09

51	-3.900000000000018e+00	0.000000000000000e+00
	-3.900000000000018e+00	5.484709820604233e-44
	-3.899999999395640e+00	-5.995199999986839e-10
	-1.214400000329047e-14	-3.899999999394129e+00
	-6.010187999986805e-10	-1.214400000329047e-14
	-3.899999999394129e+00	-6.010187999986805e-10
	-1.498799999996710e-09	1.510944000000000e-09

52	-3.800000000000018e+00	0.000000000000000e+00
	-3.800000000000018e+00	-1.352532900562287e-43
	-3.799999999395640e+00	-5.995199999986838e-10
	-1.214400000329047e-14	-3.799999999394129e+00
	-6.010187999986805e-10	-1.214400000329047e-14
	-3.799999999394129e+00	-6.010187999986805e-10
	-1.498799999996710e-09	1.510944000000000e-09

53	-3.700000000000017e+00	0.000000000000000e+00
	-3.700000000000017e+00	-5.297539151724047e-43
	-3.699999999395640e+00	-5.995199999986839e-10
	-1.214400000329047e-14	-3.699999999394129e+00
	-6.010187999986805e-10	-1.214400000329047e-14
	-3.699999999394129e+00	-6.010187999986805e-10
	-1.498799999996710e-09	1.510944000000000e-09

54	-3.600000000000017e+00	0.000000000000000e+00
	-3.600000000000017e+00	-1.199700011554441e-35
	-3.599999999395640e+00	-5.995199999986838e-10
	-1.214400000329047e-14	-3.599999999394129e+00
	-6.010187999986805e-10	-1.214400000329047e-14
	-3.599999999394129e+00	-6.010187999986805e-10
	-1.498799999996710e-09	1.510944000000000e-09

55	-3.500000000000017e+00	0.000000000000000e+00
	-3.500000000000017e+00	2.052069212602602e-34
	-3.499999999395640e+00	-5.995199999986839e-10
	-1.214400000329048e-14	-3.499999999394129e+00
	-6.010187999986805e-10	-1.214400000329048e-14
	-3.499999999394129e+00	-6.010187999986805e-10
	-1.498799999996710e-09	1.510944000000000e-09

56	-3.400000000000017e+00	0.000000000000000e+00
	-3.400000000000017e+00	3.738101528424253e-24
	-3.399999999395640e+00	-5.995199810647247e-10
	-1.214404733818821e-14	-3.399999999394129e+00
	-6.010187810173865e-10	-1.214404733818821e-14
	-3.399999999394129e+00	-6.010187810173865e-10
	-1.498799952661812e-09	1.510944000000000e-09

57	-3.300000000000017e+00	0.000000000000000e+00
	-3.300000000000017e+00	6.644901322569430e-32
	-3.299999999395640e+00	-5.995199999986835e-10
	-1.214400000329132e-14	-3.299999999394128e+00
	-6.010187999986802e-10	-1.214400000329132e-14
	-3.299999999394128e+00	-6.010187999986802e-10
	-1.498799999996709e-09	1.510944000000000e-09

58	-3.200000000000017e+00	0.000000000000000e+00
	-3.200000000000017e+00	3.738101687688779e-24
	-3.199999999395640e+00	-5.995199810647240e-10
	-1.214404733819022e-14	-3.199999999394128e+00
