Title: 3CV_ini.txt
Date: Tue Mar 19 13:31:44 2024
Plotname: SP ct2[1].ct1[1/3].S_Parameters[1/46] <3CV_ini.txt>  VP2GROUND.Vdc=0 V VP1GROUND.Vdc=-9 V  freq=100 MHz
Flags: complex 
No. Variables: 7      
No. Points: 1       
Variables:	0	freq	frequency 
		1	S[1,1]	s-param plot=0 grid=3
		2	S[1,2]	s-param plot=0 grid=3
		3	S[2,1]	s-param plot=0 grid=3
		4	S[2,2]	s-param plot=0 grid=3
		5	PORTZ[1]	none plot=0 grid=3
		6	PORTZ[2]	none plot=0 grid=3
Values:
0	1.000000000000000e+08,0.000000000000000e+00
	9.986371484705412e-01,-5.110833927871236e-02
	3.792754728250491e-04,9.801693625167387e-03
	4.402685251902452e-04,1.137791596879336e-02
	9.996005205589673e-01,-2.621260406697241e-02
	5.000000000000000e+01,0.000000000000000e+00
	5.000000000000000e+01,0.000000000000000e+00

Plotname: SP ct2[1].ct1[1/3].S_Parameters[2/46] <3CV_ini.txt>  VP2GROUND.Vdc=0 V VP1GROUND.Vdc=-8.8 V  freq=100 MHz
Flags: complex 
No. Variables: 7      
No. Points: 1       
Variables:	0	freq	frequency 
		1	S[1,1]	s-param plot=0 grid=3
		2	S[1,2]	s-param plot=0 grid=3
		3	S[2,1]	s-param plot=0 grid=3
		4	S[2,2]	s-param plot=0 grid=3
		5	PORTZ[1]	none plot=0 grid=3
		6	PORTZ[2]	none plot=0 grid=3
Values:
0	1.000000000000000e+08,0.000000000000000e+00
	9.986368700346251e-01,-5.110831994528309e-02
	3.814123949911063e-04,9.850668196684268e-03
	4.405472126410052e-04,1.137789988377847e-02
	9.995989551233193e-01,-2.626160813032063e-02
	5.000000000000000e+01,0.000000000000000e+00
	5.000000000000000e+01,0.000000000000000e+00

Plotname: SP ct2[1].ct1[1/3].S_Parameters[3/46] <3CV_ini.txt>  VP2GROUND.Vdc=0 V VP1GROUND.Vdc=-8.6 V  freq=100 MHz
Flags: complex 
No. Variables: 7      
No. Points: 1       
Variables:	0	freq	frequency 
		1	S[1,1]	s-param plot=0 grid=3
		2	S[1,2]	s-param plot=0 grid=3
		3	S[2,1]	s-param plot=0 grid=3
		4	S[2,2]	s-param plot=0 grid=3
		5	PORTZ[1]	none plot=0 grid=3
		6	PORTZ[2]	none plot=0 grid=3
Values:
0	1.000000000000000e+08,0.000000000000000e+00
	9.986365915999129e-01,-5.110830059822085e-02
	3.835517162510878e-04,9.899642618172428e-03
	4.408258990456016e-04,1.137788378511520e-02
	9.995973872865880e-01,-2.631061207163076e-02
	5.000000000000000e+01,0.000000000000000e+00
	5.000000000000000e+01,0.000000000000000e+00

Plotname: SP ct2[1].ct1[1/3].S_Parameters[4/46] <3CV_ini.txt>  VP2GROUND.Vdc=0 V VP1GROUND.Vdc=-8.4 V  freq=100 MHz
Flags: complex 
No. Variables: 7      
No. Points: 1       
Variables:	0	freq	frequency 
		1	S[1,1]	s-param plot=0 grid=3
		2	S[1,2]	s-param plot=0 grid=3
		3	S[2,1]	s-param plot=0 grid=3
		4	S[2,2]	s-param plot=0 grid=3
		5	PORTZ[1]	none plot=0 grid=3
		6	PORTZ[2]	none plot=0 grid=3
Values:
0	1.000000000000000e+08,0.000000000000000e+00
	9.986363131664080e-01,-5.110828123752578e-02
	3.856934365906360e-04,9.948616889455770e-03
	4.411045844030387e-04,1.137786767280377e-02
	9.995958170488091e-01,-2.635961589072697e-02
	5.000000000000000e+01,0.000000000000000e+00
	5.000000000000000e+01,0.000000000000000e+00

Plotname: SP ct2[1].ct1[1/3].S_Parameters[5/46] <3CV_ini.txt>  VP2GROUND.Vdc=0 V VP1GROUND.Vdc=-8.2 V  freq=100 MHz
Flags: complex 
No. Variables: 7      
No. Points: 1       
Variables:	0	freq	frequency 
		1	S[1,1]	s-param plot=0 grid=3
		2	S[1,2]	s-param plot=0 grid=3
		3	S[2,1]	s-param plot=0 grid=3
		4	S[2,2]	s-param plot=0 grid=3
		5	PORTZ[1]	none plot=0 grid=3
		6	PORTZ[2]	none plot=0 grid=3
Values:
0	1.000000000000000e+08,0.000000000000000e+00
	9.986360347341094e-01,-5.110826186319789e-02
	3.878375559953673e-04,9.997591010358020e-03
	4.413832687123108e-04,1.137785154684420e-02
	9.995942444099832e-01,-2.640861958743256e-02
	5.000000000000000e+01,0.000000000000000e+00
	5.000000000000000e+01,0.000000000000000e+00

Plotname: SP ct2[1].ct1[1/3].S_Parameters[6/46] <3CV_ini.txt>  VP2GROUND.Vdc=0 V VP1GROUND.Vdc=-8 V  freq=100 MHz
Flags: complex 
No. Variables: 7      
No. Points: 1       
Variables:	0	freq	frequency 
		1	S[1,1]	s-param plot=0 grid=3
		2	S[1,2]	s-param plot=0 grid=3
		3	S[2,1]	s-param plot=0 grid=3
		4	S[2,2]	s-param plot=0 grid=3
		5	PORTZ[1]	none plot=0 grid=3
		6	PORTZ[2]	none plot=0 grid=3
Values:
0	1.000000000000000e+08,0.000000000000000e+00
	9.986357563030202e-01,-5.110824247523740e-02
	3.899840744508835e-04,1.004656498070294e-02
	4.416619519724153e-04,1.137783540723660e-02
	9.995926693701205e-01,-2.645762316157106e-02
	5.000000000000000e+01,0.000000000000000e+00
	5.000000000000000e+01,0.000000000000000e+00

Plotname: SP ct2[1].ct1[1/3].S_Parameters[7/46] <3CV_ini.txt>  VP2GROUND.Vdc=0 V VP1GROUND.Vdc=-7.8 V  freq=100 MHz
Flags: complex 
No. Variables: 7      
No. Points: 1       
Variables:	0	freq	frequency 
		1	S[1,1]	s-param plot=0 grid=3
		2	S[1,2]	s-param plot=0 grid=3
		3	S[2,1]	s-param plot=0 grid=3
		4	S[2,2]	s-param plot=0 grid=3
		5	PORTZ[1]	none plot=0 grid=3
		6	PORTZ[2]	none plot=0 grid=3
Values:
0	1.000000000000000e+08,0.000000000000000e+00
	9.986354778731390e-01,-5.110822307364438e-02
	3.921329919427706e-04,1.009553880031433e-02
	4.419406341823512e-04,1.137781925398106e-02
	9.995910919292377e-01,-2.650662661296619e-02
	5.000000000000000e+01,0.000000000000000e+00
	5.000000000000000e+01,0.000000000000000e+00

Plotname: SP ct2[1].ct1[1/3].S_Parameters[8/46] <3CV_ini.txt>  VP2GROUND.Vdc=0 V VP1GROUND.Vdc=-7.6 V  freq=100 MHz
Flags: complex 
No. Variables: 7      
No. Points: 1       
Variables:	0	freq	frequency 
		1	S[1,1]	s-param plot=0 grid=3
		2	S[1,2]	s-param plot=0 grid=3
		3	S[2,1]	s-param plot=0 grid=3
		4	S[2,2]	s-param plot=0 grid=3
		5	PORTZ[1]	none plot=0 grid=3
		6	PORTZ[2]	none plot=0 grid=3
Values:
0	1.000000000000000e+08,0.000000000000000e+00
	9.986351994444682e-01,-5.110820365841889e-02
	3.942843084565977e-04,1.014451246901602e-02
	4.422193153411176e-04,1.137780308707772e-02
	9.995895120873526e-01,-2.655562994144174e-02
	5.000000000000000e+01,0.000000000000000e+00
	5.000000000000000e+01,0.000000000000000e+00

Plotname: SP ct2[1].ct1[1/3].S_Parameters[9/46] <3CV_ini.txt>  VP2GROUND.Vdc=0 V VP1GROUND.Vdc=-7.4 V  freq=100 MHz
Flags: complex 
No. Variables: 7      
No. Points: 1       
Variables:	0	freq	frequency 
		1	S[1,1]	s-param plot=0 grid=3
		2	S[1,2]	s-param plot=0 grid=3
		3	S[2,1]	s-param plot=0 grid=3
		4	S[2,2]	s-param plot=0 grid=3
		5	PORTZ[1]	none plot=0 grid=3
		6	PORTZ[2]	none plot=0 grid=3
Values:
0	1.000000000000000e+08,0.000000000000000e+00
	9.986349210170091e-01,-5.110818422956111e-02
	3.964380239779143e-04,1.019348598663177e-02
	4.424979954477116e-04,1.137778690652666e-02
	9.995879298444728e-01,-2.660463314682112e-02
	5.000000000000000e+01,0.000000000000000e+00
	5.000000000000000e+01,0.000000000000000e+00

Plotname: SP ct2[1].ct1[1/3].S_Parameters[10/46] <3CV_ini.txt>  VP2GROUND.Vdc=0 V VP1GROUND.Vdc=-7.2 V  freq=100 MHz
Flags: complex 
No. Variables: 7      
No. Points: 1       
Variables:	0	freq	frequency 
		1	S[1,1]	s-param plot=0 grid=3
		2	S[1,2]	s-param plot=0 grid=3
		3	S[2,1]	s-param plot=0 grid=3
		4	S[2,2]	s-param plot=0 grid=3
		5	PORTZ[1]	none plot=0 grid=3
		6	PORTZ[2]	none plot=0 grid=3
Values:
0	1.000000000000000e+08,0.000000000000000e+00
	9.986346425907620e-01,-5.110816478707111e-02
	3.985941384922575e-04,1.024245935298544e-02
	4.427766745011357e-04,1.137777071232806e-02
	9.995863452006275e-01,-2.665363622892843e-02
	5.000000000000000e+01,0.000000000000000e+00
	5.000000000000000e+01,0.000000000000000e+00

Plotname: SP ct2[1].ct1[1/3].S_Parameters[11/46] <3CV_ini.txt>  VP2GROUND.Vdc=0 V VP1GROUND.Vdc=-7 V  freq=100 MHz
Flags: complex 
No. Variables: 7      
No. Points: 1       
Variables:	0	freq	frequency 
		1	S[1,1]	s-param plot=0 grid=3
		2	S[1,2]	s-param plot=0 grid=3
		3	S[2,1]	s-param plot=0 grid=3
		4	S[2,2]	s-param plot=0 grid=3
		5	PORTZ[1]	none plot=0 grid=3
		6	PORTZ[2]	none plot=0 grid=3
Values:
0	1.000000000000000e+08,0.000000000000000e+00
	9.986343641657272e-01,-5.110814533094899e-02
	4.007526519851358e-04,1.029143256790069e-02
	4.430553525003785e-04,1.137775450448185e-02
	9.995847581558002e-01,-2.670263918758644e-02
	5.000000000000000e+01,0.000000000000000e+00
	5.000000000000000e+01,0.000000000000000e+00

Plotname: SP ct2[1].ct1[1/3].S_Parameters[12/46] <3CV_ini.txt>  VP2GROUND.Vdc=0 V VP1GROUND.Vdc=-6.8 V  freq=100 MHz
Flags: complex 
No. Variables: 7      
No. Points: 1       
Variables:	0	freq	frequency 
		1	S[1,1]	s-param plot=0 grid=3
		2	S[1,2]	s-param plot=0 grid=3
		3	S[2,1]	s-param plot=0 grid=3
		4	S[2,2]	s-param plot=0 grid=3
		5	PORTZ[1]	none plot=0 grid=3
		6	PORTZ[2]	none plot=0 grid=3
Values:
0	1.000000000000000e+08,0.000000000000000e+00
	9.986340857419078e-01,-5.110812586119493e-02
	4.029135644420503e-04,1.034040563120133e-02
	4.433340294444415e-04,1.137773828298819e-02
	9.995831687100121e-01,-2.675164202261906e-02
	5.000000000000000e+01,0.000000000000000e+00
	5.000000000000000e+01,0.000000000000000e+00

Plotname: SP ct2[1].ct1[1/3].S_Parameters[13/46] <3CV_ini.txt>  VP2GROUND.Vdc=0 V VP1GROUND.Vdc=-6.6 V  freq=100 MHz
Flags: complex 
No. Variables: 7      
No. Points: 1       
Variables:	0	freq	frequency 
		1	S[1,1]	s-param plot=0 grid=3
		2	S[1,2]	s-param plot=0 grid=3
		3	S[2,1]	s-param plot=0 grid=3
		4	S[2,2]	s-param plot=0 grid=3
		5	PORTZ[1]	none plot=0 grid=3
		6	PORTZ[2]	none plot=0 grid=3
Values:
0	1.000000000000000e+08,0.000000000000000e+00
	9.986338073193033e-01,-5.110810637780892e-02
	4.050768758484850e-04,1.038937854271124e-02
	4.436127053323247e-04,1.137772204784722e-02
	9.995815768632859e-01,-2.680064473385012e-02
	5.000000000000000e+01,0.000000000000000e+00
	5.000000000000000e+01,0.000000000000000e+00

Plotname: SP ct2[1].ct1[1/3].S_Parameters[14/46] <3CV_ini.txt>  VP2GROUND.Vdc=0 V VP1GROUND.Vdc=-6.4 V  freq=100 MHz
Flags: complex 
No. Variables: 7      
No. Points: 1       
Variables:	0	freq	frequency 
		1	S[1,1]	s-param plot=0 grid=3
		2	S[1,2]	s-param plot=0 grid=3
		3	S[2,1]	s-param plot=0 grid=3
		4	S[2,2]	s-param plot=0 grid=3
		5	PORTZ[1]	none plot=0 grid=3
		6	PORTZ[2]	none plot=0 grid=3
Values:
0	1.000000000000000e+08,0.000000000000000e+00
	9.986335288979149e-01,-5.110808688079115e-02
	4.072425861899016e-04,1.043835130225416e-02
	4.438913801630235e-04,1.137770579905899e-02
	9.995799826156249e-01,-2.684964732110303e-02
	5.000000000000000e+01,0.000000000000000e+00
	5.000000000000000e+01,0.000000000000000e+00

Plotname: SP ct2[1].ct1[1/3].S_Parameters[15/46] <3CV_ini.txt>  VP2GROUND.Vdc=0 V VP1GROUND.Vdc=-6.2 V  freq=100 MHz
Flags: complex 
No. Variables: 7      
No. Points: 1       
Variables:	0	freq	frequency 
		1	S[1,1]	s-param plot=0 grid=3
		2	S[1,2]	s-param plot=0 grid=3
		3	S[2,1]	s-param plot=0 grid=3
		4	S[2,2]	s-param plot=0 grid=3
		5	PORTZ[1]	none plot=0 grid=3
		6	PORTZ[2]	none plot=0 grid=3
Values:
0	1.000000000000000e+08,0.000000000000000e+00
	9.986332504777435e-01,-5.110806737014172e-02
	4.094106954517471e-04,1.048732390965387e-02
	4.441700539355361e-04,1.137768953662361e-02
	9.995783859670411e-01,-2.689864978420135e-02
	5.000000000000000e+01,0.000000000000000e+00
	5.000000000000000e+01,0.000000000000000e+00

Plotname: SP ct2[1].ct1[1/3].S_Parameters[16/46] <3CV_ini.txt>  VP2GROUND.Vdc=0 V VP1GROUND.Vdc=-6 V  freq=100 MHz
Flags: complex 
No. Variables: 7      
No. Points: 1       
Variables:	0	freq	frequency 
		1	S[1,1]	s-param plot=0 grid=3
		2	S[1,2]	s-param plot=0 grid=3
		3	S[2,1]	s-param plot=0 grid=3
		4	S[2,2]	s-param plot=0 grid=3
		5	PORTZ[1]	none plot=0 grid=3
		6	PORTZ[2]	none plot=0 grid=3
Values:
0	1.000000000000000e+08,0.000000000000000e+00
	9.986329720587910e-01,-5.110804784586073e-02
	4.115812036194540e-04,1.053629636473425e-02
	4.444487266488631e-04,1.137767326054120e-02
	9.995767869175587e-01,-2.694765212296901e-02
	5.000000000000000e+01,0.000000000000000e+00
	5.000000000000000e+01,0.000000000000000e+00

Plotname: SP ct2[1].ct1[1/3].S_Parameters[17/46] <3CV_ini.txt>  VP2GROUND.Vdc=0 V VP1GROUND.Vdc=-5.8 V  freq=100 MHz
Flags: complex 
No. Variables: 7      
No. Points: 1       
Variables:	0	freq	frequency 
		1	S[1,1]	s-param plot=0 grid=3
		2	S[1,2]	s-param plot=0 grid=3
		3	S[2,1]	s-param plot=0 grid=3
		4	S[2,2]	s-param plot=0 grid=3
		5	PORTZ[1]	none plot=0 grid=3
		6	PORTZ[2]	none plot=0 grid=3
Values:
0	1.000000000000000e+08,0.000000000000000e+00
	9.986326936410566e-01,-5.110802830794829e-02
	4.137541106784314e-04,1.058526866731900e-02
	4.447273983019990e-04,1.137765697081182e-02
	9.995751854671764e-01,-2.699665433722929e-02
	5.000000000000000e+01,0.000000000000000e+00
	5.000000000000000e+01,0.000000000000000e+00

Plotname: SP ct2[1].ct1[1/3].S_Parameters[18/46] <3CV_ini.txt>  VP2GROUND.Vdc=0 V VP1GROUND.Vdc=-5.6 V  freq=100 MHz
Flags: complex 
No. Variables: 7      
No. Points: 1       
Variables:	0	freq	frequency 
		1	S[1,1]	s-param plot=0 grid=3
		2	S[1,2]	s-param plot=0 grid=3
		3	S[2,1]	s-param plot=0 grid=3
		4	S[2,2]	s-param plot=0 grid=3
		5	PORTZ[1]	none plot=0 grid=3
		6	PORTZ[2]	none plot=0 grid=3
Values:
0	1.000000000000000e+08,0.000000000000000e+00
	9.986324152245429e-01,-5.110800875640450e-02
	4.159294166140774e-04,1.063424081723202e-02
	4.450060688939449e-04,1.137764066743563e-02
	9.995735816159195e-01,-2.704565642680610e-02
	5.000000000000000e+01,0.000000000000000e+00
	5.000000000000000e+01,0.000000000000000e+00

Plotname: SP ct2[1].ct1[1/3].S_Parameters[19/46] <3CV_ini.txt>  VP2GROUND.Vdc=0 V VP1GROUND.Vdc=-5.4 V  freq=100 MHz
Flags: complex 
No. Variables: 7      
No. Points: 1       
Variables:	0	freq	frequency 
		1	S[1,1]	s-param plot=0 grid=3
		2	S[1,2]	s-param plot=0 grid=3
		3	S[2,1]	s-param plot=0 grid=3
		4	S[2,2]	s-param plot=0 grid=3
		5	PORTZ[1]	none plot=0 grid=3
		6	PORTZ[2]	none plot=0 grid=3
Values:
0	1.000000000000000e+08,0.000000000000000e+00
	9.986321368092510e-01,-5.110798919122947e-02
	4.181071214117687e-04,1.068321281429707e-02
	4.452847384236970e-04,1.137762435041268e-02
	9.995719753637931e-01,-2.709465839152288e-02
	5.000000000000000e+01,0.000000000000000e+00
	5.000000000000000e+01,0.000000000000000e+00

Plotname: SP ct2[1].ct1[1/3].S_Parameters[20/46] <3CV_ini.txt>  VP2GROUND.Vdc=0 V VP1GROUND.Vdc=-5.2 V  freq=100 MHz
Flags: complex 
No. Variables: 7      
No. Points: 1       
Variables:	0	freq	frequency 
		1	S[1,1]	s-param plot=0 grid=3
		2	S[1,2]	s-param plot=0 grid=3
		3	S[2,1]	s-param plot=0 grid=3
		4	S[2,2]	s-param plot=0 grid=3
		5	PORTZ[1]	none plot=0 grid=3
		6	PORTZ[2]	none plot=0 grid=3
Values:
0	1.000000000000000e+08,0.000000000000000e+00
	9.986318583951794e-01,-5.110796961242330e-02
	4.202872250568627e-04,1.073218465833789e-02
	4.455634068902505e-04,1.137760801974302e-02
	9.995703667108020e-01,-2.714366023120305e-02
	5.000000000000000e+01,0.000000000000000e+00
	5.000000000000000e+01,0.000000000000000e+00

Plotname: SP ct2[1].ct1[1/3].S_Parameters[21/46] <3CV_ini.txt>  VP2GROUND.Vdc=0 V VP1GROUND.Vdc=-5 V  freq=100 MHz
Flags: complex 
No. Variables: 7      
No. Points: 1       
Variables:	0	freq	frequency 
		1	S[1,1]	s-param plot=0 grid=3
		2	S[1,2]	s-param plot=0 grid=3
		3	S[2,1]	s-param plot=0 grid=3
		4	S[2,2]	s-param plot=0 grid=3
		5	PORTZ[1]	none plot=0 grid=3
		6	PORTZ[2]	none plot=0 grid=3
Values:
0	1.000000000000000e+08,0.000000000000000e+00
	9.986315799823329e-01,-5.110795001998612e-02
	4.224697275347059e-04,1.078115634917836e-02
	4.458420742926059e-04,1.137759167542680e-02
	9.995687556569657e-01,-2.719266194567041e-02
	5.000000000000000e+01,0.000000000000000e+00
	5.000000000000000e+01,0.000000000000000e+00

Plotname: SP ct2[1].ct1[1/3].S_Parameters[22/46] <3CV_ini.txt>  VP2GROUND.Vdc=0 V VP1GROUND.Vdc=-4.8 V  freq=100 MHz
Flags: complex 
No. Variables: 7      
No. Points: 1       
Variables:	0	freq	frequency 
		1	S[1,1]	s-param plot=0 grid=3
		2	S[1,2]	s-param plot=0 grid=3
		3	S[2,1]	s-param plot=0 grid=3
		4	S[2,2]	s-param plot=0 grid=3
		5	PORTZ[1]	none plot=0 grid=3
		6	PORTZ[2]	none plot=0 grid=3
Values:
0	1.000000000000000e+08,0.000000000000000e+00
	9.986313015707107e-01,-5.110793041391805e-02
	4.246546288306261e-04,1.083012788664230e-02
	4.461207406297632e-04,1.137757531746415e-02
	9.995671422023042e-01,-2.724166353474880e-02
	5.000000000000000e+01,0.000000000000000e+00
	5.000000000000000e+01,0.000000000000000e+00

Plotname: SP ct2[1].ct1[1/3].S_Parameters[23/46] <3CV_ini.txt>  VP2GROUND.Vdc=0 V VP1GROUND.Vdc=-4.6 V  freq=100 MHz
Flags: complex 
No. Variables: 7      
No. Points: 1       
Variables:	0	freq	frequency 
		1	S[1,1]	s-param plot=0 grid=3
		2	S[1,2]	s-param plot=0 grid=3
		3	S[2,1]	s-param plot=0 grid=3
		4	S[2,2]	s-param plot=0 grid=3
		5	PORTZ[1]	none plot=0 grid=3
		6	PORTZ[2]	none plot=0 grid=3
Values:
0	1.000000000000000e+08,0.000000000000000e+00
	9.986310231603130e-01,-5.110791079421920e-02
	4.268419289299317e-04,1.087909927055354e-02
	4.463994059007197e-04,1.137755894585516e-02
	9.995655263468304e-01,-2.729066499826176e-02
	5.000000000000000e+01,0.000000000000000e+00
	5.000000000000000e+01,0.000000000000000e+00

Plotname: SP ct2[1].ct1[1/3].S_Parameters[24/46] <3CV_ini.txt>  VP2GROUND.Vdc=0 V VP1GROUND.Vdc=-4.4 V  freq=100 MHz
Flags: complex 
No. Variables: 7      
No. Points: 1       
Variables:	0	freq	frequency 
		1	S[1,1]	s-param plot=0 grid=3
		2	S[1,2]	s-param plot=0 grid=3
		3	S[2,1]	s-param plot=0 grid=3
		4	S[2,2]	s-param plot=0 grid=3
		5	PORTZ[1]	none plot=0 grid=3
		6	PORTZ[2]	none plot=0 grid=3
Values:
0	1.000000000000000e+08,0.000000000000000e+00
	9.986307447511402e-01,-5.110789116088958e-02
	4.290316278179095e-04,1.092807050073578e-02
	4.466780701044680e-04,1.137754256059983e-02
	9.995639080905363e-01,-2.733966633603247e-02
	5.000000000000000e+01,0.000000000000000e+00
	5.000000000000000e+01,0.000000000000000e+00

Plotname: SP ct2[1].ct1[1/3].S_Parameters[25/46] <3CV_ini.txt>  VP2GROUND.Vdc=0 V VP1GROUND.Vdc=-4.2 V  freq=100 MHz
Flags: complex 
No. Variables: 7      
No. Points: 1       
Variables:	0	freq	frequency 
		1	S[1,1]	s-param plot=0 grid=3
		2	S[1,2]	s-param plot=0 grid=3
		3	S[2,1]	s-param plot=0 grid=3
		4	S[2,2]	s-param plot=0 grid=3
		5	PORTZ[1]	none plot=0 grid=3
		6	PORTZ[2]	none plot=0 grid=3
Values:
0	1.000000000000000e+08,0.000000000000000e+00
	9.986304663431960e-01,-5.110787151392954e-02
	4.312237254798392e-04,1.097704157701294e-02
	4.469567332400108e-04,1.137752616169833e-02
	9.995622874334433e-01,-2.738866754788478e-02
	5.000000000000000e+01,0.000000000000000e+00
	5.000000000000000e+01,0.000000000000000e+00

Plotname: SP ct2[1].ct1[1/3].S_Parameters[26/46] <3CV_ini.txt>  VP2GROUND.Vdc=0 V VP1GROUND.Vdc=-4 V  freq=100 MHz
Flags: complex 
No. Variables: 7      
No. Points: 1       
Variables:	0	freq	frequency 
		1	S[1,1]	s-param plot=0 grid=3
		2	S[1,2]	s-param plot=0 grid=3
		3	S[2,1]	s-param plot=0 grid=3
		4	S[2,2]	s-param plot=0 grid=3
		5	PORTZ[1]	none plot=0 grid=3
		6	PORTZ[2]	none plot=0 grid=3
Values:
0	1.000000000000000e+08,0.000000000000000e+00
	9.986301879364781e-01,-5.110785185340350e-02
	4.334182218975813e-04,1.102601249914511e-02
	4.472353953026941e-04,1.137750974908125e-02
	9.995606643576820e-01,-2.743766863317384e-02
	5.000000000000000e+01,0.000000000000000e+00
	5.000000000000000e+01,0.000000000000000e+00

Plotname: SP ct2[1].ct1[1/3].S_Parameters[27/46] <3CV_ini.txt>  VP2GROUND.Vdc=0 V VP1GROUND.Vdc=-3.8 V  freq=100 MHz
Flags: complex 
No. Variables: 7      
No. Points: 1       
Variables:	0	freq	frequency 
		1	S[1,1]	s-param plot=0 grid=3
		2	S[1,2]	s-param plot=0 grid=3
		3	S[2,1]	s-param plot=0 grid=3
		4	S[2,2]	s-param plot=0 grid=3
		5	PORTZ[1]	none plot=0 grid=3
		6	PORTZ[2]	none plot=0 grid=3
Values:
0	1.000000000000000e+08,0.000000000000000e+00
	9.986299095309281e-01,-5.110783218049540e-02
	4.356151169814548e-04,1.107498326553866e-02
	4.475140562142086e-04,1.137749332128330e-02
	9.995590385015931e-01,-2.748666958216852e-02
	5.000000000000000e+01,0.000000000000000e+00
	5.000000000000000e+01,0.000000000000000e+00

Plotname: SP ct2[1].ct1[1/3].S_Parameters[28/46] <3CV_ini.txt>  VP2GROUND.Vdc=0 V VP1GROUND.Vdc=-3.6 V  freq=100 MHz
Flags: complex 
No. Variables: 7      
No. Points: 1       
Variables:	0	freq	frequency 
		1	S[1,1]	s-param plot=0 grid=3
		2	S[1,2]	s-param plot=0 grid=3
