Title: 5DC_trans.txt
Date: Tue Mar 19 13:34:12 2024
Plotname: DC ct1[1].dc1[1/6] <5DC_trans.txt>  VDGROUND.Vdc=100 mV  VGGROUND.Vdc=(-3 V->1 V)
Flags: real 
No. Variables: 14     
No. Points: 11      
Variables:	0	VGGROUND.Vdc	none 
		1	n1	voltage plot=0 grid=1
		2	n2	voltage plot=0 grid=1
		3	n3	voltage plot=0 grid=1
		4	XCKT.Gi	voltage plot=0 grid=1
		5	XCKT.Di	voltage plot=0 grid=1
		6	XCKT.X1.Si	voltage plot=0 grid=1
		7	XCKT.X1.Gi	voltage plot=0 grid=1
		8	XCKT.X1.Di	voltage plot=0 grid=1
		9	XCKT.X1.Sii	voltage plot=0 grid=1
		10	XCKT.X1.Gii	voltage plot=0 grid=1
		11	XCKT.X1.Dii	voltage plot=0 grid=1
		12	VGGROUND.i	current plot=0 grid=1
		13	VDGROUND.i	current plot=0 grid=1
Values:
0	-3.000000000000000e+00	1.000000000000000e-01
	-3.000000000000000e+00	4.200726805840195e-08
	-2.999999999395623e+00	9.999999239922490e-02
	1.749099374917717e-11	-2.999999999394111e+00
	9.999999238022297e-02	1.749099374917717e-11
	-2.999999999394111e+00	9.999999238022297e-02
	1.510944000000000e-09	-1.900193774917717e-08

1	-2.600000000000000e+00	1.000000000000000e-01
	-2.600000000000000e+00	2.109341676571699e-05
	-2.599999999395623e+00	9.999648294130338e-02
	8.791135797570512e-09	-2.599999999394111e+00
	9.999647414865663e-02	8.791135797570512e-09
	-2.599999999394111e+00	9.999647414865663e-02
	1.510943999999996e-09	-8.792646741570513e-06

2	-2.200000000000000e+00	1.000000000000000e-01
	-2.200000000000000e+00	4.807549416875208e-03
	-2.199999999395623e+00	9.914631245407507e-02
	2.134217353868331e-06	-2.199999999394112e+00
	9.914417823521027e-02	2.134217353868331e-06
	-2.199999999394112e+00	9.914417823521027e-02
	1.510943999999445e-09	-2.134218864812331e-03

3	-1.800000000000000e+00	1.000000000000000e-01
	-1.800000000000000e+00	2.008532219026908e-02
	-1.799999999395623e+00	9.438067611874369e-02
	1.404830819219679e-05	-1.799999999394112e+00
	9.436662780904055e-02	1.404830819219679e-05
	-1.799999999394112e+00	9.436662780904055e-02
	1.510943999887765e-09	-1.404830970314079e-02

4	-1.400000000000000e+00	1.000000000000000e-01
	-1.400000000000000e+00	2.048513213200481e-02
	-1.399999999395623e+00	9.213154422070385e-02
	1.967113793729639e-05	-1.399999999394112e+00
	9.211187308125561e-02	1.967113793729639e-05
	-1.399999999394112e+00	9.211187308125561e-02
	1.510943980756447e-09	-1.967113944824037e-02

5	-1.000000000000000e+00	1.000000000000000e-01
	-1.000000000000000e+00	1.947346298781549e-02
	-9.999999993956240e-01	9.126475126805043e-02
	2.183812031893294e-05	-9.999999993941131e-01
	9.124291314622056e-02	2.183812031893294e-05
	-9.999999993941131e-01	9.124291314622056e-02
	1.510940997407029e-09	-2.183812182987395e-02

6	-6.000000000000004e-01	1.000000000000000e-01
	-6.000000000000004e-01	1.873686983700141e-02
	-5.999999993958048e-01	9.083785750765269e-02
	2.290535472037936e-05	-5.999999993942944e-01
	9.081495215142182e-02	2.290535472037936e-05
	-5.999999993942944e-01	9.081495215142182e-02
	1.510488936906757e-09	-2.290535623086830e-02

7	-2.000000000000004e-01	1.000000000000000e-01
	-2.000000000000004e-01	1.823480085403269e-02
	-1.999999994229401e-01	9.058895350615925e-02
	2.352761479195109e-05	-1.999999994214974e-01
	9.056542588992465e-02	2.352761479195109e-05
	-1.999999994214974e-01	9.056542588992465e-02
	1.442650797563949e-09	-2.352761623460188e-02

8	1.999999999999996e-01	1.000000000000000e-01
	1.999999999999996e-01	1.787774115602274e-02
	1.999999965073515e-01	9.042626317969532e-02
	2.393435078238214e-05	1.999999964986198e-01
	9.040232883764455e-02	2.393435078238214e-05
	1.999999964986198e-01	9.040232883764455e-02
	-8.731620439877633e-09	-2.393434205076171e-02

9	5.999999999999996e-01	1.000000000000000e-01
	5.999999999999996e-01	1.761153324493414e-02
	5.999993809588121e-01	9.031105066826055e-02
	2.422392093231748e-05	5.999993794112092e-01
	9.028682829493120e-02	2.422392093231748e-05
	5.999993794112092e-01	9.028682829493120e-02
	-1.547602968838338e-06	-2.422237332934864e-02

10	1.000000000000000e+00	1.000000000000000e-01
	1.000000000000000e+00	1.756488954823799e-02
	9.999044725963789e-01	9.026545512948876e-02
	2.457518068533076e-05	9.999042337778699e-01
	9.024111876731249e-02	2.457518068533076e-05
	9.999042337778699e-01	9.024111876731249e-02
	-2.388185090526570e-04	-2.433636217627810e-02

Plotname: DC ct1[1].dc1[2/6] <5DC_trans.txt>  VDGROUND.Vdc=4.1 V  VGGROUND.Vdc=(-3 V->1 V)
Flags: real 
No. Variables: 14     
No. Points: 11      
Variables:	0	VGGROUND.Vdc	none 
		1	n1	voltage plot=0 grid=1
		2	n2	voltage plot=0 grid=1
		3	n3	voltage plot=0 grid=1
		4	XCKT.Gi	voltage plot=0 grid=1
		5	XCKT.Di	voltage plot=0 grid=1
		6	XCKT.X1.Si	voltage plot=0 grid=1
		7	XCKT.X1.Gi	voltage plot=0 grid=1
		8	XCKT.X1.Di	voltage plot=0 grid=1
		9	XCKT.X1.Sii	voltage plot=0 grid=1
		10	XCKT.X1.Gii	voltage plot=0 grid=1
		11	XCKT.X1.Dii	voltage plot=0 grid=1
		12	VGGROUND.i	current plot=0 grid=1
		13	VDGROUND.i	current plot=0 grid=1
Values:
0	-3.000000000000000e+00	4.100000000000000e+00
	-3.000000000000000e+00	3.684698364914249e-04
	-2.999999999395623e+00	4.099998501550038e+00
	3.744613959867569e-09	-2.999999999394111e+00
	4.099998497803913e+00	3.744613959867569e-09
	-2.999999999394111e+00	4.099998497803913e+00
	1.510944000000000e-09	-3.746124903867569e-06

1	-2.600000000000000e+00	4.100000000000000e+00
	-2.600000000000000e+00	1.370941965342848e-01
	-2.599999999395623e+00	4.099442159635720e+00
	1.394599399753684e-06	-2.599999999394111e+00
	4.099440765034810e+00	1.394599399753684e-06
	-2.599999999394111e+00	4.099440765034810e+00
	1.510943999999849e-09	-1.394600910697684e-03

2	-2.200000000000000e+00	4.100000000000000e+00
	-2.200000000000000e+00	3.278943952658516e+00
	-2.199999999395623e+00	4.086339606934535e+00
	3.415098115271770e-05	-2.199999999394112e+00
	4.086305455951871e+00	3.415098115271770e-05
	-2.199999999394112e+00	4.086305455951871e+00
	1.510943999996383e-09	-3.415098266366169e-02

3	-1.800000000000000e+00	4.100000000000000e+00
	-1.800000000000000e+00	1.061474780030389e+01
	-1.799999999395623e+00	4.052785175817934e+00
	1.180370589442201e-04	-1.799999999394112e+00
	4.052667138757479e+00	1.180370589442201e-04
	-1.799999999394112e+00	4.052667138757479e+00
	1.510943999988249e-09	-1.180370604551641e-01

4	-1.400000000000000e+00	4.100000000000000e+00
	-1.400000000000000e+00	1.828644118473355e+01
	-1.399999999395623e+00	4.010712945893930e+00
	2.232176337542302e-04	-1.399999999394112e+00
	4.010489728258665e+00	2.232176337542302e-04
	-1.399999999394112e+00	4.010489728258665e+00
	1.510943999973629e-09	-2.232176352651742e-01

5	-1.000000000000000e+00	4.100000000000000e+00
	-1.000000000000000e+00	2.420315477936920e+01
	-9.999999993956229e-01	3.968421848251357e+00
	3.289453778606612e-04	-9.999999993941119e-01
	3.968092902871986e+00	3.289453778606612e-04
	-9.999999993941119e-01	3.968092902871986e+00
	1.510943999326277e-09	-3.289453793716052e-01

6	-6.000000000000004e-01	4.100000000000000e+00
	-6.000000000000004e-01	2.798923171618020e+01
	-5.999999993956229e-01	3.930013018956072e+00
	4.249674510988758e-04	-5.999999993941119e-01
	3.929588051503462e+00	4.249674510988758e-04
	-5.999999993941119e-01	3.929588051503462e+00
	1.510943942864508e-09	-4.249674526098197e-01

7	-2.000000000000004e-01	4.100000000000000e+00
	-2.000000000000004e-01	3.003435114540558e+01
	-1.999999993956248e-01	3.897339563030967e+00
	5.066510909116425e-04	-1.999999993941139e-01
	3.896832911938545e+00	5.066510909116425e-04
	-1.999999993941139e-01	3.896832911938545e+00
	1.510938940374116e-09	-5.066510924225814e-01

8	1.999999999999996e-01	4.100000000000000e+00
	1.999999999999996e-01	3.092237727113347e+01
	2.000000006041783e-01	3.870924619877084e+00
	5.726884487968426e-04	2.000000006056887e-01
	3.870351931426776e+00	5.726884487968426e-04
	2.000000006056887e-01	3.870351931426776e+00
	1.510446682415185e-09	-5.726884503072893e-01

9	5.999999999999996e-01	4.100000000000000e+00
	5.999999999999996e-01	3.115890356353712e+01
	6.000000005818916e-01	3.850393510058617e+00
	6.240162233987271e-04	6.000000005833463e-01
	3.849769493833763e+00	6.240162233987271e-04
	6.000000005833463e-01	3.849769493833763e+00
	1.454729933262002e-09	-6.240162248534570e-01

10	1.000000000000000e+00	4.100000000000000e+00
	1.000000000000000e+00	3.108441527812697e+01
	9.999999976989886e-01	3.834818118998204e+00
	6.629547082570176e-04	9.999999976932361e-01
	3.834155164295699e+00	6.629547082570176e-04
	9.999999976932361e-01	3.834155164295699e+00
	-5.752528320435483e-09	-6.629547025044893e-01

Plotname: DC ct1[1].dc1[3/6] <5DC_trans.txt>  VDGROUND.Vdc=8.1 V  VGGROUND.Vdc=(-3 V->1 V)
Flags: real 
No. Variables: 14     
No. Points: 11      
Variables:	0	VGGROUND.Vdc	none 
		1	n1	voltage plot=0 grid=1
		2	n2	voltage plot=0 grid=1
		3	n3	voltage plot=0 grid=1
		4	XCKT.Gi	voltage plot=0 grid=1
		5	XCKT.Di	voltage plot=0 grid=1
		6	XCKT.X1.Si	voltage plot=0 grid=1
		7	XCKT.X1.Gi	voltage plot=0 grid=1
		8	XCKT.X1.Di	voltage plot=0 grid=1
		9	XCKT.X1.Sii	voltage plot=0 grid=1
		10	XCKT.X1.Gii	voltage plot=0 grid=1
		11	XCKT.X1.Dii	voltage plot=0 grid=1
		12	VGGROUND.i	current plot=0 grid=1
		13	VDGROUND.i	current plot=0 grid=1
Values:
0	-3.000000000000000e+00	8.100000000000000e+00
	-3.000000000000000e+00	6.402126316390188e-03
	-2.999999999395623e+00	8.099986826143692e+00
	3.293312982490222e-08	-2.999999999394111e+00
	8.099986793209052e+00	3.293312982490222e-08
	-2.999999999394111e+00	8.099986793209052e+00
	1.510943999999993e-09	-3.293464076890221e-05

1	-2.600000000000000e+00	8.100000000000000e+00
	-2.600000000000000e+00	1.234484229501416e+00
	-2.599999999395623e+00	8.097454126038395e+00
	6.364683393066587e-06	-2.599999999394111e+00
	8.097447761353491e+00	6.364683393066587e-06
	-2.599999999394111e+00	8.097447761353491e+00
	1.510943999998638e-09	-6.364684904010587e-03

2	-2.200000000000000e+00	8.100000000000000e+00
	-2.200000000000000e+00	1.153657014431629e+01
	-2.199999999395623e+00	8.075716055823982e+00
	6.070985892910208e-05	-2.199999999394112e+00
	8.075655345963542e+00	6.070985892910208e-05
	-2.199999999394112e+00	8.075655345963542e+00
	1.510943999987273e-09	-6.070986044004608e-02

3	-1.800000000000000e+00	8.100000000000000e+00
	-1.800000000000000e+00	2.865260838718522e+01
	-1.799999999395623e+00	8.037152429490394e+00
	1.571189247630684e-04	-1.799999999394112e+00
	8.036995310564121e+00	1.571189247630684e-04
	-1.799999999394112e+00	8.036995310564121e+00
	1.510943999968282e-09	-1.571189262740124e-01

4	-1.400000000000000e+00	8.100000000000000e+00
	-1.400000000000000e+00	4.553378534720336e+01
	-1.399999999395623e+00	7.994690068604916e+00
	2.632748269767665e-04	-1.399999999394112e+00
	7.994426793776428e+00	2.632748269767665e-04
	-1.399999999394112e+00	7.994426793776428e+00
	1.510943999932236e-09	-2.632748284877105e-01

5	-1.000000000000000e+00	8.100000000000000e+00
	-1.000000000000000e+00	5.925070939815682e+01
	-9.999999993956229e-01	7.954849380735779e+00
	3.628765466496071e-04	-9.999999993941119e-01
	7.954486504187619e+00	3.628765466496071e-04
	-9.999999993941119e-01	7.954486504187619e+00
	1.510943998470044e-09	-3.628765481605511e-01

6	-6.000000000000004e-01	8.100000000000000e+00
	-6.000000000000004e-01	6.940358147047549e+01
	-5.999999993956229e-01	7.919996978351188e+00
	4.500075526110861e-04	-5.999999993941119e-01
	7.919546970797065e+00	4.500075526110861e-04
	-5.999999993941119e-01	7.919546970797065e+00
	1.510943916234952e-09	-4.500075541220299e-01

7	-2.000000000000004e-01	8.100000000000000e+00
	-2.000000000000004e-01	7.653494638707636e+01
	-1.999999993956244e-01	7.890623751430430e+00
	5.234406199129859e-04	-1.999999993941135e-01
	7.890100310809006e+00	5.234406199129859e-04
	-1.999999993941135e-01	7.890100310809006e+00
	1.510939955847735e-09	-5.234406214239258e-01

8	1.999999999999996e-01	8.100000000000000e+00
	1.999999999999996e-01	8.139498260524043e+01
	2.000000006043021e-01	7.866379384167347e+00
	5.840515380708761e-04	2.000000006058128e-01
	7.865795332627765e+00	5.840515380708761e-04
	2.000000006058128e-01	7.865795332627765e+00
	1.510756132778813e-09	-5.840515395816321e-01

9	5.999999999999996e-01	8.100000000000000e+00
	5.999999999999996e-01	8.465666778546175e+01
	6.000000006007896e-01	7.846561120815551e+00
	6.335971964591478e-04	6.000000006022916e-01
	7.845927523617590e+00	6.335971964591478e-04
	6.000000006022916e-01	7.845927523617590e+00
	1.501974983246595e-09	-6.335971979611228e-01

10	1.000000000000000e+00	8.100000000000000e+00
	1.000000000000000e+00	8.683401647704889e+01
	1.000000000423222e+00	7.830386726816247e+00
	6.740331819013279e-04	1.000000000424280e+00
	7.829712693633287e+00	6.740331819013279e-04
	1.000000000424280e+00	7.829712693633287e+00
	1.058054381719765e-09	-6.740331829593822e-01

Plotname: DC ct1[1].dc1[4/6] <5DC_trans.txt>  VDGROUND.Vdc=12.1 V  VGGROUND.Vdc=(-3 V->1 V)
Flags: real 
No. Variables: 14     
No. Points: 11      
Variables:	0	VGGROUND.Vdc	none 
		1	n1	voltage plot=0 grid=1
		2	n2	voltage plot=0 grid=1
		3	n3	voltage plot=0 grid=1
		4	XCKT.Gi	voltage plot=0 grid=1
		5	XCKT.Di	voltage plot=0 grid=1
		6	XCKT.X1.Si	voltage plot=0 grid=1
		7	XCKT.X1.Gi	voltage plot=0 grid=1
		8	XCKT.X1.Di	voltage plot=0 grid=1
		9	XCKT.X1.Sii	voltage plot=0 grid=1
		10	XCKT.X1.Gii	voltage plot=0 grid=1
		11	XCKT.X1.Dii	voltage plot=0 grid=1
		12	VGGROUND.i	current plot=0 grid=1
		13	VDGROUND.i	current plot=0 grid=1
Values:
0	-3.000000000000000e+00	1.210000000000000e+01
	-3.000000000000000e+00	2.112932520721717e-02
	-2.999999999395623e+00	1.209997089513826e+01
	7.276064341244047e-08	-2.999999999394111e+00
	1.209997082237610e+01	7.276064341244047e-08
	-2.999999999394111e+00	1.209997082237610e+01
	1.510943999999977e-09	-7.276215435644048e-05

1	-2.600000000000000e+00	1.210000000000000e+01
	-2.600000000000000e+00	2.887823540794766e+00
	-2.599999999395623e+00	1.209601272903953e+01
	9.968175890238204e-06	-2.599999999394111e+00
	1.209600276086213e+01	9.968175890238204e-06
	-2.599999999394111e+00	1.209600276086213e+01
	1.510943999996814e-09	-9.968177401182204e-03

2	-2.200000000000000e+00	1.210000000000000e+01
	-2.200000000000000e+00	2.061101339909016e+01
	-2.199999999395623e+00	1.207107416942677e+01
	7.231457492212660e-05	-2.199999999394112e+00
	1.207100185485034e+01	7.231457492212660e-05
	-2.199999999394112e+00	1.207100185485034e+01
	1.510943999977261e-09	-7.231457643307060e-02

3	-1.800000000000000e+00	1.210000000000000e+01
	-1.800000000000000e+00	4.697089072785806e+01
	-1.799999999395623e+00	1.203204919951514e+01
	1.698769997012105e-04	-1.799999999394112e+00
	1.203187932251392e+01	1.698769997012105e-04
	-1.799999999394112e+00	1.203187932251392e+01
	1.510943999947856e-09	-1.698770012121545e-01

4	-1.400000000000000e+00	1.210000000000000e+01
	-1.400000000000000e+00	7.199192313836494e+01
	-1.399999999395623e+00	1.199180024658996e+01
	2.704993820141570e-04	-1.399999999394112e+00
	1.199152974720643e+01	2.704993820141570e-04
	-1.399999999394112e+00	1.199152974720643e+01
	1.510943999868529e-09	-2.704993835251010e-01

5	-1.000000000000000e+00	1.210000000000000e+01
	-1.000000000000000e+00	9.222725105750658e+01
	-9.999999993956229e-01	1.195554778692174e+01
	3.611305311847065e-04	-9.999999993941119e-01
	1.195518665638904e+01	3.611305311847065e-04
	-9.999999993941119e-01	1.195518665638904e+01
	1.510943996499953e-09	-3.611305326956504e-01

6	-6.000000000000004e-01	1.210000000000000e+01
	-6.000000000000004e-01	1.074093372471282e+02
	-5.999999993956229e-01	1.192464789284778e+01
	4.383802663696051e-04	-5.999999993941120e-01
	1.192420951257990e+01	4.383802663696051e-04
	-5.999999993941120e-01	1.192420951257990e+01
	1.510943869704453e-09	-4.383802678805490e-01

7	-2.000000000000004e-01	1.210000000000000e+01
	-2.000000000000004e-01	1.182615010251376e+02
	-1.999999993956243e-01	1.189903079823658e+01
	5.024230028976119e-04	-1.999999993941134e-01
	1.189852837523217e+01	5.024230028976119e-04
	-1.999999993941134e-01	1.189852837523217e+01
	1.510940263658401e-09	-5.024230044085521e-01

8	1.999999999999996e-01	1.210000000000000e+01
	1.999999999999996e-01	1.257019302693347e+02
	2.000000006043400e-01	1.187807497191119e+01
	5.548125687111773e-04	2.000000006058509e-01
	1.187752015934097e+01	5.548125687111773e-04
	2.000000006058509e-01	1.187752015934097e+01
	1.510851048201814e-09	-5.548125702220283e-01

9	5.999999999999996e-01	1.210000000000000e+01
	5.999999999999996e-01	1.305725418347359e+02
	6.000000006035053e-01	1.186097245970901e+01
	5.975688492187160e-04	6.000000006050141e-01
	1.186037489085828e+01	5.975688492187160e-04
	6.000000006050141e-01	1.186037489085828e+01
	1.508764230145542e-09	-5.975688507274802e-01

10	1.000000000000000e+00	1.210000000000000e+01
	1.000000000000000e+00	1.335612400608555e+02
	1.000000000584134e+00	1.184692666996255e+01
	6.326833236332960e-04	1.000000000585594e+00
	1.184629398663745e+01	6.326833236332960e-04
	1.000000000585594e+00	1.184629398663745e+01
	1.460335572761984e-09	-6.326833250936316e-01

Plotname: DC ct1[1].dc1[5/6] <5DC_trans.txt>  VDGROUND.Vdc=16.1 V  VGGROUND.Vdc=(-3 V->1 V)
Flags: real 
No. Variables: 14     
No. Points: 11      
Variables:	0	VGGROUND.Vdc	none 
		1	n1	voltage plot=0 grid=1
		2	n2	voltage plot=0 grid=1
		3	n3	voltage plot=0 grid=1
		4	XCKT.Gi	voltage plot=0 grid=1
		5	XCKT.Di	voltage plot=0 grid=1
		6	XCKT.X1.Si	voltage plot=0 grid=1
		7	XCKT.X1.Gi	voltage plot=0 grid=1
		8	XCKT.X1.Di	voltage plot=0 grid=1
		9	XCKT.X1.Sii	voltage plot=0 grid=1
		10	XCKT.X1.Gii	voltage plot=0 grid=1
		11	XCKT.X1.Dii	voltage plot=0 grid=1
		12	VGGROUND.i	current plot=0 grid=1
		13	VDGROUND.i	current plot=0 grid=1
Values:
0	-3.000000000000000e+00	1.610000000000000e+01
	-3.000000000000000e+00	3.971817296541283e-02
	-2.999999999395623e+00	1.609995888251744e+01
	1.027921954619092e-07	-2.999999999394111e+00
	1.609995877972373e+01	1.027921954619092e-07
	-2.999999999394111e+00	1.609995877972373e+01
	1.510943999999956e-09	-1.027937064059092e-04

1	-2.600000000000000e+00	1.610000000000000e+01
	-2.600000000000000e+00	4.618218875281614e+00
	-2.599999999395623e+00	1.609520880366593e+01
	1.197798932424626e-05	-2.599999999394111e+00
	1.609519682567509e+01	1.197798932424626e-05
	-2.599999999394111e+00	1.609519682567509e+01
	1.510943999994905e-09	-1.197799083519026e-02

2	-2.200000000000000e+00	1.610000000000000e+01
	-2.200000000000000e+00	2.949762351890682e+01
	-2.199999999395623e+00	1.606898602294471e+01
	7.753494112728633e-05	-2.199999999394112e+00
	1.606890848800207e+01	7.753494112728633e-05
	-2.199999999394112e+00	1.606890848800207e+01
	1.510943999967457e-09	-7.753494263823031e-02

3	-1.800000000000000e+00	1.610000000000000e+01
	-1.800000000000000e+00	6.428026620368921e+01
	-1.799999999395623e+00	1.603075614450005e+01
	1.731096372389424e-04	-1.799999999394112e+00
	1.603058303486130e+01	1.731096372389424e-04
	-1.799999999394112e+00	1.603058303486130e+01
	1.510943999928195e-09	-1.731096387498864e-01

4	-1.400000000000000e+00	1.610000000000000e+01
	-1.400000000000000e+00	9.630008377523690e+01
	-1.399999999395623e+00	1.599305669995062e+01
	2.673582486124977e-04	-1.399999999394112e+00
	1.599278934170050e+01	2.673582486124977e-04
	-1.399999999394112e+00	1.599278934170050e+01
	1.510943999761219e-09	-2.673582501234417e-01

5	-1.000000000000000e+00	1.610000000000000e+01
	-1.000000000000000e+00	1.218669833411962e+02
	-9.999999993956229e-01	1.596006232020158e+01
	3.498441979851001e-04	-9.999999993941119e-01
	1.595971247600209e+01	3.498441979851001e-04
	-9.999999993941119e-01	1.595971247600209e+01
	1.510943993158499e-09	-3.498441994960441e-01

6	-6.000000000000004e-01	1.610000000000000e+01
	-6.000000000000004e-01	1.407983195845107e+02
	-5.999999993956229e-01	1.593257071590287e+01
	4.185732087318952e-04	-5.999999993941120e-01
	1.593215214269262e+01	4.185732087318952e-04
	-5.999999993941120e-01	1.593215214269262e+01
	1.510943825890019e-09	-4.185732102428390e-01

7	-2.000000000000004e-01	1.610000000000000e+01
	-2.000000000000004e-01	1.537781948382789e+02
	-1.999999993956240e-01	1.591033387503830e+01
	4.741653108933066e-04	-1.999999993941130e-01
	1.590985970972590e+01	4.741653108933066e-04
	-1.999999993941130e-01	1.590985970972590e+01
