! VERSION = 6.00
BEGIN_HEADER
 ICCAP_INPUTS
  freq       F  LIN        1    1e+08      2.51e+10   251  1e+08     
  vg         V  P1 GROUND DEFAULT 0 LIN        3    1          1.6        6    0.12      
  vd         V  P2 GROUND DEFAULT 0 LIN        2    0          0.2        2    0.2       
 ICCAP_OUTPUTS
  S_deemb    S  P1 P2 GROUND n/a B
  id         I  P2 GROUND DEFAULT B
  ig         I  P1 GROUND DEFAULT B
  T          V  T GROUND DEFAULT B
END_HEADER

BEGIN_DB
 ICCAP_VAR vg         1              
 ICCAP_VAR vd         0              

 #freq                  R:S_deemb(1,1)        I:S_deemb(1,1)        R:S_deemb(1,2)        I:S_deemb(1,2)        R:S_deemb(2,1)        I:S_deemb(2,1)        R:S_deemb(2,2)        I:S_deemb(2,2)        id                    ig                    T                    
  100000000             0.603080909396        -0.0622689792187      0.0119924246953       0.000490539089995     -0.00926619179698     0.00156345142457      -0.873339626703       -0.000113080922075    -0.000818044424396    0.00134967199938      -2.2322338805e-05    
  200000000             0.595683875356        -0.12395170952        0.012046598753        0.000976135963696     -0.00908369373608     0.00311297104475      -0.873342031201       -0.0002306778958      -0.000818044424397    0.00134967199938      -2.2322338805e-05    
  300000000             0.583508162435        -0.184480257914       0.0121357649528       0.00145338000488      -0.00878330412263     0.00463384047341      -0.873345998206       -0.000347021410785    -0.000818044424399    0.00134967199938      -2.23223388051e-05   
  400000000             0.566775420806        -0.243321715138       0.0122582919985       0.00191824544315      -0.00837050174918     0.00611298155382      -0.873351489659       -0.000462787919379    -0.000818044424396    0.00134967199938      -2.2322338805e-05    
  500000000             0.545781871556        -0.299993083515       0.0124119997037       0.00236715763942      -0.00785260866599     0.00753847553886      -0.87335845316        -0.000578040621742    -0.000818044424398    0.00134967199938      -2.23223388051e-05   
  600000000             0.520885625466        -0.354073027039       0.0125942523629       0.00279700975683      -0.00723847671284     0.00889991546552      -0.873366824106       -0.000692750235094    -0.000818044424398    0.00134967199938      -2.23223388051e-05   
  700000000             0.492492182527        -0.405210109297       0.012802065484        0.00320521342086      -0.00653812909539     0.0101886186291       -0.873376528854       -0.00080687069234     -0.000818044424397    0.00134967199938      -2.2322338805e-05    
  800000000             0.461039144529        -0.453127335662       0.0130322183088       0.00358972965695      -0.00576238250788     0.0113977410703       -0.873387487732       -0.000920358453822    -0.000818044424399    0.00134967199938      -2.23223388051e-05   
  900000000             0.426981119338        -0.497623129764       0.0132813649207       0.00394907524606      -0.00492247399342     0.0125223024497       -0.873399617875       -0.00103317882194     -0.000818044424396    0.00134967199938      -2.2322338805e-05    
  1000000000            0.39077565349         -0.538569128763       0.0135461377828       0.00428230616482      -0.00402971322196     0.0135591318452       -0.873412835816       -0.00114530798667     -0.000818044424398    0.00134967199938      -2.23223388051e-05   
  1100000000            0.352870830117        -0.575905360206       0.0138232390205       0.00458898193518      -0.00309517593217     0.0145067486668       -0.873427059764       -0.00125673325737     -0.000818044424398    0.00134967199938      -2.23223388051e-05   
  1200000000            0.313694945402        -0.609633458825       0.0141095164036       0.00486911562312      -0.00212944875116     0.0153651950537       -0.873442211485       -0.00136745238244     -0.000818044424397    0.00134967199938      -2.2322338805e-05    
  1300000000            0.273648458539        -0.63980860016        0.0144020225961       0.00512311442802      -0.00114243021127     0.0161358365238       -0.873458217773       -0.00147747237952     -0.000818044424399    0.00134967199938      -2.23223388051e-05   
  1400000000            0.23309821988         -0.666530784165       0.0146980576387       0.0053517155052       -0.000143188079698    0.0168211465395       -0.873475011505       -0.00158680811984     -0.000818044424396    0.00134967199938      -2.2322338805e-05    
  1500000000            0.192373832978        -0.689936014903       0.0149951957237       0.00555592103292      0.00086013056559      0.0174244884972       -0.873492532297       -0.00169548082562     -0.000818044424398    0.00134967199938      -2.23223388051e-05   
  1600000000            0.151765903456        -0.710187811535       0.0152912980845       0.00573693572309      0.00186034262075      0.0179499059011       -0.87351072683        -0.00180351658947     -0.000818044424398    0.00134967199938      -2.23223388051e-05   
  1700000000            0.111525869019        -0.727469368023       0.0155845142463       0.00589610910958      0.00285123315796      0.018401928569        -0.87352954888        -0.00191094498941     -0.000818044424397    0.00134967199938      -2.2322338805e-05    
  1800000000            0.0718670840261       -0.741976567157       0.0158732740436       0.00603488412648      0.00382752861646      0.0187853999547       -0.873548959119       -0.0020177978456      -0.000818044424399    0.00134967199938      -2.23223388051e-05   
  1900000000            0.0329668402144       -0.75391195716        0.016156272747        0.00615475277225      0.00478484685385      0.0191053282617       -0.873568924747       -0.00212410814351     -0.000818044424396    0.00134967199938      -2.2322338805e-05    
  2000000000            -0.0050309668255      -0.763479720398       0.016432451438        0.00625721907666      0.0057196312352       0.0193667620797       -0.873589419011       -0.00222990913194     -0.000818044424398    0.00134967199938      -2.23223388051e-05   
  2100000000            -0.0420127760608      -0.77088160474        0.0167009744749       0.00634376915361      0.00662907495587      0.0195746898163       -0.873610420645       -0.00233523359252     -0.000818044424398    0.00134967199938      -2.23223388051e-05   
  2200000000            -0.077892110316       -0.776313747597       0.016961205567        0.00641584782444      0.00751104068964      0.0197339611931       -0.873631913279       -0.00244011326896     -0.000818044424397    0.00134967199938      -2.2322338805e-05    
  2300000000            -0.112606297829       -0.779964298027       0.0172126836449       0.00647484111548      0.00836397955119      0.0198492284682       -0.873653884846       -0.00254457843974     -0.000818044424399    0.00134967199938      -2.23223388051e-05   
  2400000000            -0.146113286147       -0.782011730417       0.0174550994099       0.00652206384584      0.00918685234095      0.0199249047546       -0.873676326995       -0.00264865761542     -0.000818044424396    0.00134967199938      -2.2322338805e-05    
  2500000000            -0.178388632369       -0.782623740919       0.0176882731822       0.00655875150453      0.00997905514903      0.0199651367415       -0.873699234553       -0.00275237734099     -0.000818044424398    0.00134967199938      -2.23223388051e-05   
  2600000000            -0.209422723708       -0.781956622124       0.0179121344431       0.00658605564758      0.0107403506523       0.0199737892377       -0.873722605011       -0.00285576208459     -0.000818044424398    0.00134967199938      -2.23223388051e-05   
  2700000000            -0.239218258359       -0.780155020024       0.0181267032943       0.00660504210889      0.0114708058454       0.0199544391642       -0.873746438072       -0.00295883419531     -0.000818044424397    0.00134967199938      -2.2322338805e-05    
  2800000000            -0.26778799829        -0.77735198817        0.0183320739176       0.00661669139856      0.0121707364941       0.019910376893        -0.873770735239       -0.00306161391467     -0.000818044424399    0.00134967199938      -2.23223388051e-05   
  2900000000            -0.295152792151       -0.773669265694       0.0185284000237       0.00662190074896      0.0128406582643       0.0198446131193       -0.873795499454       -0.00316411942855     -0.000818044424396    0.00134967199938      -2.2322338805e-05    
  3000000000            -0.3213398571         -0.769217717563       0.0187158822054       0.0066214873549       0.0134812442522       0.0197598897438       -0.873820734791       -0.00326636694841     -0.000818044424398    0.00134967199938      -2.23223388051e-05   
  3100000000            -0.346381302352       -0.764097886419       0.0188947570713       0.00661619243502      0.0140932884885       0.0196586935133       -0.873846446183       -0.00336837081266     -0.000818044424398    0.00134967199938      -2.23223388051e-05   
  3200000000            -0.370312873696       -0.758400615228       0.0190652880049       0.00660668581448      0.0146776749052       0.0195432714114       -0.873872639192       -0.0034701436008      -0.000818044424397    0.00134967199938      -2.2322338805e-05    
  3300000000            -0.393172896673       -0.752207708659       0.0192277573861       0.00659357079263      0.0152353512127       0.0194156470066       -0.873899319824       -0.00357169625445     -0.000818044424399    0.00134967199938      -2.23223388051e-05   
  3400000000            -0.415001395851       -0.745592608468       0.0193824601093       0.00657738911386      0.0157673071297       0.0192776371468       -0.873926494362       -0.0036730382009      -0.000818044424396    0.00134967199938      -2.2322338805e-05    
  3500000000            -0.435839368358       -0.738621064339       0.0195296982357       0.00655862590491      0.0162745564261       0.0191308685409       -0.873954169237       -0.00377417747573     -0.000818044424398    0.00134967199938      -2.23223388051e-05   
  3600000000            -0.455728191143       -0.731351786675       0.0196697766315       0.00653771447947      0.0167581222715       0.0189767938951       -0.873982350919       -0.0038751208421      -0.000818044424398    0.00134967199938      -2.23223388051e-05   
  3700000000            -0.474709143124       -0.723837071891       0.0198029994502       0.00651504094028      0.0172190254235       0.0188167073685       -0.874011045831       -0.00397587390503     -0.000818044424397    0.00134967199938      -2.2322338805e-05    
  3800000000            -0.492823025183       -0.716123393973       0.0199296673358       0.00649094853298      0.0176582748345       0.0186517591957       -0.874040260282       -0.00407644121945     -0.000818044424399    0.00134967199938      -2.23223388051e-05   
  3900000000            -0.510109862883       -0.708251958553       0.0200500752348       0.00646574172417      0.0180768603034       0.0184829693822       -0.874070000409       -0.00417682639143     -0.000818044424396    0.00134967199938      -2.2322338805e-05    
  4000000000            -0.526608678584       -0.700259217672       0.0201645107188       0.00643968998996      0.0184757468427       0.0183112404287       -0.874100272137       -0.00427703217225     -0.000818044424398    0.00134967199938      -2.23223388051e-05   
  4100000000            -0.542357321378       -0.692177344791       0.0202732527329       0.00641303131209      0.0188558704744       0.0181373690725       -0.87413108115        -0.00437706054518     -0.000818044424398    0.00134967199938      -2.23223388051e-05   
  4200000000            -0.557392344825       -0.684034670681       0.0203765706955       0.00638597538602      0.0192181352084       0.0179620570613       -0.874162432867       -0.00447691280515     -0.000818044424397    0.00134967199938      -2.2322338805e-05    
  4300000000            -0.571748923939       -0.675856081518       0.0204747238875       0.0063587065509       0.0195634109899       0.0177859209941       -0.874194332429       -0.0045765896315      -0.000818044424399    0.00134967199938      -2.23223388051e-05   
  4400000000            -0.585460804111       -0.667663381016       0.0205679610764       0.00633138645487      0.0198925324371       0.017609501272        -0.874226784687       -0.00467609115426     -0.000818044424396    0.00134967199938      -2.2322338805e-05    
  4500000000            -0.598560275823       -0.659475618746       0.0206565203297       0.00630415647141      0.020206298216        0.0174332702134       -0.874259794199       -0.0047754170141      -0.000818044424398    0.00134967199938      -2.23223388051e-05   
  4600000000            -0.611078169947       -0.651309386917       0.020740628981        0.0062771398836       0.0205054709244       0.0172576393904       -0.874293365231       -0.00487456641675     -0.000818044424398    0.00134967199938      -2.23223388051e-05   
  4700000000            -0.623043869313       -0.643179088005       0.0208205037142       0.00625044385392      0.0207907773774       0.0170829662437       -0.874327501756       -0.00497353818189     -0.000818044424397    0.00134967199938      -2.2322338805e-05    
  4800000000            -0.63448533291        -0.635097175587       0.0208963507423       0.00622416119662      0.021062909206        0.0169095600354       -0.874362207461       -0.00507233078733     -0.000818044424399    0.00134967199938      -2.23223388051e-05   
  4900000000            -0.645429129767       -0.627074370648       0.0209683660565       0.00619837196977      0.0213225236939       0.0167376871957       -0.874397485751       -0.00517094240861     -0.000818044424396    0.00134967199938      -2.2322338805e-05    
  5000000000            -0.655900480015       -0.619119855574       0.0210367357282       0.00617314490299      0.0215702447933       0.0165675761185       -0.87443333976        -0.00526937095462     -0.000818044424398    0.00134967199938      -2.23223388051e-05   
  5100000000            -0.665923301162       -0.611241447894       0.0211016362498       0.00614853867615      0.0218066642677       0.0163994214551       -0.874469772357       -0.00536761409943     -0.000818044424398    0.00134967199938      -2.23223388051e-05   
  5200000000            -0.675520257907       -0.603445755694       0.0211632349011       0.00612460306311      0.022032342924        0.0162333879562       -0.874506786155       -0.00546566931087     -0.000818044424397    0.00134967199938      -2.2322338805e-05    
  5300000000            -0.684712814191       -0.595738316503       0.0212216901325       0.00610137995393      0.0222478118985       0.0160696139048       -0.874544383524       -0.00556353387605     -0.000818044424399    0.00134967199938      -2.23223388051e-05   
  5400000000            -0.693521286425       -0.588123721295       0.0212771519567       0.00607890426744      0.0224535739728       0.0159082141811       -0.874582566594       -0.00566120492418     -0.000818044424396    0.00134967199938      -2.2322338805e-05    
  5500000000            -0.701964897041       -0.580605725118       0.0213297623424       0.0060572047654       0.0226501048974       0.0157492829968       -0.874621337273       -0.00575867944699     -0.000818044424398    0.00134967199938      -2.23223388051e-05   
  5600000000            -0.710061827723       -0.573187345714       0.021379655607        0.00603630477832      0.0228378547073       0.0155928963333       -0.874660697252       -0.00585595431685     -0.000818044424398    0.00134967199938      -2.23223388051e-05   
  5700000000            -0.717829271789       -0.565870951396       0.0214269588009       0.00601622285213      0.0230172490169       0.0154391141131       -0.874700648015       -0.00595302630309     -0.000818044424397    0.00134967199938      -2.2322338805e-05    
  5800000000            -0.725283485347       -0.558658339292       0.0214717920848       0.00599697332403      0.0231886902843       0.0152879821344       -0.874741190851       -0.00604989208642     -0.000818044424399    0.00134967199938      -2.23223388051e-05   
  5900000000            -0.732439836932       -0.55155080498        0.0215142690947       0.00597856683495      0.0233525590382       0.0151395337917       -0.87478232686        -0.00614654827186     -0.000818044424396    0.00134967199938      -2.2322338805e-05    
  6000000000            -0.739312855409       -0.544549204439       0.0215544972944       0.0059610107854       0.023509215062        0.0149937916074       -0.874824056963       -0.00624299140026     -0.000818044424398    0.00134967199938      -2.23223388051e-05   
  6100000000            -0.74591627601        -0.537654009131       0.0215925783144       0.00594430974086      0.0236589985314       0.0148507685931       -0.874866381912       -0.00633921795855     -0.000818044424398    0.00134967199938      -2.23223388051e-05   
  6200000000            -0.752263084411       -0.530865354947       0.0216286082762       0.00592846579193      0.0238022311044       0.0147104694597       -0.874909302297       -0.00643522438887     -0.000818044424397    0.00134967199938      -2.2322338805e-05    
  6300000000            -0.758365558795       -0.524183085696       0.0216626781016       0.00591347887439      0.0239392169604       0.0145728916916       -0.874952818554       -0.00653100709672     -0.000818044424399    0.00134967199938      -2.23223388051e-05   
  6400000000            -0.764235309903       -0.517606791717       0.0216948738079       0.00589934705327      0.0240702437903       0.0144380265018       -0.874996930971       -0.00662656245819     -0.000818044424396    0.00134967199938      -2.2322338805e-05    
  6500000000            -0.769883319067       -0.511135844145       0.0217252767873       0.005886066775        0.0241955837366       0.0143058596783       -0.8750416397         -0.00672188682646     -0.000818044424398    0.00134967199938      -2.23223388051e-05   
  6600000000            -0.775319974272       -0.504769425306       0.0217539640728       0.00587363309108      0.0243154942848       0.0141763723356       -0.875086944756       -0.00681697653749     -0.000818044424398    0.00134967199938      -2.23223388051e-05   
  6700000000            -0.780555104279       -0.498506555664       0.0217810085886       0.00586203985633      0.0244302191066       0.0140495415805       -0.87513284603        -0.00691182791522     -0.000818044424397    0.00134967199938      -2.2322338805e-05    
  6800000000            -0.785598010888       -0.492346117696       0.0218064793881       0.00585127990457      0.0245399888575       0.0139253411025       -0.875179343293       -0.00700643727602     -0.000818044424399    0.00134967199938      -2.23223388051e-05   
  6900000000            -0.790457499391       -0.486286877031       0.0218304418777       0.00584134520408      0.0246450219291       0.0138037416957       -0.8752264362         -0.00710080093286     -0.000818044424396    0.00134967199938      -2.2322338805e-05    
  7000000000            -0.795141907291       -0.480327501149       0.0218529580281       0.00583222699527      0.0247455251594       0.0136847117216       -0.875274124299       -0.00719491519883     -0.000818044424398    0.00134967199938      -2.23223388051e-05   
  7100000000            -0.799659131369       -0.47446657592        0.0218740865737       0.00582391591223      0.0248416945016       0.0135682175173       -0.875322407032       -0.00728877639041     -0.000818044424398    0.00134967199938      -2.23223388051e-05   
  7200000000            -0.804016653172       -0.468702620199       0.0218938831997       0.00581640209018      0.0249337156539       0.0134542237563       -0.875371283743       -0.00738238083031     -0.000818044424397    0.00134967199938      -2.2322338805e-05    
