! VERSION = 6.00
BEGIN_HEADER
 ICCAP_INPUTS
  vd         V  D GROUND SMU_C 0.1 LIN        2    1          21         21   1         
  vg         V  G GROUND SMU_B 0.1 LIN        1    -9         0.6        193  0.05      
 ICCAP_OUTPUTS
  id         I  D GROUND SMU_C B
  ig         I  G GROUND SMU_B B
  T          V  T GROUND n/a B
END_HEADER

BEGIN_DB
 ICCAP_VAR vd         1              

 #vg                    id                    ig                    T                    
  -9                    0.000114458           -4.27969e-07          0.00280376           
  -8.95                 0.000113866           -4.18882e-07          0.00278926           
  -8.9                  0.000113213           -4.09915e-07          0.00277326           
  -8.85                 0.000112504           -4.01068e-07          0.0027559            
  -8.8                  0.000111748           -3.92341e-07          0.00273738           
  -8.75                 0.000110951           -3.83735e-07          0.00271785           
  -8.7                  0.00011012            -3.75248e-07          0.0026975            
  -8.65                 0.000109262           -3.66883e-07          0.00267648           
  -8.6                  0.000108384           -3.58637e-07          0.00265498           
  -8.55                 0.000107492           -3.50512e-07          0.00263315           
  -8.5                  0.000106594           -3.42506e-07          0.00261115           
  -8.45                 0.000105695           -3.34621e-07          0.00258913           
  -8.4                  0.000104801           -3.26854e-07          0.00256723           
  -8.35                 0.000103917           -3.19207e-07          0.00254558           
  -8.3                  0.000103049           -3.11678e-07          0.00252431           
  -8.25                 0.0001022             -3.04268e-07          0.00250353           
  -8.2                  0.000101374           -2.96975e-07          0.00248331           
  -8.15                 0.000100575           -2.89799e-07          0.00246373           
  -8.1                  9.98047e-05           -2.82739e-07          0.00244486           
  -8.05                 9.90646e-05           -2.75795e-07          0.00242673           
  -8                    9.83555e-05           -2.68966e-07          0.00240937           
  -7.95                 9.76774e-05           -2.62252e-07          0.00239276           
  -7.9                  9.70294e-05           -2.55651e-07          0.00237689           
  -7.85                 9.64097e-05           -2.49162e-07          0.00236171           
  -7.8                  9.58157e-05           -2.42786e-07          0.00234716           
  -7.75                 9.52436e-05           -2.36521e-07          0.00233315           
  -7.7                  9.4689e-05            -2.30365e-07          0.00231956           
  -7.65                 9.41466e-05           -2.24319e-07          0.00230628           
  -7.6                  9.361e-05             -2.18382e-07          0.00229313           
  -7.55                 9.30723e-05           -2.12552e-07          0.00227996           
  -7.5                  9.25254e-05           -2.06828e-07          0.00226657           
  -7.45                 9.19607e-05           -2.0121e-07           0.00225274           
  -7.4                  9.13687e-05           -1.95696e-07          0.00223824           
  -7.35                 9.07394e-05           -1.90286e-07          0.00222282           
  -7.3                  9.00619e-05           -1.84978e-07          0.00220623           
  -7.25                 8.93248e-05           -1.79772e-07          0.00218817           
  -7.2                  8.85163e-05           -1.74667e-07          0.00216837           
  -7.15                 8.76239e-05           -1.69661e-07          0.00214651           
  -7.1                  8.66347e-05           -1.64754e-07          0.00212228           
  -7.05                 8.55355e-05           -1.59944e-07          0.00209536           
  -7                    8.43126e-05           -1.5523e-07           0.00206541           
  -6.95                 8.29523e-05           -1.50613e-07          0.00203209           
  -6.9                  8.14403e-05           -1.46089e-07          0.00199505           
  -6.85                 7.97623e-05           -1.41659e-07          0.00195395           
  -6.8                  7.79039e-05           -1.37322e-07          0.00190843           
  -6.75                 7.58506e-05           -1.33076e-07          0.00185813           
  -6.7                  7.35876e-05           -1.2892e-07           0.0018027            
  -6.65                 7.11005e-05           -1.24853e-07          0.00174178           
  -6.6                  6.83747e-05           -1.20875e-07          0.00167501           
  -6.55                 6.53957e-05           -1.16984e-07          0.00160204           
  -6.5                  6.21492e-05           -1.1318e-07           0.00152252           
  -6.45                 5.86212e-05           -1.0946e-07           0.0014361            
  -6.4                  5.47976e-05           -1.05825e-07          0.00134243           
  -6.35                 5.0665e-05            -1.02273e-07          0.0012412            
  -6.3                  4.62101e-05           -9.88028e-08          0.00113207           
  -6.25                 4.14201e-05           -9.5414e-08           0.00101473           
  -6.2                  3.62828e-05           -9.21053e-08          0.000888882          
  -6.15                 3.07864e-05           -8.88756e-08          0.000754232          
  -6.1                  2.49197e-05           -8.5724e-08           0.000610511          
  -6.05                 1.86726e-05           -8.26493e-08          0.000457466          
  -6                    1.20355e-05           -7.96507e-08          0.000294865          
  -5.95                 5.00009e-06           -7.6727e-08           0.000122501          
  -5.9                  -2.44089e-06          -7.38772e-08          -5.98019e-05         
  -5.85                 -1.02933e-05          -7.11004e-08          -0.000252189         
  -5.8                  -1.85613e-05          -6.83954e-08          -0.000454764         
  -5.75                 -2.72474e-05          -6.57613e-08          -0.000667587         
  -5.7                  -3.63517e-05          -6.31971e-08          -0.000890663         
  -5.65                 -4.58719e-05          -6.07016e-08          -0.00112394          
  -5.6                  -5.58028e-05          -5.82739e-08          -0.00136728          
  -5.55                 -6.61356e-05          -5.59131e-08          -0.00162048          
  -5.5                  -7.68579e-05          -5.36179e-08          -0.00188323          
  -5.45                 -8.79524e-05          -5.13876e-08          -0.00215511          
  -5.4                  -9.93968e-05          -4.92209e-08          -0.00243557          
  -5.35                 -0.000111163          -4.7117e-08           -0.00272393          
  -5.3                  -0.000123216          -4.50748e-08          -0.00301933          
  -5.25                 -0.000135514          -4.30933e-08          -0.00332075          
  -5.2                  -0.000148006          -4.11715e-08          -0.00362693          
  -5.15                 -0.000160633          -3.93084e-08          -0.00393642          
  -5.1                  -0.000173325          -3.7503e-08           -0.00424752          
  -5.05                 -0.000186002          -3.57544e-08          -0.00455826          
  -5                    -0.000198572          -3.40615e-08          -0.0048664           
  -4.95                 -0.000210932          -3.24235e-08          -0.0051694           
  -4.9                  -0.000222966          -3.08392e-08          -0.00546442          
  -4.85                 -0.000234545          -2.93079e-08          -0.00574831          
  -4.8                  -0.00024553           -2.78285e-08          -0.00601762          
  -4.75                 -0.000255768          -2.64001e-08          -0.00626862          
  -4.7                  -0.000265094          -2.50218e-08          -0.00649729          
  -4.65                 -0.000273336          -2.36927e-08          -0.00669937          
  -4.6                  -0.000280312          -2.2412e-08           -0.00687042          
  -4.55                 -0.000285836          -2.11787e-08          -0.00700587          
  -4.5                  -0.000289719          -1.9992e-08           -0.00710108          
  -4.45                 -0.000291774          -1.88511e-08          -0.00715146          
  -4.4                  -0.000291818          -1.77553e-08          -0.00715256          
  -4.35                 -0.000289683          -1.67036e-08          -0.0071002           
  -4.3                  -0.000285214          -1.56955e-08          -0.00699061          
  -4.25                 -0.000278279          -1.47303e-08          -0.00682057          
  -4.2                  -0.000268776          -1.38071e-08          -0.00658756          
  -4.15                 -0.000256639          -1.29255e-08          -0.00628998          
  -4.1                  -0.000241843          -1.20849e-08          -0.00592722          
  -4.05                 -0.000224415          -1.12846e-08          -0.00549994          
  -4                    -0.000204437          -1.05242e-08          -0.00501017          
  -3.95                 -0.000182055          -9.8033e-09           -0.00446152          
  -3.9                  -0.000157487          -9.12135e-09          -0.00385931          
  -3.85                 -0.00013103           -8.47801e-09          -0.00321084          
  -3.8                  -0.000103066          -7.87289e-09          -0.00252549          
  -3.75                 -7.40718e-05          -7.30566e-09          -0.00181495          
  -3.7                  -4.46265e-05          -6.77594e-09          -0.00109342          
  -3.65                 -1.54185e-05          -6.28339e-09          -0.000377762         
  -3.6                  1.27473e-05           -5.82762e-09          0.000312304          
  -3.55                 3.89455e-05           -5.40821e-09          0.00095411           
  -3.5                  6.21291e-05           -5.02468e-09          0.00152203           
  -3.45                 8.11362e-05           -4.6765e-09           0.0019876            
  -3.4                  9.47057e-05           -4.36311e-09          0.00231997           
  -3.35                 0.00010151            -4.08391e-09          0.00248662           
  -3.3                  0.000100207           -3.83833e-09          0.00245472           
  -3.25                 8.95296e-05           -3.62587e-09          0.00219319           
  -3.2                  6.84077e-05           -3.44618e-09          0.00167582           
  -3.15                 3.61511e-05           -3.29911e-09          0.000885655          
  -3.1                  -7.3084e-06           -3.18475e-09          -0.000179058         
  -3.05                 -6.11065e-05          -3.10341e-09          -0.00149724          
  -3                    -0.00012308           -3.05544e-09          -0.00301599          
  -2.95                 -0.000189388          -3.04094e-09          -0.00464128          
  -2.9                  -0.000254248          -3.05917e-09          -0.00623136          
  -2.85                 -0.000310023          -3.1077e-09           -0.00759897          
  -2.8                  -0.000348157          -3.18138e-09          -0.00853414          
  -2.75                 -0.000361574          -3.27113e-09          -0.00886318          
  -2.7                  -0.000348831          -3.36312e-09          -0.00855066          
  -2.65                 -0.000318374          -3.43885e-09          -0.00780375          
  -2.6                  -0.000287429          -3.47682e-09          -0.00704492          
  -2.55                 -0.00026803           -3.45609e-09          -0.00656926          
  -2.5                  -0.000239824          -3.36112e-09          -0.00587771          
  -2.45                 -0.000124644          -3.18645e-09          -0.00305434          
  -2.4                  0.000217474           -2.93893e-09          0.00532645           
  -2.35                 0.000969209           -2.63648e-09          0.0237124            
  -2.3                  0.00232947            -2.30356e-09          0.0568799            
  -2.25                 0.0044885             -1.96538e-09          0.109256             
  -2.2                  0.00760125            -1.64312e-09          0.184187             
  -2.15                 0.0117611             -1.35131e-09          0.283254             
  -2.1                  0.0169874             -1.09749e-09          0.405981             
  -2.05                 0.0232346             -8.83503e-10          0.55015              
  -2                    0.0304184             -7.07323e-10          0.712517             
  -1.95                 0.0384425             -5.64753e-10          0.889559             
  -1.9                  0.0472175             -4.50747e-10          1.07795              
  -1.85                 0.0566673             -3.60249e-10          1.27474              
  -1.8                  0.0667272             -2.88654e-10          1.47729              
  -1.75                 0.0773368             -2.32015e-10          1.68316              
  -1.7                  0.0884341             -1.87078e-10          1.88996              
  -1.65                 0.0999477             -1.51239e-10          2.09531              
  -1.6                  0.11178               -1.22458e-10          2.29658              
  -1.55                 0.123776              -9.9161e-11           2.4905               
  -1.5                  0.135688              -8.01566e-11          2.673                
  -1.45                 0.14721               -6.45549e-11          2.83998              
  -1.4                  0.158076              -5.16921e-11          2.98884              
  -1.35                 0.168121              -4.1065e-11           3.11901              
  -1.3                  0.177277              -3.22836e-11          3.23146              
  -1.25                 0.18554               -2.50413e-11          3.32783              
  -1.2                  0.192936              -1.90941e-11          3.41001              
  -1.15                 0.19952               -1.42455e-11          3.47991              
  -1.1                  0.205359              -1.03352e-11          3.53933              
  -1.05                 0.210532              -7.2308e-12           3.58994              
  -1                    0.215118              -4.82084e-12          3.63325              
  -0.95                 0.219198              -3.00926e-12          3.67052              
  -0.9                  0.222846              -1.71015e-12          3.70284              
  -0.85                 0.226128              -8.42865e-13          3.73112              
  -0.8                  0.229099              -3.27201e-13          3.75606              
  -0.75                 0.23181               -7.86991e-14          3.77827              
  -0.7                  0.234298              -4.29048e-15          3.79821              
  -0.65                 0.236597              1.30243e-15           3.81623              
  -0.6                  0.238731              5.76415e-14           3.83263              
  -0.55                 0.240722              2.97983e-13           3.84764              
  -0.5                  0.242586              8.64481e-13           3.86143              
  -0.45                 0.244336              1.89733e-12           3.87416              
  -0.4                  0.245982              3.51599e-12           3.88594              
  -0.35                 0.247533              5.7912e-12            3.89686              
  -0.3                  0.248997              8.70804e-12           3.90701              
  -0.25                 0.25038               1.21236e-11           3.91646              
  -0.2                  0.251687              1.57278e-11           3.92527              
  -0.15                 0.252925              1.90236e-11           3.93349              
  -0.1                  0.254097              2.13529e-11           3.94118              
  -0.05                 0.255208              2.20003e-11           3.94839              
  0                     0.256263              2.04044e-11           3.95515              
  0.05                  0.257267              1.64708e-11           3.9615               
  0.1                   0.258224              1.08906e-11           3.9675               
  0.15                  0.259139              5.21453e-12           3.97316              
  0.2                   0.260015              1.31112e-12           3.97853              
  0.25                  0.260857              3.27782e-14           3.98365              
  0.3                   0.261669              -1.45687e-13          3.98853              
  0.35                  0.262454              -2.29894e-12          3.99321              
  0.4                   0.263217              -6.35611e-12          3.99771              
  0.45                  0.263961              -5.91156e-12          4.00206              
  0.5                   0.264688              -4.05472e-13          4.00628              
  0.55                  0.2654                7.52313e-12           4.01037              
  0.6                   0.2661                3.58853e-10           4.01436              
END_DB

BEGIN_DB
 ICCAP_VAR vd         2              

 #vg                    id                    ig                    T                    
  -9                    4.64698e-05           -5.07696e-07          0.00227694           
  -8.95                 4.7347e-05            -4.97887e-07          0.00231992           
  -8.9                  4.81773e-05           -4.88189e-07          0.00236061           
  -8.85                 4.89675e-05           -4.78602e-07          0.00239932           
  -8.8                  4.97241e-05           -4.69128e-07          0.00243639           
  -8.75                 5.0454e-05            -4.59765e-07          0.00247215           
  -8.7                  5.1164e-05            -4.50515e-07          0.00250694           
  -8.65                 5.18611e-05           -4.41379e-07          0.0025411            
  -8.6                  5.25521e-05           -4.32356e-07          0.00257495           
  -8.55                 5.32437e-05           -4.23447e-07          0.00260884           
  -8.5                  5.39426e-05           -4.14652e-07          0.00264308           
  -8.45                 5.46551e-05           -4.05971e-07          0.00267799           
  -8.4                  5.53874e-05           -3.97405e-07          0.00271387           
  -8.35                 5.61453e-05           -3.88953e-07          0.00275101           
  -8.3                  5.69343e-05           -3.80616e-07          0.00278966           
  -8.25                 5.77592e-05           -3.72393e-07          0.00283008           
  -8.2                  5.86246e-05           -3.64284e-07          0.00287248           
  -8.15                 5.95342e-05           -3.56289e-07          0.00291705           
  -8.1                  6.04912e-05           -3.48409e-07          0.00296394           
  -8.05                 6.14983e-05           -3.40641e-07          0.00301328           
  -8                    6.2557e-05            -3.32987e-07          0.00306516           
  -7.95                 6.36685e-05           -3.25446e-07          0.00311961           
