! VERSION = 6.00
BEGIN_HEADER
 ICCAP_INPUTS
  vg         V  G GROUND SMU_B 0.1 LIN        1    -3         1.8        97   0.05      
  vd         V  D GROUND SMU_C 0.1 LIN        2    0.05       0.55       11   0.05      
 ICCAP_OUTPUTS
  id         I  D GROUND SMU_C B
  ig         I  G GROUND SMU_B B
  T          V  T GROUND n/a B
END_HEADER

BEGIN_DB
 ICCAP_VAR vd         0.05           

 #vg                    id                    ig                    T                    
  -3                    -3.66797849533e-05    -9.21184449586e-10    -4.49803234164e-05   
  -2.95                 -3.65772371057e-05    -9.56319942912e-10    -4.48544365633e-05   
  -2.9                  -1.93511971472e-05    -1.01452513054e-09    -2.37184586853e-05   
  -2.85                 2.32045001736e-05     -1.09676750093e-09    2.84064565277e-05    
  -2.8                  9.84873859266e-05     -1.20258231286e-09    0.000120303859897    
  -2.75                 0.000210376823655     -1.32875728004e-09    0.000256145771518    
  -2.7                  0.000355446775842     -1.46789286024e-09    0.000430952450559    
  -2.65                 0.000519467358994     -1.60741935644e-09    0.000626800731885    
  -2.6                  0.000677596501292     -1.72991449562e-09    0.000813812155423    
  -2.55                 0.000802421209431     -1.81543589224e-09    0.000960186552823    
  -2.5                  0.000879733016268     -1.84582672651e-09    0.0010502925687      
  -2.45                 0.000923095736402     -1.80976631282e-09    0.00110064619176     
  -2.4                  0.000974568967633     -1.70646635606e-09    0.00116024519768     
  -2.35                 0.00108777073518      -1.54619488983e-09    0.00129065795971     
  -2.3                  0.00130239871186      -1.34731953338e-09    0.00153542834261     
  -2.25                 0.00162685174708      -1.13129678941e-09    0.00189925979856     
  -2.2                  0.00204451121864      -9.17775611223e-10    0.0023566446011      
  -2.15                 0.00253756853807      -7.21428717917e-10    0.00288071266674     
  -2.1                  0.00309931529153      -5.50945522878e-10    0.0034568277417      
  -2.05                 0.00372504532453      -4.09670030498e-10    0.00407227537932     
  -2                    0.00440051075994      -2.97039623962e-10    0.00470554695284     
  -1.95                 0.00510094941283      -2.10134020016e-10    0.0053281366762      
  -1.9                  0.0057973089311       -1.44952917831e-10    0.00591268936703     
  -1.85                 0.00646305584823      -9.7299609644e-11     0.00643946315987     
  -1.8                  0.00707869134563      -6.32989898144e-11    0.00689867771482     
  -1.75                 0.00763366387716      -3.96393544934e-11    0.00728965906189     
  -1.7                  0.00812607977112      -2.36339999688e-11    0.00761832266055     
  -1.65                 0.00856082400757      -1.3180959813e-11     0.00789423315697     
  -1.6                  0.008946867293        -6.67561234326e-12    0.00812802572656     
  -1.55                 0.00929454260117      -2.90996736091e-12    0.00832955739185     
  -1.5                  0.00961338040127      -9.76939635169e-13    0.0085068550898      
  -1.45                 0.00991079543658      -1.87735812897e-13    0.00866575594209     
  -1.4                  0.0101916361541       -4.48630302484e-15    0.00881005627171     
  -1.35                 0.0104584104921       1.28456569009e-14     0.00894196071498     
  -1.3                  0.0107119108412       2.47532947151e-13     0.0090626359404      
  -1.25                 0.0109519656249       1.05764367333e-12     0.00917271899927     
  -1.2                  0.011178113286        2.80033349073e-12     0.0092726946779      
  -1.15                 0.0113900869593       5.85061387271e-12     0.00936311873688     
  -1.1                  0.0115880812963       1.06157604125e-11     0.0094447077877      
  -1.05                 0.0117728284612       1.75459317866e-11     0.0095183363804      
  -1                    0.0119455356944       2.71409720584e-11     0.00958498255363     
  -0.95                 0.0121077396163       3.99527484544e-11     0.0096456537212      
  -0.9                  0.0122611231602       5.6581704808e-11      0.00970131318655     
  -0.85                 0.0124073282565       7.76655629798e-11     0.00975281814721     
  -0.8                  0.0125477859956       1.03857275863e-10     0.0098008739746      
  -0.75                 0.01268357761         1.35788460705e-10     0.00984600623434     
  -0.7                  0.0128153339456       1.74013724391e-10     0.00988855019679     
  -0.65                 0.0129431772239       2.18930750818e-10     0.00992865650968     
  -0.6                  0.0130667059545       2.70671156819e-10     0.00996631073918     
  -0.55                 0.0131850213664       3.28958626445e-10     0.0100013635336      
  -0.5                  0.0132967915174       3.92934827436e-10     0.010033567386       
  -0.45                 0.0134003473717       4.60961824833e-10     0.0100626156198      
  -0.4                  0.0134938037112       5.30424564256e-10     0.0100881794785      
  -0.35                 0.0135751968509       5.97581354601e-10     0.0101099401098      
  -0.3                  0.0136426307771       6.57546028965e-10     0.0101276136617      
  -0.25                 0.0136944234758       7.04529672263e-10     0.0101409693903      
  -0.2                  0.0137292457684       7.32506745047e-10     0.0101498422735      
  -0.15                 0.0137462458239       7.36460178525e-10     0.0101541427999      
  -0.1                  0.0137451535485       7.14234415579e-10     0.0101538671006      
  -0.05                 0.0137263601795       6.68726136596e-10     0.0101491102732      
  0                     0.0136909695344       6.09764313522e-10     0.0101400846343      
  0.05                  0.0136408184373       5.55108699316e-10     0.0101271428802      
  0.1                   0.0135784647985       5.31839604018e-10     0.0101108040158      
  0.15                  0.0135071426284       5.85620058655e-10     0.0100917777811      
  0.2                   0.0134306838836       8.23345506302e-10     0.0100709815456      
  0.25                  0.0133534074523       1.57587478583e-09     0.0100495426022      
  0.3                   0.0132799757576       3.99238274499e-09     0.0100287787639      
  0.35                  0.0132152193802       1.21522935117e-08     0.0100101513134      
  0.4                   0.0131639297402       4.02142388102e-08     0.00999518671197     
  0.45                  0.0131306191804       1.35299279953e-07     0.0099853668723      
  0.5                   0.0131192466085       4.47008705563e-07     0.00998199181302     
  0.55                  0.0131329047927       1.42772189443e-06     0.00998602227425     
  0.6                   0.0131734616967       4.37194531545e-06     0.00999791191197     
  0.65                  0.0132411421688       1.27269747139e-05     0.0100174374366      
  0.7                   0.0133340309926       3.47733662108e-05     0.0100435327338      
  0.75                  0.013447492341        8.75252930258e-05     0.010074146991       
  0.8                   0.0135735764345       0.000198160444792     0.0101062165331      
  0.85                  0.0137006128859       0.000393335027934     0.0101359513238      
  0.9                   0.0138130860509       0.000670682459261     0.0101595045825      
  0.95                  0.0138911674772       0.000978360495913     0.010173325212       
  1                     0.0139088702404       0.0012523283062       0.0101729110646      
  1.05                  0.0138315571786       0.00149220720145      0.0101501319062      
  1.1                   0.0136150872239       0.00177740606034      0.0100907893096      
  1.15                  0.013206463263        0.00222190549099      0.00997166422602     
  1.2                   0.0125445732169       0.00296738736564      0.00975419023063     
  1.25                  0.0115630288042       0.00426670974233      0.00937410080163     
  1.3                   0.0102031170231       0.0067060769799       0.00873201857097     
  1.35                  0.00845654882234      0.0116672584801       0.00770840973301     
  1.4                   0.00645056226423      0.0217099112101       0.00625831597144     
  1.45                  0.00445224475285      0.0392059676937       0.00453888906804     
  1.5                   0.00265825583815      0.0639109905019       0.00279825271848     
  1.55                  0.00109348361087      0.093801849199        0.00117156619434     
  1.6                   -0.000289007528334    0.127045619808        -0.000312010610494   
  1.65                  -0.00153769499375     0.162465566775        -0.00166129495908    
  1.7                   -0.00268813397256     0.199355062679        -0.00289213821815    
  1.75                  -0.00376478410919     0.237281807751        -0.0040189828909     
  1.8                   -0.0047845281461      0.275970383517        -0.00505343382056    
END_DB

BEGIN_DB
 ICCAP_VAR vd         0.1            

 #vg                    id                    ig                    T                    
  -3                    -7.65556838463e-05    -9.98863501753e-10    -0.00018776872207    
  -2.95                 -8.86475497167e-05    -1.03376552363e-09    -0.00021746445788    
  -2.9                  -8.57951067955e-05    -1.0923866033e-09     -0.000210458370771   
  -2.85                 -5.96655898791e-05    -1.17552490638e-09    -0.000146306604593   
  -2.8                  -2.40444106215e-06    -1.28246064273e-09    -5.89108369487e-06   
  -2.75                 9.07434050292e-05     -1.4096396405e-09     0.000222029972489    
  -2.7                  0.000217637802323     -1.5492590182e-09     0.000531536762821    
  -2.65                 0.000365555593615     -1.68834302062e-09    0.000890883389853    
  -2.6                  0.000511015785903     -1.80914569943e-09    0.00124274985619     
  -2.55                 0.000627510435986     -1.89156931568e-09    0.00152346941472     
  -2.5                  0.000701576221308     -1.91751984351e-09    0.00170144793802     
  -2.45                 0.000749207560234     -1.87594248968e-09    0.00181569997084     
  -2.4                  0.000821462347995     -1.76643823148e-09    0.00198870916238     
  -2.35                 0.000996467535022     -1.59967800768e-09    0.00240621635048     
  -2.3                  0.00136226515692      -1.3943578113e-09     0.00327189548742     
  -2.25                 0.00199101917407      -1.17215789316e-09    0.00473775176255     
  -2.2                  0.0029089567025       -9.52867553341e-10    0.00682757237889     
  -2.15                 0.00408577850257      -7.51245319291e-10    0.00941956893351     
  -2.1                  0.00545834304411      -5.76021518659e-10    0.0123189019597      
  -2.05                 0.0069617202701       -4.30541894206e-10    0.0153415955222      
  -2                    0.00853936878816      -3.14221228163e-10    0.0183416545084      
  -1.95                 0.0101391636265       -2.24107018581e-10    0.0212039914095      
  -1.9                  0.0117109953945       -1.56163817128e-10    0.0238399283356      
  -1.85                 0.0132094880774       -1.06157707856e-10    0.0261901075274      
  -1.8                  0.0145985752572       -7.01740089296e-11    0.0282267945048      
  -1.75                 0.0158549114095       -4.48598852005e-11    0.0299512609379      
  -1.7                  0.0169688309659       -2.74879883499e-11    0.0313868364869      
  -1.65                 0.0179428828672       -1.59187220835e-11    0.0325702045781      
  -1.6                  0.0187887185685       -8.51513975066e-12    0.0335433455072      
  -1.55                 0.0195233492666       -4.04388778384e-12    0.0343474681974      
  -1.5                  0.0201656468012       -1.58042888378e-12    0.035019235286       
  -1.45                 0.0207336413997       -4.2679968052e-13     0.035588970069       
  -1.4                  0.0212428327027       -4.42427500663e-14    0.0360803167802      
  -1.35                 0.0217054654697       4.78292805435e-17     0.0365108307247      
  -1.3                  0.022130556818        7.4159327251e-14      0.0368930592236      
  -1.25                 0.0225243954976       5.13080816215e-13     0.0372357759844      
  -1.2                  0.0228912463549       1.64291416671e-12     0.0375451354806      
  -1.15                 0.0232340555253       3.79943665598e-12     0.0378256143127      
  -1.1                  0.023555032417        7.34224952527e-12     0.0380806928206      
  -1.05                 0.0238560578396       1.26652003958e-11     0.0383132918828      
  -1                    0.0241389198704       2.02032163294e-11     0.0385260132713      
  -0.95                 0.02440540783         3.04351161643e-11     0.0387212416589      
  -0.9                  0.0246573049292       4.38813616808e-11     0.0389011611694      
  -0.85                 0.0248963189679       6.10950346699e-11     0.039067727784       
  -0.8                  0.0251239841252       8.26435836861e-11     0.039222626677       
  -0.75                 0.0253415592536       1.09078095606e-10     0.0393672333307      
  -0.7                  0.0255499409777       1.40886097065e-10     0.0395025895746      
  -0.65                 0.0257496037842       1.78423360608e-10     0.0396294000725      
  -0.6                  0.0259405741237       2.21820217781e-10     0.0397480506052      
  -0.55                 0.0261224411736       2.70859047876e-10     0.0398586463609      
  -0.5                  0.0262944032634       3.24822865317e-10     0.0399610661969      
  -0.45                 0.0264553460537       3.82321732672e-10     0.0400550274822      
  -0.4                  0.0266039464163       4.41116152553e-10     0.0401401557109      
  -0.35                 0.0267387945885       4.97977130657e-10     0.040216053528       
  -0.3                  0.0268585265177       5.48653083409e-10     0.0402823649629      
  -0.25                 0.0269619582763       5.88052230732e-10     0.0403388322307      
  -0.2                  0.0270482148743       6.10783095626e-10     0.0403853440853      
  -0.15                 0.0271168465963       6.12191843475e-10     0.0404219760607      
  -0.1                  0.0271679270042       5.89932590704e-10     0.0404490237412      
  -0.05                 0.0272021278657       5.45841593501e-10     0.0404670303162      
  0                     0.0272207673994       4.87500280968e-10     0.04047680909        
  0.05                  0.0272258292997       4.28745538796e-10     0.0404794604488      
  0.1                   0.0272199509605       3.89497650985e-10     0.0404763812836      
  0.15                  0.02720638012         3.99386521021e-10     0.0404692633259      
  0.2                   0.027188899764        5.21052228365e-10     0.0404600756061      
  0.25                  0.0271717215308       9.46717749519e-10     0.0404510256094      
  0.3                   0.0271593480353       2.36670381812e-09     0.0404444939161      
  0.35                  0.0271564044627       7.33662850505e-09     0.0404429383204      
  0.4                   0.0271674394417       2.50935528341e-08     0.0404487656283      
  0.45                  0.0271966945621       8.74738528619e-08     0.0404641723441      
  0.5                   0.0272478408175       2.98522114391e-07     0.0404909587595      
  0.55                  0.0273236784215       9.80839025734e-07     0.0405303234673      
  0.6                   0.027425793166        3.08050040318e-06     0.0405826449915      
  0.65                  0.0275541568797       9.18869677004e-06     0.0406472514632      
  0.7                   0.0277066531542       2.57615892655e-05     0.0407221701001      
  0.75                  0.0278785160422       6.67794501143e-05     0.0408038606753      
  0.8                   0.028061727874        0.00015652528985      0.0408870432363      
  0.85                  0.0282445532165       0.000323400504976     0.0409649674438      
  0.9                   0.0284113832622       0.000575880964287     0.0410304576405      
  0.95                  0.0285424689492       0.000875602965503     0.0410769189621      
  1                     0.0286124209495       0.00115643174803      0.0410969383771      
  1.05                  0.0285876190699       0.00139694842324      0.041077975747       
  1.1                   0.0284248336311       0.0016571648849       0.0409987054314      
  1.15                  0.0280716899698       0.00204124203969      0.040826853554       
  1.2                   0.0274673296975       0.00267417759572      0.0405138693009      
  1.25                  0.026544194469        0.00375867255276      0.0399838942633      
  1.3                   0.0252372109491       0.0057495533446       0.0391205477056      
  1.35                  0.0235171506108       0.00974630237285      0.0377701913888      
  1.4                   0.0214714850239       0.0180157649233       0.0358211265891      
  1.45                  0.0193574963304       0.0332917864663       0.0333798181146      
  1.5                   0.0174267346721       0.0561507952951       0.0307528087569      
  1.55                  0.0157464262422       0.0848063357478       0.0281708973893      
  1.6                   0.0142751975393       0.117258243201        0.025714340476       
  1.65                  0.012958466766        0.152155328078        0.0233921619265      
  1.7                   0.0117545570413       0.188683126316        0.0211935806172      
  1.75                  0.0106346903871       0.226348153031        0.0191051014837      
  1.8                   0.00957911915402      0.264839837216        0.017114824916       
END_DB

BEGIN_DB
 ICCAP_VAR vd         0.15           

 #vg                    id                    ig                    T                    
  -3                    -0.000111863636735    -1.08015453701e-09    -0.000411541466273   
  -2.95                 -0.000135035846307    -1.11460564752e-09    -0.000496901720559   
  -2.9                  -0.000145314104127    -1.17340808234e-09    -0.00053477625089    
  -2.85                 -0.000134285775695    -1.25718716529e-09    -0.000494138065034   
  -2.8                  -9.3715567504e-05     -1.36496630604e-09    -0.000344715337577   
  -2.75                 -1.80700128138e-05    -1.49285099197e-09    -6.64188326716e-05   
  -2.7                  9.17148947014e-05     -1.63264102434e-09    0.000336754569132    
  -2.65                 0.000224441365107     -1.77096511243e-09    0.000823039685589    
  -2.6                  0.000358243065208     -1.88976700697e-09    0.00131200259577     
  -2.55                 0.000468104158595     -1.96880700986e-09    0.00171253027844     
  -2.5                  0.00054198330006      -1.99006502112e-09    0.00198139599399     
  -2.45                 0.000597803533142     -1.94276127823e-09    0.00218428443901     
  -2.4                  0.00069072191534      -1.82689630345e-09    0.00252152368157     
  -2.35                 0.000909305288555     -1.65355804745e-09    0.00331244429757     
  -2.3                  0.00136636086876      -1.44178404391e-09    0.00495532626026     
  -2.25                 0.00218084269297      -1.21347427453e-09    0.00784633444473     
  -2.2                  0.0034396757744       -9.88524005425e-10    0.0122222350027      
  -2.15                 0.00515138582633      -7.81728570007e-10    0.017992519799       
  -2.1                  0.00723557071538      -6.01829095986e-10    0.0247385534982      
