! VERSION = 6.00
BEGIN_HEADER
 ICCAP_INPUTS
  vg         V  P1 GROUND SMU_B 0.1 LIN        1    -2.8       3          30   0.2       
  freq       F  CON        100000000
  vd         V  P2 GROUND SMU_C 0.1 LIN        2    0          1          3    0.5       
 ICCAP_OUTPUTS
  S_deemb    S  P1 P2 GROUND n/a B
  id         I  P2 GROUND SMU_C B
  ig         I  P1 GROUND SMU_B B
  T          V  T GROUND n/a B
END_HEADER

BEGIN_DB
 ICCAP_VAR freq       1e+08          
 ICCAP_VAR vd         0              

 #vg                    R:S_deemb(1,1)        I:S_deemb(1,1)        R:S_deemb(1,2)        I:S_deemb(1,2)        R:S_deemb(2,1)        I:S_deemb(2,1)        R:S_deemb(2,2)        I:S_deemb(2,2)        id                    ig                    T                    
  -2.8                  0.998128              -0.0591307            0.000714127           0.0153452             -0.378509             0.0238421             1.01476               -0.0357809            0.000209113           -1.12532e-09          -1.54702e-06         
  -2.6                  0.998129              -0.059676             0.000749552           0.016129              -0.296378             0.0164715             0.94145               -0.0333931            0.00086274            -1.65207e-09          -2.63326e-05         
  -2.4                  0.998244              -0.0593099            0.000600031           0.0139067             0.305708              -0.01249              0.556058              -0.0178263            0.00114141            -1.64699e-09          -4.60911e-05         
  -2.2                  0.997436              -0.0709609            0.000263971           0.00637689            0.137215              -0.00439105           -0.313666             -0.00325748           0.000704181           -8.83428e-10          -1.75429e-05         
  -2                    0.996448              -0.0833581            0.000135673           0.00308396            -0.136697             0.00770597            -0.673022             -0.000935355          -0.000397626          -2.80644e-10          -5.5935e-06          
  -1.8                  0.995953              -0.089029             9.14675e-05           0.00202232            -0.0441682            0.00353156            -0.788633             -0.000288939          -0.000979697          -5.69652e-11          -3.39561e-05         
  -1.6                  0.995696              -0.0918261            7.67141e-05           0.00167014            0.0301222             -1.27975e-05          -0.829349             -0.00011279           -0.00118293           -5.12788e-12          -4.95055e-05         
  -1.4                  0.995582              -0.0930121            7.32186e-05           0.00157836            0.0206765             0.000484994           -0.843008             -0.000102668          -0.000970883          1.61985e-17           -3.33478e-05         
  -1.2                  0.995567              -0.093152             7.30478e-05           0.00156866            -0.00349649           0.0017025             -0.847231             -0.000129355          -0.000577262          4.43602e-12           -1.17891e-05         
  -1                    0.995569              -0.0931347            7.33474e-05           0.00157036            -0.0146054            0.00221817            -0.848707             -0.000152272          -0.000262139          3.57467e-11           -2.43107e-06         
  -0.8                  0.995547              -0.0933708            7.33873e-05           0.0015634             -0.0160568            0.00220385            -0.849521             -0.000166776          -2.08142e-05          1.29324e-10           -1.53268e-08         
  -0.6                  0.995515              -0.0937232            7.28728e-05           0.00154434            -0.0138358            0.00198528            -0.850239             -0.000175564          0.000220016           3.28738e-10           -1.71255e-06         
  -0.4                  0.995501              -0.0938957            7.15233e-05           0.00151213            -0.00881701           0.00163707            -0.851171             -0.000178852          0.000425667           6.36619e-10           -6.41023e-06         
  -0.2                  0.995517              -0.0937369            6.9213e-05            0.00146641            -0.00037125           0.00115196            -0.852658             -0.000175621          0.000460648           8.79228e-10           -7.50708e-06         
  0                     0.995556              -0.0933444            6.61527e-05           0.00140966            0.00937624            0.000649285           -0.854962             -0.000166884          0.000212674           7.67351e-10           -1.60015e-06         
  0.2                   0.995586              -0.0930079            6.29497e-05           0.00134835            0.0154972             0.000371707           -0.858127             -0.000156014          -0.000282171          1.29328e-09           -2.81681e-06         
  0.4                   0.995432              -0.0930662            6.47047e-05           0.00129127            0.0134555             0.000528483           -0.861931             -0.000146625          -0.000806881          6.34101e-08           -2.30331e-05         
  0.6                   0.982471              -0.0925954            0.000390292           0.00122383            0.00267842            0.00113102            -0.865974             -0.000140198          -0.00106377           6.16681e-06           -4.00256e-05         
  0.8                   0.694051              -0.0682466            0.0072833             0.000735379           -0.00889738           0.00154757            -0.869885             -0.000127889          -0.00091951           0.000248518           -2.96321e-05         
  1                     0.603081              -0.0622689            0.0119924             0.000490818           -0.00926624           0.00156375            -0.87334              -0.000111716          -0.000818044          0.00134967            -2.23223e-05         
  1.2                   -0.0775862            -0.0202001            0.0265111             -6.17825e-05          0.013521              0.000405643           -0.875919             -9.07724e-05          -0.00241227           0.00331939            -0.000196057         
  1.4                   -0.895042             0.000221086           0.0407632             -3.12828e-05          0.00688261            0.00011656            -0.876114             -8.07462e-05          -0.00855953           0.0260736             -0.0023186           
  1.6                   -0.959472             0.000368654           0.04065               -6.64321e-07          0.0029303             8.74428e-05           -0.875666             -8.043e-05            -0.0148621            0.137064              -0.00531896          
  1.8                   -0.965244             0.000371528           0.0406139             1.86515e-06           0.00239748            8.45014e-05           -0.875374             -8.13342e-05          -0.0191727            0.287207              -0.00625915          
  2                     -0.966967             0.000372068           0.0406537             2.38382e-06           0.00221573            8.36296e-05           -0.875158             -8.21136e-05          -0.0227823            0.447081              -0.00588505          
  2.2                   -0.967762             0.000372269           0.0407137             2.45615e-06           0.00212524            8.32306e-05           -0.87498              -8.2796e-05           -0.0260677            0.610909              -0.00453215          
  2.4                   -0.968214             0.00037237            0.0407802             2.37155e-06           0.00207104            8.30051e-05           -0.874823             -8.34163e-05          -0.0291667            0.776841              -0.00234008          
  2.6                   -0.968504             0.000372429           0.0408492             2.21711e-06           0.00203484            8.28608e-05           -0.87468              -8.3996e-05           -0.032144             0.94407               0.000620172          
  2.8                   -0.968705             0.000372467           0.0409191             2.02652e-06           0.00200889            8.27605e-05           -0.874545             -8.45483e-05          -0.0350351            1.11218               0.00430725           
  3                     -0.968852             0.000372494           0.0409895             1.81498e-06           0.00198932            8.26865e-05           -0.874415             -8.50821e-05          -0.0378617            1.28091               0.00869474           
END_DB

BEGIN_DB
 ICCAP_VAR freq       1e+08          
 ICCAP_VAR vd         0.5            

 #vg                    R:S_deemb(1,1)        I:S_deemb(1,1)        R:S_deemb(1,2)        I:S_deemb(1,2)        R:S_deemb(2,1)        I:S_deemb(2,1)        R:S_deemb(2,2)        I:S_deemb(2,2)        id                    ig                    T                    
  -2.8                  0.998413              -0.0548585            0.000592254           0.0136848             -0.213669             0.0143411             0.971432              -0.0315026            -0.000457389          -2.01686e-09          -0.00561041          
  -2.6                  0.998304              -0.0567987            0.000659659           0.0148212             -0.347432             0.0177256             0.989091              -0.0333749            -0.000338316          -2.49312e-09          -0.00414842          
  -2.4                  0.997662              -0.0661419            0.000766331           0.0156295             -0.829163             0.0421644             0.973721              -0.0366543            6.36955e-05           -2.26466e-09          0.000780126          
  -2.2                  0.993349              -0.109708             0.000883712           0.0130533             -4.73125              0.325381              0.56838               -0.0497901            0.005132              -1.24727e-09          0.0619353            
  -2                    0.98846               -0.14646              0.000762311           0.00927771            -7.46703              0.622521              0.0504157             -0.0431198            0.0231568             -4.73773e-10          0.2647               
  -1.8                  0.99091               -0.131771             0.000380124           0.0053869             -4.70216              0.339539              -0.426524             -0.015008             0.0529366             -1.46608e-10          0.549334             
  -1.6                  0.993955              -0.108383             0.000165787           0.00295986            -1.75438              0.10286               -0.694562             -0.00314167           0.0814068             -3.76255e-11          0.762781             
  -1.4                  0.994995              -0.0988949            0.000102726           0.00205546            -0.648526             0.0351806             -0.789786             -0.000877111          0.10066               -6.34333e-12          0.874618             
  -1.2                  0.995361              -0.0953022            8.14257e-05           0.00171053            -0.273188             0.0149122             -0.825677             -0.000362076          0.111755              -1.82634e-13          0.927157             
  -1                    0.99546               -0.0943016            7.39034e-05           0.00157622            -0.152822             0.00872513            -0.840045             -0.000227015          0.118509              2.82557e-13           0.954873             
  -0.8                  0.995455              -0.0943764            7.08881e-05           0.00151312            -0.104739             0.00628298            -0.846714             -0.000181325          0.123353              6.96969e-12           0.972764             
  -0.6                  0.995421              -0.0947409            6.89682e-05           0.00146782            -0.0740884            0.00470237            -0.850672             -0.000156505          0.127164              3.3023e-11            0.985673             
  -0.4                  0.9954                -0.0949736            6.69398e-05           0.00142268            -0.0504598            0.0034564             -0.85359              -0.000138773          0.130218              8.71438e-11           0.995273             
  -0.2                  0.99541               -0.0948796            6.44529e-05           0.00137309            -0.0324366            0.00250044            -0.856075             -0.00012577           0.132655              1.40057e-10           1.00246              
  0                     0.99545               -0.0944762            6.15949e-05           0.00132004            -0.0199475            0.00185759            -0.8584               -0.000117107          0.134614              9.91622e-11           1.00794              
  0.2                   0.995499              -0.0939668            5.87557e-05           0.00126828            -0.013877             0.00158281            -0.86066              -0.000113109          0.136277              1.19862e-11           1.01237              
  0.4                   0.995527              -0.0936618            5.65063e-05           0.00122495            -0.0150569            0.00171295            -0.862808             -0.000114069          0.137876              1.77147e-10           1.01645              
  0.6                   0.995128              -0.0938394            6.49371e-05           0.00119665            -0.0225107            0.00219243            -0.864718             -0.000119423          0.139623              1.36775e-07           1.0207               
  0.8                   0.959907              -0.0914058            0.000877554           0.00112971            -0.0310803            0.00271928            -0.866305             -0.000125371          0.14156               1.74001e-05           1.02516              
  1                     0.61423               -0.0625254            0.00921131            0.000605739           -0.025448             0.00216241            -0.867766             -0.000114             0.14329               0.000447894           1.02884              
  1.2                   0.551222              -0.0588102            0.0113018             0.000509359           -0.00137764           0.00123222            -0.869168             -0.000105115          0.143555              0.00143693            1.02922              
  1.4                   -0.38152              -0.0086303            0.0304982             -9.24649e-05          0.030517              1.65921e-05           -0.870427             -9.55875e-05          0.139438              0.0047822             1.01944              
  1.6                   -0.937207             0.000340242           0.0400091             -6.92261e-06          0.0062355             9.40813e-05           -0.8702               -8.68168e-05          0.129236              0.0500465             0.984337             
  1.8                   -0.962048             0.000369683           0.0405395             2.97945e-06           0.00322184            8.48807e-05           -0.870019             -8.6123e-05           0.122123              0.179807              0.941478             
  2                     -0.965796             0.000371445           0.0407806             4.08621e-06           0.00263987            8.341e-05             -0.869936             -8.63331e-05          0.117284              0.333626              0.902152             
  2.2                   -0.967148             0.000371918           0.0409389             4.28073e-06           0.00240665            8.28993e-05           -0.869911             -8.65519e-05          0.113283              0.494594              0.865073             
  2.4                   -0.967828             0.000372124           0.0410521             4.26681e-06           0.00228136            8.26535e-05           -0.869923             -8.67255e-05          0.109703              0.658821              0.829561             
  2.6                   -0.968234             0.000372238           0.0411361             4.1916e-06            0.00220297            8.25135e-05           -0.869959             -8.68563e-05          0.106378              0.824892              0.795288             
  2.8                   -0.968503             0.00037231            0.0411997             4.09907e-06           0.00214912            8.24253e-05           -0.870012             -8.69518e-05          0.103222              0.992142              0.762072             
  3                     -0.968694             0.000372359           0.0412482             4.00483e-06           0.00210975            8.23659e-05           -0.870076             -8.70192e-05          0.100189              1.16021               0.729802             
END_DB

BEGIN_DB
 ICCAP_VAR freq       1e+08          
 ICCAP_VAR vd         1              

 #vg                    R:S_deemb(1,1)        I:S_deemb(1,1)        R:S_deemb(1,2)        I:S_deemb(1,2)        R:S_deemb(2,1)        I:S_deemb(2,1)        R:S_deemb(2,2)        I:S_deemb(2,2)        id                    ig                    T                    
  -2.8                  0.998563              -0.0523766            0.00050542            0.0122797             -0.17675              0.0116199             0.923403              -0.0287623            -0.000348157          -3.18138e-09          -0.00853414          
  -2.6                  0.998497              -0.0536874            0.000538426           0.0128953             -0.245221             0.0123978             0.906195              -0.0288849            -0.000287429          -3.47682e-09          -0.00704492          
  -2.4                  0.997654              -0.0659378            0.000631701           0.0132734             -1.14192              0.0571879             0.87309               -0.0337792            0.000217474           -2.93893e-09          0.00532645           
  -2.2                  0.99286               -0.113522             0.000785132           0.0113784             -6.12407              0.430292              0.547602              -0.0526175            0.00760125            -1.64312e-09          0.184187             
  -2                    0.986018              -0.160393             0.000877014           0.00969265            -10.6439              0.976105              0.248534              -0.0632967            0.0304184             -7.07323e-10          0.712517             
  -1.8                  0.98256               -0.180241             0.000871122           0.00879381            -11.4134              1.14552               0.0483358             -0.0585217            0.0667272             -2.88654e-10          1.47729              
  -1.6                  0.983984              -0.17377              0.000695104           0.00740599            -9.25932              0.882398              -0.1862               -0.0392221            0.11178               -1.22458e-10          2.29658              
  -1.4                  0.990418              -0.135677             0.000329541           0.00460963            -4.54333              0.333178              -0.519798             -0.0119922            0.158076              -5.16921e-11          2.98884              
  -1.2                  0.993752              -0.110215             0.000163201           0.00287811            -1.81034              0.107401              -0.704749             -0.00308473           0.192936              -1.90941e-11          3.41001              
