! VERSION = 6.00
BEGIN_HEADER
 ICCAP_INPUTS
  vg         V  G GROUND MPSMU1 0.01 LIN        1    -9         1.8        109  0.1       
  vd         V  D GROUND HPSMU2 1 LIN        2    0          10         11   1         
 ICCAP_OUTPUTS
  ig         I  G GROUND MPSMU1 B
  id         I  D GROUND HPSMU2 B
  T          V  T GROUND DEFAULT B
END_HEADER

BEGIN_DB
 ICCAP_VAR vd         0              

 #vg                    ig                    id                    T                    
  -9                    -3.53495614134e-07    0.000274056881439     -2.65702412478e-06   
  -8.9                  -3.3711804666e-07     0.000268216596496     -2.54498873983e-06   
  -8.8                  -3.21242722804e-07    0.000261963857061     -2.42771545564e-06   
  -8.7                  -3.05867082402e-07    0.000255358827224     -2.30683859852e-06   
  -8.6                  -2.9098759414e-07     0.000248461731435     -2.183910692e-06     
  -8.5                  -2.76599814884e-07    0.000241330767883     -2.06035295819e-06   
  -8.4                  -2.62698463659e-07    0.000234019910767     -1.9374130008e-06    
  -8.3                  -2.49277505349e-07    0.000226576697475     -1.81613200447e-06   
  -8.2                  -2.36330239538e-07    0.000219040107262     -1.69732314604e-06   
  -8.1                  -2.23849390524e-07    0.000211438641057     -1.58156217165e-06   
  -8                    -2.11827195181e-07    0.000203788704138     -1.46919031238e-06   
  -7.9                  -2.00255486106e-07    0.000196093374901     -1.36032900054e-06   
  -7.8                  -1.89125768185e-07    0.000188341615689     -1.25490530307e-06   
  -7.7                  -1.78429287361e-07    0.000180507947774     -1.15268665256e-06   
  -7.6                  -1.6815709101e-07     0.000172552577468     -1.05332336671e-06   
  -7.5                  -1.58300079754e-07    0.000164421928947     -9.56397586582e-07   
  -7.4                  -1.48849050987e-07    0.000156049516481     -8.61477585938e-07   
  -7.3                  -1.39794734653e-07    0.000147357077323     -7.68176830307e-07   
  -7.2                  -1.31127821981e-07    0.00013825588734      -6.76217610765e-07   
  -7.1                  -1.22838988072e-07    0.000128648192399     -5.8549944769e-07    
  -7                    -1.14918909216e-07    0.000118428705264     -4.96172673644e-07   
  -6.9                  -1.07358275872e-07    0.000107486134764     -4.08717603565e-07   
  -6.8                  -1.00147802176e-07    9.57047273626e-05     -3.24029474487e-07   
  -6.7                  -9.3278232804e-08     8.29658073451e-05     -2.43508907335e-07   
  -6.6                  -8.6740347905e-08     6.91493027904e-05     -1.69157095441e-07   
  -6.5                  -8.05249667656e-08    5.41352435564e-05     -1.03674343249e-07   
  -6.4                  -7.46229507348e-08    3.780522181e-05       -5.05600353512e-08   
  -6.3                  -6.90252058667e-08    2.00438255504e-05     -1.42115979003e-08   
  -6.2                  -6.372268564e-08      7.4009717288e-07      -1.93203175375e-11   
  -6.1                  -5.870639403e-08      -2.02108566594e-05    -1.44526203374e-08   
  -6                    -5.3967389139e-08     -4.29058694147e-05    -6.51307080633e-08   
  -5.9                  -4.94967875296e-08    -6.74309531403e-05    -1.60865571853e-07   
  -5.8                  -4.52857693591e-08    -9.38572145088e-05    -3.11656400033e-07   
  -5.7                  -4.13255843794e-08    -0.00012223469791     -5.28600492073e-07   
  -5.6                  -3.7607558855e-08     -0.00015258321676     -8.23665188446e-07   
  -5.5                  -3.41231034463e-08    -0.000184879094375    -1.20923819868e-06   
  -5.4                  -3.08637221271e-08    -0.000219036698422    -1.69734200929e-06   
  -5.3                  -2.78210222353e-08    -0.000254883793279    -2.29836795057e-06   
  -5.2                  -2.49867257994e-08    -0.000292130135394    -3.01916937903e-06   
  -5.1                  -2.23526823374e-08    -0.000330329485611    -3.86037213094e-06   
  -5                    -1.99108833684e-08    -0.000368836407371    -4.81284472069e-06   
  -4.9                  -1.76534789066e-08    -0.000406760980596    -5.85346055178e-06   
  -4.8                  -1.55727961788e-08    -0.000442927049691    -6.94062224501e-06   
  -4.7                  -1.36613606883e-08    -0.000475842982876    -8.01052983409e-06   
  -4.6                  -1.19119194487e-08    -0.00050369805877     -8.97582510656e-06   
  -4.5                  -1.03174656265e-08    -0.000524401746025    -9.72886161297e-06   
  -4.4                  -8.87126279579e-09    -0.000535685413351    -1.0152040987e-05    
  -4.3                  -7.5668653247e-09     -0.000535283451623    -1.01368102985e-05   
  -4.2                  -6.39812893655e-09    -0.000521200620321    -9.61044515021e-06   
  -4.1                  -5.35920218922e-09    -0.000492054305909    -8.56563785445e-06   
  -4                    -4.44448594322e-09    -0.00044745828684     -7.08335050329e-06   
  -3.9                  -3.64854523005e-09    -0.000388395896172    -5.33682396852e-06   
  -3.8                  -2.96595956178e-09    -0.000317520974383    -3.56679746797e-06   
  -3.7                  -2.39110981176e-09    -0.000239322401015    -2.02628404471e-06   
  -3.6                  -1.91793145562e-09    -0.000160078581484    -9.06567418079e-07   
  -3.5                  -1.53972356414e-09    -8.7490439558e-05     -2.70803911808e-07   
  -3.4                  -1.24918747975e-09    -2.9795066876e-05     -3.14067379952e-08   
  -3.3                  -1.03894821169e-09    5.97800268931e-06     -1.26427942597e-09   
  -3.2                  -9.02818760554e-10    1.71039769672e-05     -1.03496790972e-08   
  -3.1                  -8.37902128671e-10    1.01320095079e-05     -3.6318123879e-09    
  -3                    -8.47076060999e-10    7.63090694294e-06     -2.06008015056e-09   
  -2.9                  -9.39800858995e-10    5.39275526672e-05     -1.02885609134e-07   
  -2.8                  -1.12532402261e-09    0.000209113367838     -1.54702376075e-06   
  -2.7                  -1.38854193149e-09    0.000506359142293     -9.07090757393e-06   
  -2.6                  -1.65206562851e-09    0.000862739791146     -2.63325611307e-05   
  -2.5                  -1.77496286465e-09    0.00108693596882      -4.1796639816e-05    
  -2.4                  -1.64698811896e-09    0.00114141064153      -4.60911224632e-05   
  -2.3                  -1.30080711783e-09    0.001078278724        -4.11334868536e-05   
  -2.2                  -8.83428132623e-10    0.000704180987583     -1.75429264892e-05   
  -2.1                  -5.26695859018e-10    0.000108336448158     -4.15224131001e-07   
  -2                    -2.80643587282e-10    -0.000397626290993    -5.59350031512e-06   
  -1.9                  -1.34420056402e-10    -0.000743121870446    -1.953680585e-05     
  -1.8                  -5.6965203725e-11     -0.000979697418003    -3.39560684007e-05   
  -1.7                  -2.01888846617e-11    -0.00113132356338     -4.52800750236e-05   
  -1.6                  -5.12787558523e-12    -0.00118293215388     -4.95054651509e-05   
  -1.5                  -5.50039548245e-13    -0.00112250334405     -4.45767866584e-05   
  -1.4                  1.61984720481e-17     -0.000970882665949    -3.33477829805e-05   
  -1.3                  5.891739863e-13       -0.000774180815064    -2.12040237358e-05   
  -1.2                  4.43601578259e-12     -0.000577261952005    -1.17890643701e-05   
  -1.1                  1.48416189669e-11     -0.000405330310425    -5.81234833854e-06   
  -1                    3.57466593416e-11     -0.000262139164542    -2.43106903588e-06   
  -0.9                  7.20086818147e-11     -0.000138216061154    -6.7585026575e-07    
  -0.8                  1.293237509e-10       -2.08141679437e-05    -1.53267998969e-08   
  -0.7                  2.13521216594e-10     9.85549558983e-05     -3.43629500163e-07   
  -0.6                  3.28737570569e-10     0.000220016083433     -1.71254642398e-06   
  -0.5                  4.73821577966e-10     0.000334499984838     -3.9584548712e-06    
  -0.4                  6.366190073e-10       0.000425667149953     -6.41023226325e-06   
  -0.3                  7.87566299487e-10     0.000473797228737     -7.94179238127e-06   
  -0.2                  8.79227968598e-10     0.000460647527453     -7.50707905736e-06   
  -0.1                  8.67266051558e-10     0.000374240408778     -4.95489966355e-06   
  0                     7.67350529549e-10     0.000212673613846     -1.60015019185e-06   
  0.1                   7.31521994431e-10     -1.37082752305e-05    -6.64811158779e-09   
  0.2                   1.29328378293e-09     -0.000282171024123    -2.81681439742e-06   
  0.3                   6.59892556077e-09     -0.000559631221687    -1.10799338098e-05   
  0.4                   6.34101485075e-08     -0.000806881250601    -2.303305465e-05     
  0.5                   6.63123978473e-07     -0.000984961505639    -3.43211524995e-05   
  0.6                   6.16681294961e-06     -0.00106376558146     -4.00256280402e-05   
  0.7                   4.66282910084e-05     -0.00103340721733     -3.77222334658e-05   
  0.8                   0.000248517712367     -0.000919510037418    -2.96321364776e-05   
  0.9                   0.00077275721097      -0.000799779730656    -2.18723701727e-05   
  1                     0.00134967199938      -0.000818044424394    -2.23223388049e-05   
  1.1                   0.00191501705527      -0.00122525543139     -5.02369561425e-05   
  1.2                   0.00331938672144      -0.00241226673524     -0.000196056889681   
  1.3                   0.00789688012598      -0.00485778752536     -0.000787861281165   
  1.4                   0.0260735852687       -0.0085595310938      -0.00231859801422    
  1.5                   0.0721357827567       -0.0120993412763      -0.00410995717932    
  1.6                   0.137064325625        -0.0148620892604      -0.00531895554505    
  1.7                   0.210170442106        -0.0171500891665      -0.0059901385118     
  1.8                   0.287207151517        -0.0191726611641      -0.00625914599527    
END_DB

BEGIN_DB
 ICCAP_VAR vd         1              

 #vg                    ig                    id                    T                    
  -9                    -4.27969202385e-07    0.000114458039655     0.0028037578697      
  -8.9                  -4.09915204901e-07    0.000113212617499     0.00277325506251     
  -8.8                  -3.92341237354e-07    0.000111747835155     0.00273737955842     
  -8.7                  -3.75248483752e-07    0.000110119526757     0.00269749879031     
  -8.6                  -3.58637125517e-07    0.00010838351443      0.00265497991545     
  -8.5                  -3.4250633777e-07     0.000106593813523     0.00261114586259     
  -8.4                  -3.26854313074e-07    0.000104800686423     0.00256722766695     
  -8.3                  -3.11678307993e-07    0.00010304861729      0.00252431486457     
  -8.2                  -2.96974707431e-07    0.000101374296581     0.0024833061236      
  -8.1                  -2.82739101625e-07    9.98047160596e-05     0.00244486257914     
  -8                    -2.68966370927e-07    9.83554789977e-05     0.00240936643755     
  -7.9                  -2.55650773996e-07    9.70294250804e-05     0.00237688728864     
  -7.8                  -2.42786035616e-07    9.58156538236e-05     0.00234715817917     
  -7.7                  -2.3036543113e-07     9.46890044933e-05     0.00231956286882     
  -7.6                  -2.18381865147e-07    9.36100173119e-05     0.00229313487551     
  -7.5                  -2.06827942944e-07    9.25253636854e-05     0.00226656800912     
  -7.4                  -1.95696033582e-07    9.13686977579e-05     0.00223823722435     
  -7.3                  -1.84978324321e-07    9.00618527737e-05     0.00220622791677     
  -7.2                  -1.74666866385e-07    8.85162884439e-05     0.00216837136297     
  -7.1                  -1.64753612451e-07    8.66346916855e-05     0.00212228391153     
  -7                    -1.55230446516e-07    8.43126427545e-05     0.00206540776845     
  -6.9                  -1.46089206972e-07    8.14402793319e-05     0.00199505172395     
  -6.8                  -1.37321703777e-07    7.79039174432e-05     0.0019084308129      
  -6.7                  -1.28919730712e-07    7.35876155069e-05     0.00180270457298     
  -6.6                  -1.20875073627e-07    6.83746920052e-05     0.00167501415808     
  -6.5                  -1.13179515613e-07    6.21492271673e-05     0.00152251905261     
  -6.4                  -1.05824839906e-07    5.47975965111e-05     0.00134243456039     
  -6.3                  -9.88028312743e-08    4.62101041885e-05     0.00113207173552     
  -6.2                  -9.21052765513e-08    3.62828141309e-05     0.000888882159365    
  -6.1                  -8.57239648687e-08    2.49197252504e-05     0.000610511152167    
  -6                    -7.9650688065e-08     1.20355076616e-05     0.000294864742006    
  -5.9                  -7.38772416635e-08    -2.44088723278e-06    -5.98019335509e-05   
  -5.8                  -6.83954267434e-08    -1.85613167369e-05    -0.000454764338707   
  -5.7                  -6.31970529803e-08    -3.63516970063e-05    -0.00089066311138    
  -5.6                  -5.82739430983e-08    -5.58027875686e-05    -0.00136727812983    
  -5.5                  -5.3617938966e-08     -7.68578723092e-05    -0.00188322639787    
  -5.4                  -4.92209095953e-08    -9.93968139174e-05    -0.0024355708754     
  -5.3                  -4.50747613424e-08    -0.000123216262285    -0.00301933481089    
  -5.2                  -4.1171450702e-08     -0.000148006338463    -0.00362692939776    
  -5.1                  -3.75030001976e-08    -0.000173324921681    -0.00424752235833    
  -5                    -3.40615180309e-08    -0.000198571729526    -0.00486640117068    
  -4.9                  -3.08392223277e-08    -0.000222965661257    -0.0054644161423     
  -4.8                  -2.78284710265e-08    -0.000245530306646    -0.0060176238156     
  -4.7                  -2.5021798625e-08     -0.000265093991779    -0.00649728739917    
  -4.6                  -2.24119610981e-08    -0.000280311977712    -0.00687042159959    
  -4.5                  -1.99919901759e-08    -0.000289718907016    -0.00710108101589    
  -4.4                  -1.7755257596e-08     -0.000291818466323    -0.00715256340113    
  -4.3                  -1.56955485803e-08    -0.000285213732366    -0.00699061262725    
  -4.2                  -1.38071410594e-08    -0.000268775915647    -0.00658756404972    
  -4.1                  -1.20848823994e-08    -0.000241843024614    -0.00592722184591    
  -4                    -1.0524247857e-08     -0.000204436630454    -0.00501017482217    
  -3.9                  -9.12135464459e-09    -0.000157487229118    -0.00385931362333    
  -3.8                  -7.87289446627e-09    -0.000103065982347    -0.00252549175617    
  -3.7                  -6.77594306006e-09    -4.4626494728e-05     -0.00109341930948    
  -3.6                  -5.82762430677e-09    1.27473237619e-05     0.000312303607009    
  -3.5                  -5.02467601063e-09    6.21291002103e-05     0.00152202602254     
  -3.4                  -4.36310822867e-09    9.47057441207e-05     0.00231997285122     
  -3.3                  -3.83833196588e-09    0.000100207193825     0.00245472039992     
  -3.2                  -3.44618143873e-09    6.84076637664e-05     0.00167582179665     
  -3.1                  -3.18474891991e-09    -7.3084000461e-06     -0.000179057646921   
  -3                    -3.05544122374e-09    -0.000123079784545    -0.00301598991154    
  -2.9                  -3.0591682464e-09     -0.000254247752618    -0.00623135531669    
  -2.8                  -3.18138356647e-09    -0.000348157374048    -0.00853414187065    
  -2.7                  -3.36311902946e-09    -0.000348830722152    -0.00855065549869    
  -2.6                  -3.47682238864e-09    -0.000287428606585    -0.00704492189909    
  -2.5                  -3.36112290541e-09    -0.000239823609547    -0.00587771177466    
  -2.4                  -2.93893317097e-09    0.000217474334724     0.00532644668968     
  -2.3                  -2.30355512528e-09    0.00232946600423      0.0568799274413      
  -2.2                  -1.64312268728e-09    0.00760125288875      0.184186542173       
  -2.1                  -1.09748577383e-09    0.0169873636693       0.405981255361       
  -2                    -7.07323195041e-10    0.0304184244587       0.712516626836       
  -1.9                  -4.50747168322e-10    0.0472174594665       1.07795259482        
  -1.8                  -2.88654188062e-10    0.0667272057734       1.47729481819        
  -1.7                  -1.87077852486e-10    0.0884341064288       1.88995807807        
  -1.6                  -1.2245798926e-10     0.111780392334        2.29657572389        
  -1.5                  -8.01565997385e-11    0.135687531696        2.67299530335        
  -1.4                  -5.16920885341e-11    0.1580761931          2.98883699223        
  -1.3                  -3.2283581013e-11     0.177277351913        3.23145997349        
  -1.2                  -1.90941420677e-11    0.192936405528        3.41001336308        
  -1.1                  -1.03352172301e-11    0.205359405064        3.53932534051        
  -1                    -4.82083807784e-12    0.215118172743        3.63324695659        
  -0.9                  -1.7101476581e-12     0.222846259015        3.70284363936        
  -0.8                  -3.27201284337e-13    0.229099450865        3.75606487734        
  -0.7                  -4.29047688521e-15    0.234298247137        3.79820581512        
  -0.6                  5.76415460281e-14     0.238731405976        3.8326299294         
  -0.5                  8.64480930696e-13     0.242586202459        3.86143270669        
  -0.4                  3.51599145025e-12     0.245982032494        3.88593504408        
  -0.3                  8.70803873551e-12     0.248997266385        3.90700733336        
  -0.2                  1.57277701047e-11     0.25168748988         3.92526523661        
  -0.1                  2.13529332174e-11     0.25409667956         3.94118119563        
  0                     2.04043593831e-11     0.256263488677        3.95514511873        
  0.1                   1.08905519952e-11     0.258224376801        3.96749564346        
  0.2                   1.31111518846e-12     0.260014711422        3.9785343514         
  0.3                   -1.45686986991e-13    0.26166851492         3.98852973559        
  0.4                   -6.35610976716e-12    0.263217249209        3.99771462374        
  0.5                   -4.05472095307e-13    0.264687858024        4.0062790947         
  0.6                   3.58853013572e-10     0.266100158281        4.0143599478         
  0.7                   2.5786087479e-08      0.267463541445        4.02202701874        
  0.8                   5.30658726484e-07     0.268772772105        4.02926561132        
  0.9                   6.34032176168e-06     0.270002359625        4.03595165999        
  1                     4.96750290893e-05     0.271098336352        4.04180832536        
  1.1                   0.000239034610251     0.271966235171        4.04633415478        
  1.2                   0.000645912251748     0.272456924696        4.04876912202        
  1.3                   0.00113773212757      0.272337666419        4.04798186595        
  1.4                   0.00186662725808      0.271228559606        4.0418965732         
  1.5                   0.00355340271796      0.268525399111        4.02673848056        
