! VERSION = 6.00
BEGIN_HEADER
 ICCAP_INPUTS
  freq       F  LIN        1    1e+08      2.51e+10   251  1e+08     
  vg         V  P1 GROUND DEFAULT 0 CON        -3
  vd         V  P2 GROUND DEFAULT 0 LIN        2    0          0.2        2    0.2       
 ICCAP_OUTPUTS
  S_deemb    S  P1 P2 GROUND n/a B
  id         I  P2 GROUND DEFAULT B
  ig         I  P1 GROUND DEFAULT B
  T          V  T GROUND DEFAULT B
END_HEADER

BEGIN_DB
 ICCAP_VAR vg         -3             
 ICCAP_VAR vd         0              

 #freq                  R:S_deemb(1,1)        I:S_deemb(1,1)        R:S_deemb(1,2)        I:S_deemb(1,2)        R:S_deemb(2,1)        I:S_deemb(2,1)        R:S_deemb(2,2)        I:S_deemb(2,2)        id                    ig                    T                    
  100000000             0.998397458552        -0.054963056255       0.000623645320169     0.0141385632929       -0.0704913711292      0.0116230476362       1.01330975214         -0.0327139757306      7.63090694191e-06     -8.47076060999e-10    -2.06008015e-09      
  200000000             0.993605859145        -0.109642087988       0.00248596499832      0.0281483046974       -0.0690455029049      0.0232080843029       1.01147678684         -0.0653516240199      7.63090694278e-06     -8.47076060999e-10    -2.06008015047e-09   
  300000000             0.985676129074        -0.163758153211       0.00556262664114      0.0419029297839       -0.0666563586696      0.0345848858779       1.00843504833         -0.0978297674425      7.63090694278e-06     -8.47076060999e-10    -2.06008015047e-09   
  400000000             0.974691084361        -0.217042283405       0.00981362270063      0.0552811019177       -0.0633543047754      0.0456708096087       1.00420402097         -0.130072315499       7.63090694278e-06     -8.47076060999e-10    -2.06008015047e-09   
  500000000             0.960763574406        -0.269240002983       0.0151844995006       0.06816868463         -0.0591806720825      0.0563806152191       0.998810352296        -0.162005801489       7.63090694278e-06     -8.47076060999e-10    -2.06008015047e-09   
  600000000             0.944033572755        -0.320115321543       0.0216078208396       0.080460717126        -0.0541866524466      0.0666346671085       0.992287259645        -0.193560645341       7.63090694278e-06     -8.47076060999e-10    -2.06008015047e-09   
  700000000             0.924664682993        -0.369454075236       0.0290049247554       0.0920630604413       -0.0484319707029      0.0763611393988       0.984673815404        -0.224671946532       7.63090694278e-06     -8.47076060999e-10    -2.06008015047e-09   
  800000000             0.902840218086        -0.417066531863       0.0372878931243       0.102893671227        -0.0419833953828      0.0854972210459       0.976014142421        -0.255280087317       7.63090694278e-06     -8.47076060999e-10    -2.06008015047e-09   
  900000000             0.878759020999        -0.462789215263       0.0463616489755       0.112883480905        -0.034913152663       0.0939898630418       0.966356552799        -0.285331170073       7.63090694278e-06     -8.47076060999e-10    -2.06008015047e-09   
  1000000000            0.852631193038        -0.50648594465        0.0561260971436       0.121976878335        -0.0272973073248      0.101796178047        0.955752663056        -0.314777293998       7.63090694278e-06     -8.47076060999e-10    -2.06008015047e-09   
  1100000000            0.82467388522         -0.548048121149       0.0664782295734       0.130131812676        -0.0192141701854      0.108883535528        0.944256516459        -0.343576678823       7.63090694278e-06     -8.47076060999e-10    -2.06008015047e-09   
  1200000000            0.795107289039        -0.587394324441       0.0773141262483       0.137319548711        -0.0107427841627      0.115229386899        0.931923739742        -0.371693648009       7.63090694278e-06     -8.47076060999e-10    -2.06008015047e-09   
  1300000000            0.764150938612        -0.6244693058         0.0885307951513       0.143524118731        -0.00196153174339     0.12082085789         0.918810756616        -0.3990984882         7.63090694278e-06     -8.47076060999e-10    -2.06008015047e-09   
  1400000000            0.732020408722        -0.65924247927        0.100027808631        0.14874152292         0.00705310392361      0.125654149016        0.90497407521         -0.425767204636       7.63090694278e-06     -8.47076060999e-10    -2.06008015047e-09   
  1500000000            0.69892446522         -0.691706020433       0.111708707852        0.15297873403         0.0162276028896       0.129733787061        0.890469661045        -0.451681193749       7.63090694278e-06     -8.47076060999e-10    -2.06008015047e-09   
  1600000000            0.665062697415        -0.721872682847       0.123482160635        0.156252562444        0.0254922861028       0.133071770352        0.875352401963        -0.476826854347       7.63090694278e-06     -8.47076060999e-10    -2.06008015047e-09   
  1700000000            0.630623638135        -0.749773437132       0.135262870205        0.15858843505         0.0347820050309       0.13568664835         0.859675666712        -0.501195157829       7.63090694278e-06     -8.47076060999e-10    -2.06008015047e-09   
  1800000000            0.595783356956        -0.775455028002       0.146972242589        0.160019136431        0.0440366490384       0.137602572326        0.843490954976        -0.524781196067       7.63090694278e-06     -8.47076060999e-10    -2.06008015047e-09   
  1900000000            0.560704496323        -0.79897753199        0.158538828455        0.160583554398        0.0532014824158       0.138848348933        0.82684763349         -0.547583723165       7.63090694278e-06     -8.47076060999e-10    -2.06008015047e-09   
  2000000000            0.52553570885         -0.820411984345       0.169898560962        0.160325464654        0.0622273273292       0.139456522988        0.809792750685        -0.569604704604       7.63090694278e-06     -8.47076060999e-10    -2.06008015047e-09   
  2100000000            0.490411446887        -0.839838128924       0.180994814854        0.159292381838        0.0710706117251       0.139462510077        0.792370920813        -0.590848884451       7.63090694278e-06     -8.47076060999e-10    -2.06008015047e-09   
  2200000000            0.455452051854        -0.857342330646       0.191778313815        0.157534496951        0.0796933025743       0.138903794133        0.77462426782         -0.611323378577       7.63090694278e-06     -8.47076060999e-10    -2.06008015047e-09   
  2300000000            0.420764090382        -0.873015677079       0.202206913331        0.155103714514        0.0880627450158       0.137819200061        0.756592419064        -0.631037299336       7.63090694278e-06     -8.47076060999e-10    -2.06008015047e-09   
  2400000000            0.38644088616         -0.886952284239       0.21224528532         0.152052796927        0.096151427213        0.136248247103        0.738312539345        -0.650001414948       7.63090694278e-06     -8.47076060999e-10    -2.06008015047e-09   
  2500000000            0.35256320006         -0.899247812085       0.221864528908        0.148434618631        0.103936689323        0.134230584907        0.719819396333        -0.668227844983       7.63090694278e-06     -8.47076060999e-10    -2.06008015047e-09   
  2600000000            0.319200015835        -0.909998187457       0.231041729283        0.144301528682        0.111400393126        0.131805511266        0.70114544942         -0.685729791851       7.63090694278e-06     -8.47076060999e-10    -2.06008015047e-09   
  2700000000            0.286409394107        -0.919298526262       0.239759483788        0.139704817334        0.118528566775        0.129011568247        0.682320954974        -0.702521307086       7.63090694278e-06     -8.47076060999e-10    -2.06008015047e-09   
  2800000000            0.254239362961        -0.927242242459       0.248005411519        0.134694280055        0.125311036942        0.125886211722        0.663374082081        -0.718617090361       7.63090694278e-06     -8.47076060999e-10    -2.06008015047e-09   
  2900000000            0.222728818982        -0.933920328549       0.255771659874        0.129317870944        0.13174105851         0.122465548286        0.644331033834        -0.734032318649       7.63090694278e-06     -8.47076060999e-10    -2.06008015047e-09   
  3000000000            0.191908417733        -0.939420790637       0.263054418831        0.123621436672        0.137814949934        0.118784132856        0.625216170251        -0.748782502622       7.63090694278e-06     -8.47076060999e-10    -2.06008015047e-09   
  3100000000            0.161801437414        -0.943828220511       0.269853451301        0.117648521763        0.143531740588        0.114874820048        0.606052129744        -0.762883367256       7.63090694278e-06     -8.47076060999e-10    -2.06008015047e-09   
  3200000000            0.132424603603        -0.947223487241       0.27617164576         0.111440236076        0.148892834762        0.110768662423        0.586859946842        -0.77635075361        7.63090694278e-06     -8.47076060999e-10    -2.06008015047e-09   
  3300000000            0.10378886655         -0.94968353148        0.282014595518        0.105035175667        0.153901695611        0.106494848986        0.567659164556        -0.789200538886       7.63090694278e-06     -8.47076060999e-10    -2.06008015047e-09   
  3400000000            0.0759001255275       -0.951281246684       0.28739020742         0.098469388776        0.158563551161        0.102080677698        0.548467940297        -0.801448572049       7.63090694278e-06     -8.47076060999e-10    -2.06008015047e-09   
  3500000000            0.0487598971965       -0.952085432734       0.292308341502        0.0917763793315       0.162885123531        0.0975515562784       0.529303144714        -0.813110622528       7.63090694278e-06     -8.47076060999e-10    -2.06008015047e-09   
  3600000000            0.0223659269198       -0.952160808884       0.296780482113        0.0849871410947       0.166874381752        0.0929310261199       0.5101804532          -0.824202339788       7.63090694278e-06     -8.47076060999e-10    -2.06008015047e-09   
  3700000000            -0.00328725650309     -0.951568074406       0.300819440196        0.07813021633         0.170540317955        0.0882408047047       0.491114430048        -0.834739221798       7.63090694278e-06     -8.47076060999e-10    -2.06008015047e-09   
  3800000000            -0.0282078410569      -0.95036400676        0.304439085828        0.0712317736371       0.173892746263        0.0835008424926       0.472118605466        -0.844736590724       7.63090694278e-06     -8.47076060999e-10    -2.06008015047e-09   
  3900000000            -0.052406284229       -0.948601588482       0.307654109695        0.0643157002944       0.176942123381        0.0787293907745       0.453205545816        -0.854209574389       7.63090694278e-06     -8.47076060999e-10    -2.06008015047e-09   
  4000000000            -0.075894915192       -0.946330155301       0.310479811849        0.0574037051399       0.17969938965         0.0739430775019       0.434386917483        -0.863173092276       7.63090694278e-06     -8.47076060999e-10    -2.06008015047e-09   
  4100000000            -0.0986875830666      -0.943595559158       0.312931915933        0.0505154286264       0.182175829195        0.0691569885626       0.415673544916        -0.871641845082       7.63090694278e-06     -8.47076060999e-10    -2.06008015047e-09   
  4200000000            -0.12079934769        -0.940440340848       0.315026406931        0.0436685572466       0.184382947718        0.0643847523932       0.397075463322        -0.879630306974       7.63090694278e-06     -8.47076060999e-10    -2.06008015047e-09   
  4300000000            -0.14224620927        -0.936903907987       0.316779390495        0.0368789400141       0.186332366461        0.0596386261888       0.378601966576        -0.887152719892       7.63090694278e-06     -8.47076060999e-10    -2.06008015047e-09   
  4400000000            -0.163044873333       -0.933022714777       0.318206971902        0.0301607051205       0.188035730882        0.0549295822951       0.360261650828        -0.894223089369       7.63090694278e-06     -8.47076060999e-10    -2.06008015047e-09   
  4500000000            -0.183212547523       -0.92883044079        0.319325152754        0.0235263752631       0.189504632626        0.0502673936541       0.34206245432         -0.900855181441       7.63090694278e-06     -8.47076060999e-10    -2.06008015047e-09   
  4600000000            -0.202766766939       -0.924358166583       0.320149743633        0.0169869804619       0.190750543455        0.0456607174132       0.324011693834        -0.90706252035        7.63090694278e-06     -8.47076060999e-10    -2.06008015047e-09   
  4700000000            -0.221725244932       -0.919634544471       0.320696291003        0.0105521674568       0.19178475984         0.0411171760183       0.306116098221        -0.912858386779       7.63090694278e-06     -8.47076060999e-10    -2.06008015047e-09   
  4800000000            -0.240105746494       -0.914685963219       0.320980016793        0.00423030501043      0.192618357061        0.0366434352806       0.288381839342        -0.918255816477       7.63090694278e-06     -8.47076060999e-10    -2.06008015047e-09   
  4900000000            -0.257925981588       -0.909536705768       0.321015769188        -0.00197141536901     0.19326215169         0.0322452790567       0.270814560795        -0.92326759912        7.63090694278e-06     -8.47076060999e-10    -2.06008015047e-09   
  5000000000            -0.275203516026       -0.904209099407       0.3208179833          -0.00804688360646     0.193726671482        0.027927680297        0.253419404677        -0.927906277367       7.63090694278e-06     -8.47076060999e-10    -2.06008015047e-09   
  5100000000            -0.291955697702       -0.89872365804        0.320400650489        -0.013990980335       0.194022131727        0.0236948683196       0.236201036676        -0.932184146027       7.63090694278e-06     -8.47076060999e-10    -2.06008015047e-09   
  5200000000            -0.308199596213       -0.89309921638        0.319777295227        -0.0197994913535      0.194158417269        0.0195503922418       0.21916366968         -0.936113251345       7.63090694278e-06     -8.47076060999e-10    -2.06008015047e-09   
  5300000000            -0.323951954122       -0.887353056067       0.318960958526        -0.0254690272701      0.19414506942         0.0154971805692       0.202311086109        -0.939705390377       7.63090694278e-06     -8.47076060999e-10    -2.06008015047e-09   
  5400000000            -0.339229148265       -0.881501023813       0.317964187005        -0.0309969482672      0.193991277109        0.0115375969886       0.185646659116        -0.942972110478       7.63090694278e-06     -8.47076060999e-10    -2.06008015047e-09   
  5500000000            -0.354047159741       -0.87555764177        0.31679902683         -0.0363812938733      0.193705871678        0.00767349245132      0.169173372803        -0.9459247089         7.63090694278e-06     -8.47076060999e-10    -2.06008015047e-09   
  5600000000            -0.368421551315       -0.869536210386       0.315477021787        -0.0416207175862      0.193297324771        0.00390625366139      0.152893841552        -0.948574232538       7.63090694278e-06     -8.47076060999e-10    -2.06008015047e-09   
  5700000000            -0.382367451184       -0.863448904047       0.31400921488         -0.0467144261667      0.19277374887         0.000236848106386     0.136810328558        -0.950931477817       7.63090694278e-06     -8.47076060999e-10    -2.06008015047e-09   
  5800000000            -0.395899542124       -0.857306859865       0.312406152881        -0.0516621233965      0.192142900046        -0.00333413421929     0.120924763654        -0.953006990776       7.63090694278e-06     -8.47076060999e-10    -2.06008015047e-09   
  5900000000            -0.409032055193       -0.851120259951       0.310677893348        -0.0564639580886      0.191412182561        -0.00680644223686     0.105238760471        -0.95481106733        7.63090694278e-06     -8.47076060999e-10    -2.06008015047e-09   
  6000000000            -0.421778767271       -0.844898407564       0.30883401368         -0.0611204761222      0.190588655002        -0.0101801281854      0.0897536329895       -0.956353753757       7.63090694278e-06     -8.47076060999e-10    -2.06008015047e-09   
  6100000000            -0.434153001785       -0.838649797481       0.306883621826        -0.0656325762799      0.18967903767         -0.013455514835       0.0744704115179       -0.95764484741        7.63090694278e-06     -8.47076060999e-10    -2.06008015047e-09   
  6200000000            -0.446167632088       -0.832382180987       0.304835368328        -0.0700014696577      0.188689720968        -0.0166331653434      0.0593898581265       -0.958693897666       7.63090694278e-06     -8.47076060999e-10    -2.06008015047e-09   
  6300000000            -0.457835087004       -0.826102625817       0.302697459404        -0.074228642428       0.18762677458         -0.0197138555902      0.044512481562        -0.959510207127       7.63090694278e-06     -8.47076060999e-10    -2.06008015047e-09   
  6400000000            -0.469167358136       -0.819817571415       0.300477670822        -0.0783158217365      0.186495957266        -0.0226985488282      0.0298385516584       -0.960102833065       7.63090694278e-06     -8.47076060999e-10    -2.06008015047e-09   
  6500000000            -0.480176008586       -0.813532879827       0.298183362365        -0.0822649445245      0.185302727093        -0.0255883724943      0.0153681132598       -0.960480589125       7.63090694278e-06     -8.47076060999e-10    -2.06008015047e-09   
  6600000000            -0.490872182781       -0.807253882563       0.295821492678        -0.0860781290737      0.184052251986        -0.0283845970327      0.00110099966391      -0.960652047278       7.63090694278e-06     -8.47076060999e-10    -2.06008015047e-09   
  6700000000            -0.501266617161       -0.800985423715       0.293398634369        -0.0897576490798      0.182749420467        -0.0310886165854      -0.0129631544031      -0.96062554002        7.63090694278e-06     -8.47076060999e-10    -2.06008015047e-09   
  6800000000            -0.511369651486       -0.794731899614       0.290920989206        -0.0933059100731      0.181398852494        -0.0337019314137      -0.0268249002755      -0.960409162815       7.63090694278e-06     -8.47076060999e-10    -2.06008015047e-09   
  6900000000            -0.521191240608       -0.788497295303       0.288394403306        -0.0967254280107      0.180004910306        -0.0362261319246      -0.0404849632942      -0.96001077676        7.63090694278e-06     -8.47076060999e-10    -2.06008015047e-09   
  7000000000            -0.530740966526       -0.782285218062       0.285824382227        -0.100018809876       0.178571709208        -0.0386628841769      -0.0539442312035      -0.959438011485       7.63090694278e-06     -8.47076060999e-10    -2.06008015047e-09   
  7100000000            -0.540028050612       -0.776098928219       0.283216105869        -0.103188736133       0.177103128235        -0.0410139167561      -0.0672037429961      -0.958698268247       7.63090694278e-06     -8.47076060999e-10    -2.06008015047e-09   
  7200000000            -0.549061365883       -0.769941367472       0.280574443132        -0.106237944884       0.17560282065         -0.0432810089086      -0.0802646781987      -0.957798723231       7.63090694278e-06     -8.47076060999e-10    -2.06008015047e-09   
