! VERSION = 6.00
BEGIN_HEADER
 ICCAP_INPUTS
  vd         V  D GROUND SMU_C 0.1 LIN        1    0          60         601  0.1       
  vg         V  G GROUND SMU_B 0.1 LIN        2    -2.8       1.8        47   0.1       
 ICCAP_OUTPUTS
  id         I  D GROUND SMU_C B
  ig         I  G GROUND SMU_B B
  T          V  T GROUND n/a B
END_HEADER

BEGIN_DB
 ICCAP_VAR vg         -2.8           

 #vd                    id                    ig                    T                    
  0                     0.000209113367837     -1.12532402261e-09    -1.54702376074e-06   
  0.1                   -2.40444106413e-06    -1.28246064273e-09    -5.89108369972e-06   
  0.2                   -0.000175255273997    -1.45010686889e-09    -0.0008598372474     
  0.3                   -0.00030828755814     -1.62832842483e-09    -0.00226927536747    
  0.4                   -0.00040149509331     -1.81721071309e-09    -0.0039403538276     
  0.5                   -0.000457388887685    -2.01686078548e-09    -0.00561041374585    
  0.6                   -0.000480312347856    -2.22740358706e-09    -0.00706875149132    
  0.7                   -0.000475522455137    -2.44897729235e-09    -0.00816320784253    
  0.8                   -0.000448488106309    -2.68172919472e-09    -0.00879748072133    
  0.9                   -0.000404446117982    -2.92581244405e-09    -0.00892382173557    
  1                     -0.000348157374047    -3.18138356647e-09    -0.00853414187063    
  1.1                   -0.000283798279688    -3.44860061208e-09    -0.00765121116193    
  1.2                   -0.000214936646153    -3.72762177869e-09    -0.00632077023469    
  1.3                   -0.000144556486468    -4.01860438556e-09    -0.00460486224606    
  1.4                   -7.51083167421e-05    -4.32170409957e-09    -0.00257641420997    
  1.5                   -8.57015001631e-06    -4.63707434299e-09    -0.000314955534403   
  1.6                   5.34898253752e-05     -4.96486583237e-09    0.00209669941905     
  1.7                   0.000109854070519     -5.30522621508e-09    0.0045749939778      
  1.8                   0.000159602740243     -5.65829978242e-09    0.00703757793578     
  1.9                   0.000202068083465     -6.02422724841e-09    0.0094048224442      
  2                     0.000236796337636     -6.40314558948e-09    0.011601033969       
  2.1                   0.000263516634764     -6.79518794494e-09    0.0135554708534      
  2.2                   0.00028211606474      -7.20048358096e-09    0.0152032364485      
  2.3                   0.000292619840242     -7.61915791994e-09    0.016486094669       
  2.4                   0.000295175428485     -8.05133263691e-09    0.0173532285105      
  2.5                   0.000290039529159     -8.49712582166e-09    0.0177619407089      
  2.6                   0.000277566865504     -8.95665220124e-09    0.017678279362       
  2.7                   0.0002581999001       -9.43002341448e-09    0.0170775606567      
  2.8                   0.000232458771467     -9.91734832554e-09    0.0159447560935      
  2.9                   0.00020093095588      -1.04187333612e-08    0.0142747125944      
  3                     0.00016426037149      -1.09342828542e-08    0.0120721797976      
  3.1                   0.000123135842708     -1.14640993734e-08    0.00935162854701     
  3.2                   7.82790159599e-05     -1.2008284025e-08     0.00613685656619     
  3.3                   3.04319530064e-05     -1.25669367064e-08    0.00246039003446     
  3.4                   -1.96552827489e-05    -1.31401563023e-08    -0.00163729831972    
  3.5                   -7.12366877398e-05    -1.37280408129e-08    -0.00610872400974    
  3.6                   -0.000123581668501    -1.43306874101e-08    -0.0109004408015     
  3.7                   -0.00017598535758     -1.494819242e-08      -0.015954164446      
  3.8                   -0.000227777634919    -1.55806512362e-08    -0.0212079281245     
  3.9                   -0.00027833067363     -1.62281581683e-08    -0.0265972300175     
  4                     -0.000327064915321    -1.68908062341e-08    -0.0320561382925     
  4.1                   -0.000373453462919    -1.75686869056e-08    -0.0375183252495     
  4.2                   -0.000417024953929    -1.82618898174e-08    -0.0429180098383     
  4.3                   -0.000457365037049    -1.89705024475e-08    -0.0481907953292     
  4.4                   -0.000494116620017    -1.96946097782e-08    -0.0532743961845     
  4.5                   -0.000526979084148    -2.04342939448e-08    -0.0581092545258     
  4.6                   -0.000555706673234    -2.11896338769e-08    -0.0626390518242     
  4.7                   -0.000580106263336    -2.19607049359e-08    -0.0668111253971     
  4.8                   -0.000600034707499    -2.27475785508e-08    -0.0705768018879     
  4.9                   -0.000615395929218    -2.35503218529e-08    -0.0738916613028     
  5                     -0.000626137912779    -2.43689973075e-08    -0.0767157454448     
  5.1                   -0.000632249709821    -2.52036623436e-08    -0.0790137239021     
  5.2                   -0.000633758552488    -2.60543689761e-08    -0.0807550294003     
  5.3                   -0.000630727134492    -2.69211634217e-08    -0.0819139723333     
  5.4                   -0.000623251095123    -2.78040857036e-08    -0.0824698420068     
  5.5                   -0.000611456717047    -2.87031692457e-08    -0.0824069995635     
  5.6                   -0.000595498828444    -2.96184404552e-08    -0.0817149649765     
  5.7                   -0.000575558882409    -3.0549918293e-08     -0.0803884978612     
  5.8                   -0.000551843173435    -3.1497613837e-08     -0.0784276694509     
  5.9                   -0.000524581140647    -3.24615298382e-08    -0.0758379208341     
  6                     -0.000494023701156    -3.34416602793e-08    -0.0726301006341     
  6.1                   -0.000460441554412    -3.44379899386e-08    -0.0688204738321     
  6.2                   -0.000424123399075    -3.54504939718e-08    -0.0644306923731     
  6.3                   -0.00038537400844     -3.64791375197e-08    -0.059487717745      
  6.4                   -0.000344512118178    -3.75238753542e-08    -0.0540236858772     
  6.5                   -0.000301868091126    -3.85846515752e-08    -0.0480757055456     
  6.6                   -0.000257781337517    -3.96613993695e-08    -0.0416855829878     
  6.7                   -0.000212597485317    -4.07540408452e-08    -0.0348994676791     
  6.8                   -0.00016666531296     -4.1862486952e-08     -0.0277674170508     
  6.9                   -0.000120333475306    -4.29866374952e-08    -0.0203428813012     
  7                     -7.39470715541e-05    -4.41263812516e-08    -0.0126821131211     
  7.1                   -2.78441208073e-05    -4.52815961889e-08    -0.00484351105759    
  7.2                   1.76479755432e-05     -4.64521497885e-08    0.00311309110551     
  7.3                   6.22158951833e-05     -4.76378994672e-08    0.0111271731889      
  7.4                   0.00010556368534      -4.88386930879e-08    0.0191382972273      
  7.5                   0.000147415788021     -5.00543695487e-08    0.0270868756064      
  7.6                   0.000187519711345     -5.12847594338e-08    0.0349149176891      
  7.7                   0.000225648269686     -5.25296857074e-08    0.0425667343131      
  7.8                   0.000261601331516     -5.37889644325e-08    0.0499895811171      
  7.9                   0.000295207033422     -5.50624054938e-08    0.0571342242439      
  8                     0.000326322441273     -5.63498133057e-08    0.0639554155652      
  8.1                   0.000354833662186     -5.76509874886e-08    0.0704122686948      
  8.2                   0.000380655433218     -5.89657234983e-08    0.0764685315995      
  8.3                   0.000403730232404     -6.0293813198e-08     0.0820927561236      
  8.4                   0.000424026973802     -6.16350453645e-08    0.087258368931       
  8.5                   0.000441539359922     -6.29892061264e-08    0.0919436520157      
  8.6                   0.000456283971521     -6.4356079333e-08     0.0961316437508      
  8.7                   0.000468298176518     -6.5735446858e-08     0.0998099733932      
  8.8                   0.00047763793658      -6.71270888428e-08    0.102970642864       
  8.9                   0.000484375583441     -6.8530783888e-08     0.105609769751       
  9                     0.000488597627036     -6.99463092019e-08    0.107727304695       
  9.1                   0.000490402645864     -7.13734407117e-08    0.109326734921       
  9.2                   0.000489899297707     -7.28119531512e-08    0.11041478392        
  9.3                   0.000487204476022     -7.42616201261e-08    0.11100111509        
  9.4                   0.000482441626483     -7.57222141697e-08    0.11109804517        
  9.5                   0.00047573922772      -7.71935067865e-08    0.110720271137       
  9.6                   0.000467229432644     -7.86752684948e-08    0.109884612537       
  9.7                   0.00045704686046      -8.01672688625e-08    0.108609769641       
  9.8                   0.000445327526092     -8.16692765418e-08    0.106916096813       
  9.9                   0.000432207890953     -8.31810593011e-08    0.104825389565       
  10                    0.000417824019162     -8.47023840515e-08    0.102360683471       
  10.1                  0.000402310823644     -8.62330168683e-08    0.0995460628871      
  10.2                  0.000385801388358     -8.7772723005e-08     0.0964064776091      
  10.3                  0.000368426354965     -8.93212668993e-08    0.092967565795       
  10.4                  0.000350313364919     -9.08784121675e-08    0.0892554819787      
  10.5                  0.000331586549979     -9.24439215908e-08    0.0852967293189      
  10.6                  0.000312366066949     -9.40175570887e-08    0.0811179958224      
  10.7                  0.000292767673855     -9.55990796832e-08    0.0767459945773      
  10.8                  0.000272902346797     -9.71882494535e-08    0.0722073084996      
  10.9                  0.000252875937464     -9.87848254817e-08    0.0675282402925      
  11                    0.000232788872297     -1.00388565793e-07    0.0627346685826      
  11.1                  0.000212735894608     -1.0199922729e-07     0.0578519113023      
  11.2                  0.000192805850883     -1.03616565688e-07    0.0529045973978      
  11.3                  0.000173081522385     -1.05240335447e-07    0.0479165479267      
  11.4                  0.000153639502738     -1.06870289705e-07    0.042910667519       
  11.5                  0.000134550121665     -1.08506180222e-07    0.0379088470339      
  11.6                  0.000115877414292     -1.1014775733e-07     0.0329318780471      
  11.7                  9.76791351093e-05     -1.11794769881e-07    0.0279993796826      
  11.8                  8.00068145717e-05     -1.13446965224e-07    0.0231297379785      
  11.9                  6.29058562902e-05     -1.15104089178e-07    0.0183400579205      
  12                    4.64156718767e-05     -1.16765886029e-07    0.0136461279758      
  12.1                  3.05698501979e-05     -1.18432098535e-07    0.00906239681377     
  12.2                  1.53963576262e-05     -1.20102467951e-07    0.00460196178284     
  12.3                  9.17765412111e-07     -1.21776734064e-07    0.000276568509512    
  12.4                  -1.28484997051e-05    -1.23454635248e-07    -0.00390337909626    
  12.5                  -2.58898854817e-05    -1.25135908533e-07    -0.00792879920339    
  12.6                  -3.81984287614e-05    -1.26820289687e-07    -0.0117919036961     
  12.7                  -4.97704583724e-05    -1.28507513313e-07    -0.0154861619708     
  12.8                  -6.06062900221e-05    -1.30197312961e-07    -0.0190062578514     
  12.9                  -7.07099165833e-05    -1.31889421251e-07    -0.0223480405581     
  13                    -8.00886968797e-05    -1.33583570012e-07    -0.0255084706408     
  13.1                  -8.87530459517e-05    -1.35279490421e-07    -0.0284855618096     
  13.2                  -9.67161294216e-05    -1.36976913162e-07    -0.0312783195336     
  13.3                  -0.000103993564139    -1.38675568591e-07    -0.0338866771906     
  13.4                  -0.000110603127247    -1.40375186903e-07    -0.0363114305783     
  13.5                  -0.000116564475372    -1.42075498311e-07    -0.0385541714937     
  13.6                  -0.000121898875268    -1.43776233224e-07    -0.0406172210027     
  13.7                  -0.000126628947203    -1.45477122434e-07    -0.0425035630197     
  13.8                  -0.000130778421922    -1.47177897301e-07    -0.0442167787114     
  13.9                  -0.000134371911837    -1.48878289943e-07    -0.0457609821668     
  14                    -0.000137434697018    -1.50578033421e-07    -0.0471407577823     
  14.1                  -0.000139992526039    -1.52276861931e-07    -0.0483610996319     
  14.2                  -0.000142071431946    -1.53974510984e-07    -0.0494273531703     
  14.3                  -0.00014369756322     -1.55670717598e-07    -0.0503451594862     
  14.4                  -0.000144897029436    -1.57365220469e-07    -0.0511204022542     
  14.5                  -0.00014569576147     -1.59057760158e-07    -0.0517591575865     
  14.6                  -0.000146119385666    -1.60748079256e-07    -0.0522676468263     
  14.7                  -0.000146193111537    -1.62435922553e-07    -0.0526521923621     
  14.8                  -0.00014594163252     -1.64121037204e-07    -0.0529191765298     
  14.9                  -0.000145389038994    -1.65803172881e-07    -0.0530750035292     
  15                    -0.00014455874306     -1.67482081926e-07    -0.0531260643899     
  15.1                  -0.000143473414393    -1.69157519494e-07    -0.0530787049222     
  15.2                  -0.000142154926337    -1.7082924369e-07     -0.0529391965462     
  15.3                  -0.00014062431181     -1.72497015699e-07    -0.052713710003      
  15.4                  -0.000138901728041    -1.74160599912e-07    -0.052408291751      
  15.5                  -0.00013700642959     -1.75819764038e-07    -0.0520288429904     
  15.6                  -0.000134956749135    -1.77474279216e-07    -0.0515811012616     
  15.7                  -0.000132770084982    -1.79123920116e-07    -0.0510706243441     
  15.8                  -0.000130462895054    -1.80768465036e-07    -0.050502776484      
  15.9                  -0.000128050696575    -1.82407695984e-07    -0.0498827167497     
  16                    -0.000125548070852    -1.84041398764e-07    -0.0492153893831     
  16.1                  -0.000122968672659    -1.85669363047e-07    -0.0485055160347     
  16.2                  -0.000120325243743    -1.87291382438e-07    -0.0477575897763     
  16.3                  -0.000117629629799    -1.88907254536e-07    -0.0469758706935     
  16.4                  -0.000114892800734    -1.90516780986e-07    -0.0461643830527     
  16.5                  -0.000112124873466    -1.92119767528e-07    -0.0453269137909     
  16.6                  -0.000109335137123    -1.93716024034e-07    -0.0444670123132     
  16.7                  -0.000106532080145    -1.95305364546e-07    -0.0435879914449     
  16.8                  -0.000103723418966    -1.96887607301e-07    -0.0426929294267     
  16.9                  -0.000100916127996    -1.98462574756e-07    -0.0417846728752     
  17                    -9.81164706353e-05    -2.00030093603e-07    -0.0408658406092     
  17.1                  -9.53300309013e-05    -2.01589994781e-07    -0.0399388281926     
  17.2                  -9.25617457304e-05    -2.03142113484e-07    -0.0390058132239     
  17.3                  -8.98159374625e-05    -2.04686289157e-07    -0.0380687611793     
  17.4                  -8.70963464061e-05    -2.06222365502e-07    -0.037129431767      
  17.5                  -8.44061634284e-05    -2.07750190459e-07    -0.0361893857713     
  17.6                  -8.17480622271e-05    -2.09269616202e-07    -0.0352499922385     
  17.7                  -7.91242312541e-05    -2.10780499118e-07    -0.0343124359856     
  17.8                  -7.65364052562e-05    -2.12282699788e-07    -0.0333777254119     
  17.9                  -7.39858960675e-05    -2.13776082962e-07    -0.0324467004457     
  18                    -7.14736228691e-05    -2.15260517531e-07    -0.0315200407088     
  18.1                  -6.90001416217e-05    -2.16735876495e-07    -0.0305982737586     
  18.2                  -6.65656737215e-05    -2.18202036933e-07    -0.0296817834171     
  18.3                  -6.41701337196e-05    -2.19658879956e-07    -0.0287708181008     
  18.4                  -6.18131561802e-05    -2.21106290675e-07    -0.0278654991698     
  18.5                  -5.94941215928e-05    -2.22544158156e-07    -0.0269658292432     
  18.6                  -5.72121812023e-05    -2.23972375372e-07    -0.0260717004019     
  18.7                  -5.49662809837e-05    -2.25390839155e-07    -0.0251829023648     
  18.8                  -5.27551844227e-05    -2.26799450149e-07    -0.0242991304668     
  18.9                  -5.05774944104e-05    -2.28198112755e-07    -0.0234199935623     
  19                    -4.84316740276e-05    -2.29586735078e-07    -0.0225450217331     
  19.1                  -4.63160663093e-05    -2.30965228871e-07    -0.0216736738241     
  19.2                  -4.42289129765e-05    -2.32333509477e-07    -0.0208053447853     
  19.3                  -4.21683721647e-05    -2.33691495773e-07    -0.0199393728127     
  19.4                  -4.01325351423e-05    -2.35039110105e-07    -0.0190750462714     
  19.5                  -3.81194419976e-05    -2.36376278234e-07    -0.0182116103706     
  19.6                  -3.61270964175e-05    -2.37702929265e-07    -0.0173482736337     
  19.7                  -3.41534794588e-05    -2.39018995592e-07    -0.0164842140988     
  19.8                  -3.21965624037e-05    -2.40324412829e-07    -0.0156185852781     
  19.9                  -3.02543187285e-05    -2.41619119747e-07    -0.0147505218732     
  20                    -2.83247351156e-05    -2.42903058209e-07    -0.0138791451978     
  20.1                  -2.64058217088e-05    -2.44176173106e-07    -0.0130035683901     
  20.2                  -2.44956214788e-05    -2.45438412286e-07    -0.0121229013349     
  20.3                  -2.25922187882e-05    -2.46689726495e-07    -0.0112362553252     
  20.4                  -2.06937471478e-05    -2.47930069303e-07    -0.0103427474465     
  20.5                  -1.87983963684e-05    -2.49159397044e-07    -0.00944150477025    
  20.6                  -1.69044187794e-05    -2.50377668745e-07    -0.00853166818231    
  20.7                  -1.50101349625e-05    -2.51584846061e-07    -0.00761239605646    
  20.8                  -1.31139387074e-05    -2.52780893211e-07    -0.00668286761604    
  20.9                  -1.12143013889e-05    -2.53965776909e-07    -0.00574228607182    
  21                    -9.30977571831e-06    -2.55139466296e-07    -0.00478988150262    
  21.1                  -7.39899896015e-06    -2.56301932883e-07    -0.00382491351435    
  21.2                  -5.48069559426e-06    -2.57453150476e-07    -0.00284667365857    
  21.3                  -3.55367942003e-06    -2.58593095119e-07    -0.00185448759885    
  21.4                  -1.6168552923e-06     -2.59721745023e-07    -0.000847717115044   
  21.5                  3.30779720951e-07     -2.6083908051e-07     0.000174238171553    
