! VERSION = 6.00
BEGIN_HEADER
 ICCAP_INPUTS
  vd         V  D GROUND SMU_C 0.1 LIN        2    0.1        20.1       11   2         
  vg         V  G GROUND SMU_B 0.1 LIN        1    -3         1.8        49   0.1       
 ICCAP_OUTPUTS
  id         I  D GROUND SMU_C B
  T          V  T GROUND n/a B
  ig         I  G GROUND SMU_B B
END_HEADER

BEGIN_DB
 ICCAP_VAR vd         0.1            

 #vg                    id                    T                     ig                   
  -3                    -7.65557e-05          -0.000187769          -9.98864e-10         
  -2.9                  -8.57951e-05          -0.000210458          -1.09239e-09         
  -2.8                  -2.40444e-06          -5.89108e-06          -1.28246e-09         
  -2.7                  0.000217638           0.000531537           -1.54926e-09         
  -2.6                  0.000511016           0.00124275            -1.80915e-09         
  -2.5                  0.000701576           0.00170145            -1.91752e-09         
  -2.4                  0.000821462           0.00198871            -1.76644e-09         
  -2.3                  0.00136227            0.0032719             -1.39436e-09         
  -2.2                  0.00290896            0.00682757            -9.52868e-10         
  -2.1                  0.00545834            0.0123189             -5.76022e-10         
  -2                    0.00853937            0.0183417             -3.14221e-10         
  -1.9                  0.011711              0.0238399             -1.56164e-10         
  -1.8                  0.0145986             0.0282268             -7.0174e-11          
  -1.7                  0.0169688             0.0313868             -2.7488e-11          
  -1.6                  0.0187887             0.0335433             -8.51514e-12         
  -1.5                  0.0201656             0.0350192             -1.58043e-12         
  -1.4                  0.0212428             0.0360803             -4.42428e-14         
  -1.3                  0.0221306             0.0368931             7.41593e-14          
  -1.2                  0.0228912             0.0375451             1.64291e-12          
  -1.1                  0.023555              0.0380807             7.34225e-12          
  -1                    0.0241389             0.038526              2.02032e-11          
  -0.9                  0.0246573             0.0389012             4.38814e-11          
  -0.8                  0.025124              0.0392226             8.26436e-11          
  -0.7                  0.0255499             0.0395026             1.40886e-10          
  -0.6                  0.0259406             0.0397481             2.2182e-10           
  -0.5                  0.0262944             0.0399611             3.24823e-10          
  -0.4                  0.0266039             0.0401402             4.41116e-10          
  -0.3                  0.0268585             0.0402824             5.48653e-10          
  -0.2                  0.0270482             0.0403853             6.10783e-10          
  -0.1                  0.0271679             0.040449              5.89933e-10          
  0                     0.0272208             0.0404768             4.875e-10            
  0.1                   0.02722               0.0404764             3.89498e-10          
  0.2                   0.0271889             0.0404601             5.21052e-10          
  0.3                   0.0271593             0.0404445             2.3667e-09           
  0.4                   0.0271674             0.0404488             2.50936e-08          
  0.5                   0.0272478             0.040491              2.98522e-07          
  0.6                   0.0274258             0.0405826             3.0805e-06           
  0.7                   0.0277067             0.0407222             2.57616e-05          
  0.8                   0.0280617             0.040887              0.000156525          
  0.9                   0.0284114             0.0410305             0.000575881          
  1                     0.0286124             0.0410969             0.00115643           
  1.1                   0.0284248             0.0409987             0.00165716           
  1.2                   0.0274673             0.0405139             0.00267418           
  1.3                   0.0252372             0.0391205             0.00574955           
  1.4                   0.0214715             0.0358211             0.0180158            
  1.5                   0.0174267             0.0307528             0.0561508            
  1.6                   0.0142752             0.0257143             0.117258             
  1.7                   0.0117546             0.0211936             0.188683             
  1.8                   0.00957912            0.0171148             0.26484              
END_DB

BEGIN_DB
 ICCAP_VAR vd         2.1            

 #vg                    id                    T                     ig                   
  -3                    0.00024564            0.012636              -7.52374e-09         
  -2.9                  0.000228574           0.0117583             -7.09289e-09         
  -2.8                  0.000263517           0.0135555             -6.79519e-09         
  -2.7                  0.000387192           0.0199157             -6.54457e-09         
  -2.6                  0.000546734           0.0281189             -6.18952e-09         
  -2.5                  0.000805076           0.0413982             -5.57507e-09         
  -2.4                  0.00218271            0.112132              -4.67271e-09         
  -2.3                  0.00659041            0.33754               -3.63357e-09         
  -2.2                  0.0154455             0.786229              -2.66889e-09         
  -2.1                  0.0289209             1.45839               -1.90612e-09         
  -2                    0.046146              2.29888               -1.36229e-09         
  -1.9                  0.0660223             3.24264               -9.96158e-10         
  -1.8                  0.0878793             4.24817               -7.55815e-10         
  -1.7                  0.111466              5.29535               -5.98572e-10         
  -1.6                  0.136589              6.36748               -4.94136e-10         
  -1.5                  0.162889              7.44197               -4.22337e-10         
  -1.4                  0.189869              8.49337               -3.70123e-10         
  -1.3                  0.217027              9.49971               -3.29114e-10         
  -1.2                  0.243953              10.4459               -2.93888e-10         
  -1.1                  0.270357              11.324                -2.60882e-10         
  -1                    0.296034              12.1305               -2.27754e-10         
  -0.9                  0.320636              12.8596               -1.93065e-10         
  -0.8                  0.343354              13.4948               -1.56328e-10         
  -0.7                  0.363309              14.0226               -1.18351e-10         
  -0.6                  0.380238              14.4482               -8.13054e-11         
  -0.5                  0.39439               14.7885               -4.83405e-11         
  -0.4                  0.406178              15.0612               -2.28273e-11         
  -0.3                  0.416027              15.2814               -7.07346e-12         
  -0.2                  0.424315              15.4614               -7.57238e-13         
  -0.1                  0.431357              15.6106               3.40696e-15          
  0                     0.437401              15.7358               1.77264e-12          
  0.1                   0.442637              15.8421               1.05193e-11          
  0.2                   0.447205              15.9334               2.67742e-11          
  0.3                   0.451214              16.0122               4.21791e-11          
  0.4                   0.454747              16.0807               4.30895e-11          
  0.5                   0.45787               16.1406               2.55897e-11          
  0.6                   0.46064               16.1931               6.82395e-12          
  0.7                   0.463102              16.2393               1.11052e-12          
  0.8                   0.465295              16.2801               1.08829e-11          
  0.9                   0.467254              16.3163               8.12643e-10          
  1                     0.469006              16.3484               2.67739e-08          
  1.1                   0.470573              16.3769               4.65913e-07          
  1.2                   0.471969              16.4022               5.06881e-06          
  1.3                   0.473191              16.4242               3.55835e-05          
  1.4                   0.474213              16.4424               0.000157454          
  1.5                   0.474952              16.4555               0.000446077          
  1.6                   0.475197              16.4595               0.000978453          
  1.7                   0.474423              16.445                0.00211577           
  1.8                   0.471383              16.3886               0.00512213           
END_DB

BEGIN_DB
 ICCAP_VAR vd         4.1            

 #vg                    id                    T                     ig                   
  -3                    5.71554e-06           0.000574125           -2.25371e-08         
  -2.9                  -0.000149938          -0.0150621            -1.99554e-08         
  -2.8                  -0.000373453          -0.0375183            -1.75687e-08         
  -2.7                  -0.00055613           -0.0558742            -1.53475e-08         
  -2.6                  -0.000331708          -0.0333239            -1.3197e-08          
  -2.5                  0.00116417            0.116893              -1.10291e-08         
  -2.4                  0.00561163            0.562574              -8.8819e-09          
  -2.3                  0.0149018             1.48903               -6.9274e-09          
  -2.2                  0.0296491             2.94715               -5.32938e-09         
  -2.1                  0.0487344             4.81135               -4.13562e-09         
  -2                    0.0703592             6.89245               -3.29701e-09         
  -1.9                  0.0932949             9.06354               -2.73231e-09         
  -1.8                  0.11727               11.2933               -2.36717e-09         
  -1.7                  0.142531              13.5985               -2.14368e-09         
  -1.6                  0.169217              15.9848               -2.01767e-09         
  -1.5                  0.197076              18.4223               -1.9546e-09          
  -1.4                  0.225555              20.8571               -1.92684e-09         
  -1.3                  0.254036              23.2348               -1.91191e-09         
  -1.2                  0.282028              25.5158               -1.89133e-09         
  -1.1                  0.309244              27.6803               -1.84962e-09         
  -1                    0.335575              29.7245               -1.77369e-09         
  -0.9                  0.361031              31.6542               -1.65302e-09         
  -0.8                  0.38567               33.4784               -1.48104e-09         
  -0.7                  0.409545              35.2049               -1.25793e-09         
  -0.6                  0.432667              36.8386               -9.93914e-10         
  -0.5                  0.455007              38.3811               -7.11388e-10         
  -0.4                  0.476512              39.8325               -4.42998e-10         
  -0.3                  0.497127              41.1933               -2.23929e-10         
  -0.2                  0.516787              42.4628               -7.94953e-11         
  -0.1                  0.535339              43.6359               -1.29658e-11         
  0                     0.552495              44.699                -2.22639e-14         
  0.1                   0.567911              45.6364               6.17481e-12          
  0.2                   0.581369              46.4411               6.0723e-11           
  0.3                   0.592862              47.1181               2.10864e-10          
  0.4                   0.602542              47.6811               4.86957e-10          
  0.5                   0.610636              48.1468               9.04433e-10          
  0.6                   0.617383              48.5313               1.47387e-09          
  0.7                   0.623005              48.8494               2.21307e-09          
  0.8                   0.627701              49.1133               3.15674e-09          
  0.9                   0.631639              49.3334               4.36743e-09          
  1                     0.634956              49.518                5.97361e-09          
  1.1                   0.637761              49.6734               8.32557e-09          
  1.2                   0.640133              49.8045               1.25731e-08          
  1.3                   0.642126              49.9143               2.29688e-08          
  1.4                   0.643767              50.0045               5.8468e-08           
  1.5                   0.645059              50.0753               2.265e-07            
  1.6                   0.64598               50.1258               1.25083e-06          
  1.7                   0.64649               50.1537               8.00147e-06          
  1.8                   0.64653               50.1558               4.71305e-05          
END_DB

BEGIN_DB
 ICCAP_VAR vd         6.1            

 #vg                    id                    T                     ig                   
  -3                    -0.000134001          -0.020027             -4.83203e-08         
  -2.9                  -0.000271624          -0.0405968            -4.11733e-08         
  -2.8                  -0.000460442          -0.0688205            -3.4438e-08          
  -2.7                  -0.000432773          -0.0646845            -2.83568e-08         
  -2.6                  0.00075892            0.1134                -2.3056e-08          
  -2.5                  0.00505341            0.754328              -1.85614e-08         
  -2.4                  0.0148515             2.21175               -1.48686e-08         
  -2.3                  0.0312892             4.64154               -1.19566e-08         
  -2.2                  0.0532372             7.85602               -9.76104e-09         
  -2.1                  0.0784146             11.5015               -8.18117e-09         
  -2                    0.104866              15.2831               -7.1006e-09          
  -1.9                  0.131571              19.0509               -6.40804e-09         
  -1.8                  0.15831               22.7728               -6.00961e-09         
  -1.7                  0.185147              26.4575               -5.82763e-09         
  -1.6                  0.212031              30.0976               -5.79497e-09         
  -1.5                  0.238719              33.6604               -5.85189e-09         
  -1.4                  0.264908              37.1078               -5.9454e-09          
  -1.3                  0.290377              40.4138               -6.0289e-09          
  -1.2                  0.315036              43.5709               -6.06092e-09         
  -1.1                  0.3389                46.5853               -6.00376e-09         
  -1                    0.362043              49.4701               -5.82321e-09         
  -0.9                  0.384544              52.2386               -5.49123e-09         
  -0.8                  0.40646               54.9006               -4.99194e-09         
  -0.7                  0.42781               57.4613               -4.3304e-09          
  -0.6                  0.448591              59.9227               -3.54048e-09         
  -0.5                  0.468788              62.2856               -2.68672e-09         
  -0.4                  0.488388              64.5511               -1.85533e-09         
  -0.3                  0.507386              66.7211               -1.13404e-09         
  -0.2                  0.525783              68.7981               -5.87314e-10         
  -0.1                  0.543571              70.7835               -2.3774e-10          
  0                     0.560725              72.677                -6.2417e-11          
  0.1                   0.577205              74.4765               -5.51318e-12         
  0.2                   0.592959              76.1787               3.88822e-14          
  0.3                   0.607931              77.7803               1.21622e-11          
  0.4                   0.622052              79.2762               6.8336e-11           
  0.5                   0.635204              80.6567               1.85236e-10          
  0.6                   0.647209              81.9062               3.66245e-10          
  0.7                   0.657869              83.0072               6.12536e-10          
  0.8                   0.667059              83.9499               9.35435e-10          
  0.9                   0.674784              84.7376               1.3707e-09           
  1                     0.681174              85.3861               1.99909e-09          
  1.1                   0.686434              85.9177               2.98398e-09          
  1.2                   0.690778              86.3553               4.65043e-09          
  1.3                   0.694394              86.7185               7.66027e-09          
  1.4                   0.69741               87.0207               1.34165e-08          
  1.5                   0.699888              87.2686               2.50554e-08          
  1.6                   0.701817              87.4612               5.00925e-08          
  1.7                   0.703117              87.5909               1.08218e-07          
  1.8                   0.703668              87.6458               2.56997e-07          
END_DB

BEGIN_DB
 ICCAP_VAR vd         8.1            

 #vg                    id                    T                     ig                   
  -3                    0.000191156           0.0379337             -8.61085e-08         
  -2.9                  0.000255243           0.0506507             -7.14396e-08         
  -2.8                  0.000354834           0.0704123             -5.7651e-08          
  -2.7                  0.000986618           0.19576               -4.55649e-08         
  -2.6                  0.00378927            0.751472              -3.57362e-08         
  -2.5                  0.0115402             2.28544               -2.82853e-08         
  -2.4                  0.0262361             5.1822                -2.28866e-08         
  -2.3                  0.0471964             9.28732               -1.90028e-08         
  -2.2                  0.0721025             14.1248               -1.62105e-08         
  -2.1                  0.0988736             19.2756               -1.42724e-08         
  -2                    0.126106              24.4631               -1.30252e-08         
  -1.9                  0.153041              29.5424               -1.2325e-08          
  -1.8                  0.179417              34.4665               -1.20452e-08         
  -1.7                  0.205171              39.227                -1.20738e-08         
