! VERSION = 6.00
BEGIN_HEADER
 ICCAP_INPUTS
  vg         V  P1 GROUND SMU_B 0.1 LIN        1    -9         0.6        49   0.2       
  freq       F  CON        100000000
  vd         V  P2 GROUND SMU_C 0.1 LIN        2    0          1          6    0.2       
 ICCAP_OUTPUTS
  S_deemb    S  P1 P2 GROUND n/a B
  id         I  P2 GROUND SMU_C B
  ig         I  P1 GROUND SMU_B B
  T          V  T GROUND n/a B
END_HEADER

BEGIN_DB
 ICCAP_VAR freq       1e+08          
 ICCAP_VAR vd         0              

 #vg                    R:S_deemb(1,1)        I:S_deemb(1,1)        R:S_deemb(1,2)        I:S_deemb(1,2)        R:S_deemb(2,1)        I:S_deemb(2,1)        R:S_deemb(2,2)        I:S_deemb(2,2)        id                    ig                    T                    
  -9                    0.999013231877        -0.0425746248971      0.000321825628667     0.0090486828965       0.0191481674061       0.0105345082799       0.99519814668         -0.0259405944403      0.000274056881439     -3.53495614134e-07    -2.65702412478e-06   
  -8.8                  0.999008415666        -0.0426906839918      0.000325320222055     0.00913137397259      0.0216534791462       0.0105500356472       0.99484238349         -0.0260162906829      0.000261963857064     -3.21242722804e-07    -2.4277154557e-06    
  -8.6                  0.999003361121        -0.0428121761507      0.000328750841368     0.00921132101915      0.0240726814218       0.0105629406309       0.994351687397        -0.0260890902138      0.000248461731441     -2.9098759414e-07     -2.1839106921e-06    
  -8.4                  0.998998014905        -0.0429400852799      0.000332124322919     0.00928850047502      0.0263227953755       0.0105754779073       0.993743983043        -0.0261597115699      0.000234019910765     -2.62698463659e-07    -1.93741300077e-06   
  -8.2                  0.99899231709         -0.0430755443108      0.000335454148        0.00936305280612      0.0283221146945       0.0105898724202       0.993042899243        -0.0262290285276      0.00021904010726      -2.36330239538e-07    -1.697323146e-06     
  -8                    0.998986203523        -0.0432197900969      0.000338760612986     0.00943529452409      0.0299982119788       0.0106080414057       0.992275782076        -0.0262979834821      0.000203788704137     -2.11827195181e-07    -1.46919031238e-06   
  -7.8                  0.998979608385        -0.0433741111078      0.000342070542803     0.00950571748938      0.0312962560794       0.0106313044916       0.991471045747        -0.0263674820575      0.000188341615688     -1.89125768185e-07    -1.25490530306e-06   
  -7.6                  0.998972466467        -0.0435397979803      0.000345416587228     0.00957497531912      0.0321862766567       0.0106601324973       0.99065520353         -0.0264382856441      0.00017255257747      -1.6815709101e-07     -1.05332336673e-06   
  -7.4                  0.998964714729        -0.0437181067153      0.000348836191838     0.00964385785426      0.0326679287064       0.0106939902423       0.98985004101         -0.0265109227213      0.000156049516478     -1.48849050987e-07    -8.61477585898e-07   
  -7.2                  0.998956292788        -0.0439102410336      0.000352370354689     0.00971325534139      0.0327716112695       0.0107313197259       0.989070413501        -0.02658563945        0.000138255887341     -1.31127821981e-07    -6.76217610776e-07   
  -7                    0.998947142289        -0.0441173539896      0.000356062255342     0.00978411414118      0.0325554966195       0.010769686034        0.988323039223        -0.0266624041166      0.000118428705262     -1.14918909216e-07    -4.96172673628e-07   
  -6.8                  0.998937205572        -0.044340560169       0.000359955780945     0.00985738552608      0.0320989849445       0.0108060730708       0.987606431322        -0.026740969425       9.57047273645e-05     -1.00147802176e-07    -3.24029474499e-07   
  -6.6                  0.998926424485        -0.0445809405704      0.000364093901326     0.00993396890239      0.031493998184        0.0108372798121       0.98691182886         -0.0268209843945      6.91493027908e-05     -8.6740347905e-08     -1.69157095443e-07   
  -6.4                  0.998914740621        -0.0448395156321      0.000368516807288     0.0100146512565       0.0308359086214       0.0108603461825       0.986224757092        -0.026902138781       3.78052218106e-05     -7.46229507348e-08    -5.05600353528e-08   
  -6.2                  0.998902098245        -0.0451171622767      0.000373259786702     0.0101000466163       0.0302152191572       0.0108729512268       0.98552680533         -0.0269843239116      7.4009717019e-07      -6.372268564e-08      -1.93203173969e-11   
  -6                    0.998888450526        -0.0454144644563      0.000378351053539     0.010190543773        0.0297088067908       0.010873797492        0.984797502333        -0.0270678118398      -4.29058694154e-05    -5.3967389139e-08     -6.51307080654e-08   
  -5.8                  0.998873767876        -0.0457315209786      0.000383810266907     0.0102862784663       0.0293652423593       0.0108631411807       0.984016943983        -0.0271534965899      -9.38572145102e-05    -4.52857693591e-08    -3.11656400042e-07   
  -5.6                  0.998858044079        -0.0460677935502      0.000389649374021     0.0103871586512       0.0291730582658       0.0108438287845       0.983171207471        -0.0272433083191      -0.000152583216756    -3.7607558855e-08     -8.23665188402e-07   
  -5.4                  0.998841292044        -0.0464221488496      0.000395878657666     0.0104929884998       0.0289973877073       0.0108233323927       0.982264547515        -0.0273409859189      -0.000219036698423    -3.08637221271e-08    -1.6973420093e-06    
  -5.2                  0.998823519735        -0.0467932761875      0.000402522094267     0.0106037560118       0.0284775373273       0.010817027434        0.981344511338        -0.0274534209391      -0.000292130135388    -2.49867257994e-08    -3.01916937891e-06   
  -5                    0.998804684729        -0.0471805271052      0.000409646260428     0.0107201615854       0.026907635392        0.0108518767996       0.980547115613        -0.0275926639421      -0.000368836407366    -1.99108833684e-08    -4.81284472055e-06   
  -4.8                  0.998784654813        -0.0475847171272      0.000417403354175     0.0108444406153       0.0231859516649       0.0109673134214       0.980164552125        -0.0277782193927      -0.000442927049687    -1.55727961788e-08    -6.9406222449e-06    
  -4.6                  0.998763271128        -0.0480072298164      0.000426074754113     0.0109813836013       0.016031929764        0.0112057159294       0.980713436897        -0.0280379405273      -0.000503698058773    -1.19119194487e-08    -8.97582510665e-06   
  -4.4                  0.998740720867        -0.0484439229738      0.000436069082357     0.0111390513591       0.00481916531778      0.0115786418483       0.982916682582        -0.0284030484886      -0.000535685413351    -8.87126279578e-09    -1.0152040987e-05    
  -4.2                  0.998718408844        -0.0488708818738      0.0004478011688       0.0113282000454       -0.00872756632261     0.0119978039316       0.987437488726        -0.0288906858426      -0.000521200620321    -6.39812893655e-09    -9.61044515021e-06   
  -4                    0.998699837724        -0.0492310484733      0.000461462157879     0.01155992997         -0.0187233843428      0.0121998910777       0.994283892983        -0.0294742567692      -0.000447458286838    -4.44448594322e-09    -7.08335050324e-06   
  -3.8                  0.998689264657        -0.0494608105704      0.000477005057775     0.0118436861679       -0.0156450645231      0.011770357674        1.00217391106         -0.0300622623097      -0.000317520974381    -2.96595956178e-09    -3.56679746795e-06   
  -3.6                  0.998684600649        -0.0496183472271      0.000495048756362     0.012191117793        0.00794525022709      0.0103947087688       1.00855883207         -0.030525664198       -0.00016007858148     -1.91793145562e-09    -9.06567418034e-07   
  -3.4                  0.998664907148        -0.0501020618169      0.00051913973852      0.0126316599298       0.0446596424433       0.00837871571249      1.01105569426         -0.0308193285255      -2.97950668763e-05    -1.24918747975e-09    -3.14067379959e-08   
  -3.2                  0.998584871978        -0.0516908497739      0.000558024738563     0.0132389659543       0.0512482529795       0.00743456089589      1.01057800042         -0.0312392482815      1.71039769649e-05     -9.02818760552e-10    -1.03496790944e-08   
  -3                    0.998397459724        -0.0549630554092      0.000623645101806     0.0141385635266       -0.0704913693678      0.0116230463204       1.01330975236         -0.032713975274       7.63090694191e-06     -8.47076060999e-10    -2.06008015e-09      
  -2.8                  0.998128165206        -0.0591306748711      0.0007141262606       0.0153451700972       -0.37850925761        0.0238420104208       1.01476364403         -0.0357808933726      0.000209113367837     -1.12532402261e-09    -1.54702376074e-06   
  -2.6                  0.998128661573        -0.0596759842295      0.000749553046483     0.0161290402202       -0.296377714353       0.0164714868039       0.941449704274        -0.0333930839708      0.000862739791149     -1.65206562851e-09    -2.63325611309e-05   
  -2.4                  0.998243938584        -0.0593099315568      0.00060003890004      0.0139067076106       0.30570801417         -0.0124900003915      0.556058205908        -0.0178262817883      0.00114141064153      -1.64698811896e-09    -4.60911224629e-05   
  -2.2                  0.997436402183        -0.0709609250719      0.000264003848002     0.00637689191536      0.137215172545        -0.0043909862596      -0.313666197258       -0.00325808161212     0.000704180987579     -8.83428132623e-10    -1.7542926489e-05    
  -2                    0.996448011957        -0.0833580771715      0.000135725173056     0.00308395788414      -0.136697281963       0.00770587223196      -0.673022466638       -0.000936534303271    -0.000397626290993    -2.80643587282e-10    -5.59350031512e-06   
  -1.8                  0.995952907343        -0.0890290249851      9.15280238517e-05     0.00202232067472      -0.04416817245        0.00353152105273      -0.788633409057       -0.000290215709515    -0.000979697418004    -5.6965203725e-11     -3.39560684008e-05   
  -1.6                  0.995695654585        -0.0918261435104      7.67782491087e-05     0.00167014127442      0.0301222336835       -1.2779404e-05        -0.829348561721       -0.00011407233119     -0.00118293215388     -5.12787558523e-12    -4.95054651505e-05   
  -1.4                  0.995582208475        -0.0930120993157      7.32841590885e-05     0.0015783608993       0.0206765921268       0.000485005834744     -0.843007699731       -0.000103975979375    -0.000970882665948    1.6198472048e-17      -3.33477829804e-05   
  -1.2                  0.995567400833        -0.0931520249253      7.31136903698e-05     0.00156865620783      -0.00349642242986     0.00170249002423      -0.847230556666       -0.000130686322709    -0.000577261952005    4.43601578262e-12     -1.17890643701e-05   
  -1                    0.995568882337        -0.0931347425454      7.3413314343e-05      0.00157035322065      -0.0146053113435      0.002218153226        -0.848706882435       -0.000153613894941    -0.000262139164542    3.57466593416e-11     -2.43106903587e-06   
  -0.8                  0.995547491266        -0.0933707688159      7.34534077946e-05     0.00156339772288      -0.016056692561       0.00220383715266      -0.849521465752       -0.000168120060951    -2.08141679481e-05    1.293237509e-10       -1.53267999033e-08   
  -0.6                  0.995515474081        -0.0937232333729      7.29392304693e-05     0.00154433942447      -0.0138357683941      0.00198526363993      -0.850238770004       -0.000176907570625    0.00022001608343      3.28737570569e-10     -1.71254642394e-06   
  -0.4                  0.99550061701         -0.0938957029516      7.15898616785e-05     0.00151213137234      -0.00881694019929     0.00163706488867      -0.851171480612       -0.000180193262847    0.000425667149956     6.36619007298e-10     -6.41023226335e-06   
  -0.2                  0.995517261513        -0.0937368964268      6.92795529418e-05     0.0014664103752       -0.000371182845236    0.00115195254949      -0.852657959422       -0.00017695804243     0.000460647527453     8.79227968596e-10     -7.50707905737e-06   
  0                     0.995555631469        -0.0933443526142      6.6219111768e-05      0.00140966069022      0.00937630886186      0.000649288110665     -0.854962182682       -0.000168217202888    0.000212673613844     7.67350529546e-10     -1.60015019182e-06   
  0.2                   0.995586150889        -0.0930079309982      6.30159909068e-05     0.00134834918272      0.0154972736113       0.000371715329922     -0.858127160109       -0.000157347955959    -0.000282171024128    1.29328378293e-09     -2.81681439751e-06   
  0.4                   0.995431611598        -0.093066169374       6.4771209014e-05      0.00129126600744      0.0134555842694       0.000528489693403     -0.861930798603       -0.000147965605454    -0.000806881250606    6.34101485076e-08     -2.30330546504e-05   
  0.6                   0.982470592463        -0.0925953815137      0.000390358271007     0.00122381713086      0.00267848358564      0.00113100726963      -0.865973857809       -0.000141552504351    -0.00106376558146     6.16681294961e-06     -4.00256280401e-05   
END_DB

BEGIN_DB
 ICCAP_VAR freq       1e+08          
 ICCAP_VAR vd         0.2            

 #vg                    R:S_deemb(1,1)        I:S_deemb(1,1)        R:S_deemb(1,2)        I:S_deemb(1,2)        R:S_deemb(2,1)        I:S_deemb(2,1)        R:S_deemb(2,2)        I:S_deemb(2,2)        id                    ig                    T                    
  -9                    0.999016999038        -0.0425039881651      0.000316307831505     0.00891101764324      0.01687904618         0.0105155156457       0.994850991732        -0.0258314209079      0.000232046799025     -3.67911761419e-07    0.00113512418658     
  -8.8                  0.999012085017        -0.0426230578614      0.00031960871775      0.00898795461562      0.0192004623068       0.0105379732838       0.994622051364        -0.0259118220205      0.000222344472972     -3.34954098558e-07    0.00108773875659     
  -8.6                  0.999006936747        -0.0427475080676      0.000322859220668     0.00906258236143      0.0214706226094       0.0105568070648       0.994265626132        -0.0259894721157      0.000211418115287     -3.03984212145e-07    0.00103436727671     
  -8.4                  0.999001508173        -0.0428781500324      0.000326068596528     0.00913497526819      0.0236152093973       0.0105739402727       0.993795428489        -0.0260649242296      0.000199721932933     -2.749761416e-07      0.000977226110472    
  -8.2                  0.998995747022        -0.0430159325623      0.000329252425734     0.00920536403799      0.0255581879385       0.0105913653604       0.993230968752        -0.0261388974195      0.000187643474156     -2.47890001174e-07    0.000918207192523    
  -8                    0.998989596527        -0.0431619117794      0.000332432881713     0.00927414799729      0.0272286577374       0.0106109092061       0.992596104765        -0.0262122110345      0.00017543787199      -2.2267455153e-07     0.00085855652959     
  -7.8                  0.998982997332        -0.0433172139119      0.000335638564163     0.00934189497328      0.0285684831223       0.0106339696327       0.991916890432        -0.0262856972194      0.000163173618084     -1.99270002649e-07    0.000798608610585    
  -7.6                  0.998975889212        -0.043482999272       0.000338903889718     0.00940932777792      0.029539589297        0.0106612640038       0.991218957837        -0.0263601038045      0.000150700972436     -1.77610627708e-07    0.000737631154347    
  -7.4                  0.99896821226         -0.0436604357656      0.000342268086165     0.00947729749903      0.0301295968676       0.01069263979         0.990524804952        -0.0264360048585      0.000137648206076     -1.57626941639e-07    0.00067380576281     
  -7.2                  0.998959907206        -0.0438506879062      0.000345773871046     0.00954674476157      0.030354560493        0.0107269955009       0.989851430637        -0.0265137381199      0.000123443017634     -1.39247352987e-07    0.000604331562732    
  -7                    0.998950914824        -0.0440549219664      0.000349465898314     0.00961865074617      0.030258043049        0.0107623451456       0.98920872108         -0.0265933858435      0.000107350770013     -1.22399309653e-07    0.000525610957373    
  -6.8                  0.99894117469         -0.0442743199481      0.000353389026219     0.0096939800633       0.0299065303729       0.0107960315258       0.988598837924        -0.0266748081823      8.852044655e-05       -1.07010024084e-07    0.000433472875906    
  -6.6                  0.998930624091        -0.044510085944       0.000357586412379     0.00977361785057      0.0293820329876       0.0108250604265       0.988016625514        -0.0267577280277      6.60324979607e-05     -9.30068893564e-08    0.000323404909815    
  -6.4                  0.998919198237        -0.0447634209788      0.000362097414391     0.00985830420626      0.0287732133656       0.0108465033986       0.987450831301        -0.0268418574483      3.89464751887e-05     -8.03176964458e-08    0.000190784023134    
  -6.2                  0.998906833082        -0.0450354409725      0.000366955323841     0.00994857102175      0.028165965102        0.0108579217527       0.986885848698        -0.0269270547209      6.34849140555e-06     -6.88707466326e-08    3.11061749484e-05    
  -6                    0.998893471516        -0.0453270233333      0.000372185166679     0.0100446902978       0.0276324541522       0.0108578220482       0.986303898626        -0.0270135148825      -3.25979961661e-05    -5.8594930306e-08     -0.000159767738134   
  -5.8                  0.998879072167        -0.0456385981977      0.000377802257962     0.0101466500349       0.0272138635739       0.0108462795072       0.985688215041        -0.0271020323778      -7.85830010987e-05    -4.94198205874e-08    -0.000385275085232   
  -5.6                  0.998863617218        -0.0459699539767      0.000383812975899     0.0102541843891       0.0268872617287       0.0108260352453       0.985028976551        -0.0271944312246      -0.00013202172307     -4.12758111149e-08    -0.000647522920662   
  -5.4                  0.998847112454        -0.0463201894763      0.000390220249466     0.0103668983862       0.0265049293188       0.0108044498023       0.984335305755        -0.0272943142038      -0.000192788890408    -3.40943145983e-08    -0.000945980253981   
  -5.2                  0.998829572159        -0.046687962568       0.000397037110578     0.0104845405946       0.0257035107478       0.0107963666978       0.98365809053         -0.027408278248       -0.00025970653236     -2.78080341494e-08    -0.00127494786372    
  -5                    0.998810989856        -0.0470720474911      0.000404311293328     0.0106074805058       0.0238110214351       0.0108268012305       0.983128354953        -0.0275475821145      -0.000329694889267    -2.2351323805e-08     -0.00161935011563    
