! VERSION = 6.00
BEGIN_HEADER
 ICCAP_INPUTS
  vg         V  P1 GROUND SMU_B 0.1 LIN        2    -4         -3         3    0.5       
  freq       F  CON        100000000
  vd         V  P2 GROUND SMU_C 0.1 LIN        1    0          60         121  0.5       
 ICCAP_OUTPUTS
  S_deemb    S  P1 P2 GROUND n/a B
  id         I  P2 GROUND SMU_C B
  ig         I  P1 GROUND SMU_B B
  T          V  T GROUND n/a B
END_HEADER

BEGIN_DB
 ICCAP_VAR vg         -4             
 ICCAP_VAR freq       1e+08          

 #vd                    R:S_deemb(1,1)        I:S_deemb(1,1)        R:S_deemb(1,2)        I:S_deemb(1,2)        R:S_deemb(2,1)        I:S_deemb(2,1)        R:S_deemb(2,2)        I:S_deemb(2,2)        id                    ig                    T                    
  0                     0.998699837411        -0.0492310491572      0.000461462077951     0.0115599297614       -0.018723384876       0.0121998910747       0.994283892805        -0.029474256832       -0.000447458286838    -4.44448594322e-09    -7.08335050324e-06   
  0.5                   0.998731328629        -0.0487244460262      0.000442302631043     0.0112241701347       -0.0163825003885      0.0113581607647       0.997454667907        -0.02897756774        -0.000308720847546    -7.07186499218e-09    -0.00378520128627    
  1                     0.998756986822        -0.0483102447473      0.000421307845006     0.0108082657193       -0.0165389465425      0.0107759479575       0.999104342632        -0.0285436800785      -0.000204436630454    -1.0524247857e-08     -0.00501017482217    
  1.5                   0.998777114817        -0.047987654602       0.000399616735775     0.010345167574        -0.0183975894358      0.010389327608        0.999995615094        -0.0281543248409      -0.000126633716041    -1.49081342624e-08    -0.00465435525186    
  2                     0.998792114138        -0.0477522965694      0.000378658020685     0.00987527706017      -0.0209050762079      0.0101305885247       1.00030199274         -0.0277962723378      -7.23739637412e-05    -2.03301242964e-08    -0.0035465086659     
  2.5                   0.998802652918        -0.0475931267038      0.000359807185737     0.00943900364432      -0.0232211211375      0.00994200047521      1.00017305565         -0.0274627171723      -3.97413429038e-05    -2.68952973645e-08    -0.00243421253287    
  3                     0.9988098129          -0.0474901036404      0.000343985035014     0.00906655904612      -0.0247086520584      0.00977547134058      0.99969293633         -0.027145976543       -2.66600907645e-05    -3.47053161496e-08    -0.00195954133749    
  3.5                   0.998814977397        -0.0474168534668      0.000331476932925     0.00877211385341      -0.0250098292553      0.00959693878099      0.998846032918        -0.0268357456683      -2.96545082216e-05    -4.38563239817e-08    -0.0025429045696     
  4                     0.998819564562        -0.0473463451767      0.000321984754761     0.0085537776338       -0.0240809873561      0.00938905365995      0.997596638294        -0.0265221412864      -4.30954380148e-05    -5.44367425601e-08    -0.00422341759814    
  4.5                   0.998824749057        -0.04725661725        0.000314816115029     0.00839764329452      -0.0221173412295      0.00914878516123      0.995980491454        -0.0261990608025      -5.96553294251e-05    -6.6525066421e-08     -0.00657712436426    
  5                     0.998831276371        -0.0471344173688      0.000309108328801     0.00828334844276      -0.0194323024838      0.00888222096701      0.994117165629        -0.0258650435651      -7.17543863262e-05    -8.0187707024e-08     -0.00879009232877    
  5.5                   0.99883941547         -0.0469759466017      0.000304022667807     0.00818930106422      -0.0163640556443      0.00859975959867      0.992166756117        -0.0255222632487      -7.33477886264e-05    -9.54769056469e-08    -0.00988380243438    
  6                     0.998849036279        -0.0467851317658      0.000298877879065     0.00809658683714      -0.0132245283806      0.00831287055592      0.990289307334        -0.0251751927826      -6.15957565263e-05    -1.12428713483e-07    -0.00905470822477    
  6.5                   0.998859758149        -0.0465705813893      0.000293213735516     0.00799120331352      -0.0102745040571      0.00803213841522      0.988624104332        -0.0248294442034      -3.79782701927e-05    -1.31061050789e-07    -0.00604808907981    
  7                     0.998871107232        -0.0463424517369      0.000286793634481     0.00786473725936      -0.00770956914879     0.00776608285916      0.987279236625        -0.0244907019356      -8.18966453575e-06    -1.51371971608e-07    -0.00140452949808    
  7.5                   0.998882638617        -0.0461100589914      0.000279567250739     0.00771390060518      -0.0056520256682      0.007520506554        0.986324362675        -0.0241637880746      1.97215424464e-05     -1.73338479258e-07    0.00362381878089     
  8                     0.998894005778        -0.0458805525137      0.000271616224316     0.00753942896014      -0.00415041979578     0.0072983081717       0.985786991956        -0.0238520463341      3.86063746885e-05     -1.96916376557e-07    0.00756679486495     
  8.5                   0.998904981755        -0.0456585507777      0.000263100200385     0.00734477362067      -0.003188378245       0.00709971199534      0.985654298378        -0.0235571657928      4.52505117468e-05     -2.22041397063e-07    0.00942334433428     
  9                     0.998915447448        -0.045446428629       0.000254212472468     0.00713487598035      -0.00270121797923     0.00692282535478      0.985880556145        -0.023279389955       4.12173038822e-05     -2.48631228472e-07    0.00908835318919     
  9.5                   0.998925363938        -0.0452449138957      0.000245148015996     0.00691517649188      -0.00259613175334     0.00676440587369      0.986398218739        -0.0230179227861      3.09408095511e-05     -2.76587571462e-07    0.0072014378004      
  10                    0.998934741865        -0.0450537304167      0.000236083166283     0.00669091010471      -0.00277127974698     0.00662068080892      0.987129860139        -0.0227713391558      1.86866699057e-05     -3.0579771845e-07     0.00457822065841     
  10.5                  0.99894361558         -0.0448721360941      0.000227164850627     0.00646667527018      -0.00313045210569     0.00648803082297      0.987998590589        -0.022537906273       6.6887146139e-06      -3.36136018123e-07    0.0017206698328      
  11                    0.998952025172        -0.0446992987573      0.000218506912427     0.00624622624111      -0.00359200359237     0.00636340313548      0.98893556354         -0.0223158166455      -4.67867071291e-06    -3.67465982288e-07    -0.00126090222471    
  11.5                  0.998960006226        -0.0445345128418      0.000210191099605     0.00603242493837      -0.00409252583412     0.00624444711568      0.989884244486        -0.0221033557967      -1.56261930013e-05    -3.99643282876e-07    -0.00440268744553    
  12                    0.998967585552        -0.0443772897675      0.000202270666386     0.00582729366137      -0.00458669687851     0.00612946762997      0.990801869703        -0.0218990105752      -2.591651987e-05      -4.325191719e-07      -0.00761947875077    
  12.5                  0.998974780742        -0.0442273635916      0.000194775125548     0.00563212332608      -0.00504492430292     0.0060173056607       0.991658882719        -0.02170151745        -3.46455717363e-05    -4.65943665698e-07    -0.010610246229      
  13                    0.998981601774        -0.0440846496073      0.000187715239782     0.00544760535036      -0.00545008942657     0.00590721320708      0.992437174134        -0.0215098609572      -4.06146750876e-05    -4.99768141189e-07    -0.0129358292286     
  13.5                  0.998988053406        -0.043949184024       0.000181087725163     0.00527396587225      -0.00579424564462     0.0057987460089       0.99312780553         -0.0213232420704      -4.2828899769e-05     -5.33847363597e-07    -0.0141657200501     
  14                    0.998994137618        -0.0438210626823      0.000174879379072     0.00511108904388      -0.00607572485854     0.00569167610579      0.993728691186        -0.0211410358267      -4.08178619596e-05    -5.6804113525e-07     -0.0140005821933     
  14.5                  0.998999855709        -0.0437003884758      0.000169070501966     0.00495862237299      -0.00629682716038     0.00558592127656      0.994242516064        -0.020962750825       -3.47087036541e-05    -6.02215734451e-07    -0.0123303065972     
  15                    0.999005209871        -0.0435872314634      0.000163637592495     0.00481606168928      -0.00646210283387     0.00548148921728      0.994675017477        -0.0207879961658      -2.51184139941e-05    -6.36245219717e-07    -0.00923103722182    
  15.5                  0.999010204233        -0.0434816022037      0.000158555369041     0.00468281636006      -0.00657715235239     0.00537843522585      0.995033657072        -0.0206164567918      -1.2965620654e-05     -6.70012595346e-07    -0.00492369919489    
  16                    0.999014845409        -0.0433834369977      0.000153798211956     0.00455825708341      -0.00664783967762     0.00527683208307      0.995326651929        -0.0204478760414      7.20509581482e-07     -7.03410797435e-07    0.000282439668991    
  16.5                  0.999019142663        -0.0432925929101      0.000149341136092     0.00444174929073      -0.00667981376523     0.00517675032474      0.995562306958        -0.0202820436275      1.49522775526e-05     -7.36343457496e-07    0.00604444882361     
  17                    0.999023107759        -0.043208850233       0.000145160400859     0.00433267525193      -0.0066782472341      0.00507824674981      0.995748584089        -0.0201187873688      2.88829467074e-05     -7.6872541747e-07     0.01202971487        
  17.5                  0.999026754617        -0.0431319201834      0.000141233852786     0.00423044768549      -0.00664772002231     0.00498135898734      0.995892848066        -0.0199579673514      4.18571808267e-05     -8.00482991444e-07    0.0179461999401      
  18                    0.999030098827        -0.0430614559175      0.000137541079142     0.00413451723121      -0.00659219435276     0.00488610418594      0.996001737925        -0.0197994715619      5.34232616743e-05     -8.31553988553e-07    0.0235595517097      
  18.5                  0.999033157106        -0.0429970652908      0.000134063434316     0.0040443756677       -0.00651504308743     0.00479248026367      0.99608112386         -0.0196432123438      6.33194439911e-05     -8.6188752507e-07     0.0286993891808      
  19                    0.999035946739        -0.0429383241478      0.00013078398525      0.00395955631423      -0.00641910591736     0.00470046855222      0.996136119078        -0.0194891232657      7.14454019129e-05     -8.9144366123e-07     0.0332576459343      
  19.5                  0.999038485035        -0.0428847892419      0.000127687409284     0.00387963267808      -0.00630675695308     0.00461003702384      0.996171124649        -0.019337156165       7.78272459934e-05     -9.20192900311e-07    0.0371817434631      
  20                    0.999040788835        -0.0428360101625      0.000124759867308     0.00380421610092      -0.00617997373912     0.00452114357532      0.996189892027        -0.0191872782555      8.25820275631e-05     -9.48115585046e-07    0.0404649424162      
  20.5                  0.999042874087        -0.0427915398761      0.000121988867127     0.00373295291896      -0.00604040206603     0.00443373905774      0.996195592984        -0.0190394692683      8.58854333377e-05     -9.75201220466e-07    0.043135687468       
  21                    0.999044755491        -0.0427509436661      0.000119363125966     0.00366552147254      -0.00588941380508     0.00434776989244      0.996190890355        -0.0188937186492      8.79446440059e-05     -1.00144774388e-06    0.0452472347394      
  21.5                  0.99904644624         -0.0427138063991      0.000116872436808     0.00360162917145      -0.00572815677002     0.00426318021654      0.996178005636        -0.0187500228617      8.89770791344e-05     -1.02686075259e-06    0.0468683849771      
  22                    0.999047957861        -0.0426797381435      0.000114507540368     0.00354100973168      -0.00555759664405     0.00417991356528      0.996158781225        -0.018608382857       8.91949109594e-05     -1.05145268925e-06    0.0480757638842      
  22.5                  0.999049300148        -0.0426483782423      0.000112260002752     0.00348342063889      -0.00537855159507     0.00409791413772      0.996134736319        -0.0184688017686      8.87947207904e-05     -1.07524197419e-06    0.0489477990211      
  23                    0.99905048122         -0.0426193979844      0.000110122098        0.0034286408551       -0.00519172045913     0.00401712771151      0.996107116192        -0.0183312828817      8.79514134895e-05     -1.09825206487e-06    0.0495603358112      
  23.5                  0.999051507688        -0.0425925020482      0.000108086694634     0.00337646876249      -0.00499770544402     0.0039375022794       0.996076935069        -0.0181958279119      8.6815429412e-05      -1.12051041655e-06    0.0499837047146      
  24                    0.999052384944        -0.0425674289009      0.000106147145997     0.00332672032543      -0.00479703029587     0.00385898847859      0.996045013055        -0.0180624356125      8.55123382991e-05     -1.14204731626e-06    0.0502809840226      
  24.5                  0.999053117559        -0.0425439503363      0.000104297185329     0.00327922744707      -0.00459015475508     0.00378153987604      0.996012007702        -0.0179311007143      8.41440185979e-05     -1.16289456719e-06    0.0505071844237      
  25                    0.999053709778        -0.0425218703265      0.000102530828197     0.00323383649562      -0.0043774860431      0.0037051131621       0.995978440839        -0.0178018131866      8.2790779067e-05      -1.18308401302e-06    0.0507090973815      
  25.5                  0.999054166084        -0.0425010233462      0.00010084228657      0.00319040697705      -0.00415938798599     0.00362966829234      0.995944721268        -0.0176745577983      8.15139396085e-05     -1.20264591335e-06    0.0509255863424      
  26                    0.999054491776        -0.0424812723144      9.9225900313e-05      0.0031488103338       -0.00393618827612     0.00355516860493      0.995911163921        -0.0175493139474      8.03585345969e-05     -1.22160721087e-06    0.0511881456627      
  26.5                  0.999054693505        -0.0424625062746      9.76760924662e-05     0.00310892885218      -0.003708184274       0.00348158093         0.995878005964        -0.0174260557222      7.93559249868e-05     -1.23998976536e-06    0.0515215990059      
  27                    0.999054779704        -0.0424446379198      9.61873539596e-05     0.00307065466454      -0.0034756476699      0.00340887569847      0.99584542034         -0.0173047521556      7.85261991039e-05     -1.2578086637e-06     0.0519448499467      
  27.5                  0.999054760823        -0.0424276010485      9.47542611209e-05     0.00303388883492      -0.00323882824808     0.00333702705121      0.995813527124        -0.0171853676307      7.78803087504e-05     -1.27507074123e-06    0.0524716307055      
  28                    0.99905464934         -0.0424113480194      9.33715254384e-05     0.00299854051962      -0.00299795694696     0.00326601294542      0.995782403045        -0.0170678623989      7.74219294145e-05     -1.29177345959e-06    0.053111218626       
  28.5                  0.999054459492        -0.0423958472619      9.20340702229e-05     0.0029645261962       -0.00275324836338     0.00319581525317      0.995752089469        -0.0169521931764      7.7149058079e-05      -1.30790427388e-06    0.0538691061588      
  29                    0.999054206765        -0.042381080885       9.07371240531e-05     0.0029317689559       -0.00250490281273     0.00312641984651      0.995722599086        -0.016838313784       7.70553726695e-05     -1.3234405845e-06     0.054747618934       
  29.5                  0.999053907165        -0.0423670424157      8.94763174522e-05     0.00290019785573      -0.00225310803084     0.00305781666432      0.995693921508        -0.0167261758041      7.71313810427e-05     -1.33835031016e-06    0.0557464816431      
  30                    0.999053576379        -0.0423537346923      8.82477681683e-05     0.0028697473271       -0.00199804058389     0.00298999975701      0.99566602796         -0.0166157292327      7.73653856066e-05     -1.35259304828e-06    0.0568633328644      
  30.5                  0.999053228918        -0.0423411679269      8.70481422003e-05     0.00284035663857      -0.00173986703862     0.00292296730696      0.995638875207        -0.0165069231056      7.77442869311e-05     -1.36612171959e-06    0.0580941904739      
  31                    0.999052877356        -0.0423293579469      8.58746819957e-05     0.00281196940974      -0.00147874493111     0.00285672162341      0.995612408836        -0.0163997060869      7.82542462469e-05     -1.37888454038e-06    0.0594338689486      
  31.5                  0.999052531744        -0.0423183246173      8.47251990323e-05     0.00278453317397      -0.00121482356295     0.00279126911184      0.995586566001        -0.0162940270096      7.88812237216e-05     -1.39082713769e-06    0.0608763494945      
  32                    0.999052199263        -0.0423080904414      8.35980338945e-05     0.00275799898673      -0.000948244651751    0.00272662021872      0.995561277708        -0.0161898353607      7.96114072545e-05     -1.40189462446e-06    0.0624151039059      
  32.5                  0.999051884126        -0.0422986793306      8.24919916803e-05     0.00273232107659      -0.000679142853627    0.002662789353        0.995536470727        -0.0160870817082      8.0431545163e-05      -1.41203348089e-06    0.0640433734143      
  33                    0.999051587721        -0.0422901155342      8.14062632992e-05     0.0027074565355       -0.000407646169885    0.00259979478593      0.995512069166        -0.0159857180695      8.13291945507e-05     -1.4211931357e-06     0.0657544038187      
  33.5                  0.999051308946        -0.0422824227129      8.03403437356e-05     0.00268336504504      -0.000133876256219    0.00253765853129      0.995487995781        -0.0158856982204      8.22928971673e-05     -1.42932719709e-06    0.0675416393605      
  34                    0.999051044684        -0.0422756231429      7.92939570038e-05     0.00266000863534      0.000142051359864     0.00247640620798      0.995464173047        -0.0157869779486      8.33122931307e-05     -1.43639433663e-06    0.0693988777634      
  34.5                  0.999050790357        -0.0422697370349      7.82669949615e-05     0.00263735147338      0.000420027142282     0.00241606688688      0.995440524031        -0.0156895152556      8.43781830532e-05     -1.44235887255e-06    0.0713203900194      
  35                    0.99905054051         -0.0422647819528      7.72594741089e-05     0.00261535967774      0.000699947478904     0.00235667292399      0.9954169731          -0.0155932705086      8.54825476828e-05     -1.44719112835e-06    0.0733010083123      
  35.5                  0.999050289382        -0.0422607723194      7.62715115818e-05     0.00259400115688      0.000981714682877     0.0022982597815       0.995393446478        -0.0154982065504      8.66185340674e-05     -1.45086765599e-06    0.0753361862667      
