! VERSION = 6.00
BEGIN_HEADER
 ICCAP_INPUTS
  vg         V  P1 GROUND SMU_B 0.1 LIN        2    -2.8       0.8        10   0.4       
  freq       F  CON        100000000
  vd         V  P2 GROUND SMU_C 0.1 LIN        1    0          60         61   1         
 ICCAP_OUTPUTS
  S_deemb    S  P1 P2 GROUND n/a B
  id         I  P2 GROUND SMU_C B
  ig         I  P1 GROUND SMU_B B
  T          V  T GROUND n/a B
END_HEADER

BEGIN_DB
 ICCAP_VAR vg         -2.8           
 ICCAP_VAR freq       1e+08          

 #vd                    R:S_deemb(1,1)        I:S_deemb(1,1)        R:S_deemb(1,2)        I:S_deemb(1,2)        R:S_deemb(2,1)        I:S_deemb(2,1)        R:S_deemb(2,2)        I:S_deemb(2,2)        id                    ig                    T                    
  0                     0.998128165206        -0.0591306748711      0.0007141262606       0.0153451700972       -0.37850925761        0.0238420104208       1.01476364403         -0.0357808933726      0.000209113367837     -1.12532402261e-09    -1.54702376074e-06   
  1                     0.998562636116        -0.0523765666133      0.000505421604374     0.0122797271048       -0.176749527767       0.0116198900745       0.923402580024        -0.0287623394419      -0.000348157374049    -3.18138356647e-09    -0.00853414187068    
  2                     0.998713428637        -0.0495553757293      0.000424433939171     0.010839885983        -0.248536819065       0.0132822821586       0.946050972538        -0.0282541457562      0.00023679633764      -6.40314558946e-09    0.0116010339692      
  3                     0.998852196128        -0.0468442436019      0.000377100824047     0.0100384998359       -0.225505330143       0.0118075380835       0.989252791035        -0.0281977568325      0.000164260371498     -1.09342828542e-08    0.0120721797982      
  4                     0.99896722143         -0.0444602747556      0.000340708099608     0.00943958056983      -0.160887755433       0.00935635140751      1.00278383473         -0.0274584898331      -0.000327064915318    -1.68908062341e-08    -0.0320561382923     
  5                     0.999022435226        -0.0431662924247      0.000314477365143     0.00895627296498      -0.16113389743        0.00968370175694      0.996101670831        -0.0266585076631      -0.000626137912779    -2.43689973075e-08    -0.0767157454449     
  6                     0.999026081309        -0.0429400226204      0.000296077153715     0.00853475552241      -0.208518823551       0.0118689205563       0.989761059258        -0.0261067755236      -0.000494023701155    -3.34416602793e-08    -0.0726301006339     
  7                     0.999000164599        -0.0433945683688      0.000280285686137     0.00809302378932      -0.250305763717       0.0139425262907       0.987081678861        -0.0255911889918      -7.39470715528e-05    -4.41263812516e-08    -0.0126821131209     
  8                     0.998957562638        -0.044246038024       0.000264157861611     0.00759642744737      -0.273700080284       0.0153785018426       0.984215920157        -0.0249683368203      0.00032632244127      -5.63498133057e-08    0.0639554155646      
  9                     0.998903430416        -0.0453413689745      0.000247599673942     0.00706710161323      -0.29397454374        0.0166553548283       0.97949230956         -0.0242886444096      0.000488597627028     -6.99463092019e-08    0.107727304693       
  10                    0.998841690878        -0.0465623344142      0.000231575895256     0.00654687816323      -0.325874724948       0.0182826931311       0.973974516991        -0.0236527343256      0.00041782401917      -8.47023840515e-08    0.102360683473       
  11                    0.998777194606        -0.0477947846322      0.000216849149689     0.00606779104794      -0.37272060031        0.0203941304191       0.969212184408        -0.0231125389444      0.00023278887229      -1.00388565793e-07    0.0627346685807      
  12                    0.99871469143         -0.0489455649191      0.000203697204026     0.0056442640696       -0.429821128878       0.0228355208258       0.965973831898        -0.0226670163439      4.64156718722e-05     -1.16765886029e-07    0.0136461279745      
  13                    0.998657682873        -0.049956015042       0.000192071287019     0.00527761308999      -0.490526372009       0.0253686122719       0.964260675374        -0.0222921140282      -8.0088696879e-05     -1.33583570012e-07    -0.0255084706406     
  14                    0.998608141205        -0.050800019431       0.00018178738837      0.00496256331586      -0.54958951485        0.027795501093        0.963722989222        -0.0219624997992      -0.000137434697018    -1.50578033421e-07    -0.0471407577826     
  15                    0.998566791923        -0.0514745009184      0.000172638217904     0.00469172034993      -0.603940132225       0.029994348525        0.963966672409        -0.0216594261881      -0.000144558743062    -1.67482081926e-07    -0.0531260643904     
  16                    0.998533529846        -0.0519899159434      0.000164439734013     0.00445780673654      -0.652276516523       0.0319100469406       0.964679387711        -0.0213711878625      -0.000125548070854    -1.84041398764e-07    -0.0492153893837     
  17                    0.998507766434        -0.0523634466631      0.000157043039873     0.00425450061096      -0.694415464555       0.0335326982577       0.965650423564        -0.021091291918       -9.8116470635e-05     -2.00030093603e-07    -0.040865840609      
  18                    0.99848867067         -0.0526147885254      0.000150331649853     0.00407658734836      -0.730762945345       0.0348782692577       0.966750951358        -0.0208165545022      -7.14736228711e-05    -2.15260517531e-07    -0.0315200407097     
  19                    0.998475323679        -0.0527637259411      0.00014421418153      0.00391983645915      -0.761970403657       0.0359750374248       0.967907844969        -0.0205457141629      -4.84316740283e-05    -2.29586735078e-07    -0.0225450217334     
  20                    0.998466813683        -0.0528288098147      0.000138616995004     0.00378080679484      -0.788740251668       0.0368552650135       0.969082423914        -0.0202785487073      -2.83247351139e-05    -2.42903058209e-07    -0.013879145197      
  21                    0.998462291079        -0.0528266992265      0.000133478499479     0.00365666672936      -0.811728950931       0.0375505712843       0.970255910678        -0.0200153448739      -9.30977571442e-06    -2.55139466296e-07    -0.00478988150062    
  22                    0.998460996811        -0.0527719080886      0.000128745432611     0.00354505655726      -0.831507097949       0.0380896404092       0.971420330597        -0.019756586598       1.02596989258e-05     -2.66255492535e-07    0.00552997264544     
  23                    0.998462272984        -0.0526767996779      0.000124370766617     0.00344399276754      -0.848550059716       0.0384973097228       0.972573129287        -0.0195027731446      3.12428898601e-05     -2.76233735895e-07    0.0176053295999      
  24                    0.998465562119        -0.052551727601       0.000120312695169     0.00335180372539      -0.863243541807       0.03879443485         0.973714121542        -0.0192543154788      5.36399300835e-05     -2.85073742626e-07    0.0315401693886      
  25                    0.998470399712        -0.0524052540726      0.000116534199993     0.00326708510263      -0.875895455411       0.0389981687161       0.974843833276        -0.0190114823643      7.67916174489e-05     -2.9278666314e-07     0.0470346455678      
  26                    0.9984764035          -0.0522443977273      0.000113002839279     0.00318866596725      -0.886749557602       0.039122439531        0.975962653565        -0.0187743800456      9.96670551576e-05     -2.99390854845e-07    0.0634875471875      
  27                    0.998483261759        -0.0520748790473      0.000109690551175     0.00311557984861      -0.895998627015       0.0391785003445       0.977070451015        -0.0185429552225      0.000121127843083     -3.04908463195e-07    0.0801255295469      
  28                    0.998490722125        -0.0519013439998      0.000106573383153     0.00304703795618      -0.903796176941       0.0391754751366       0.978166452772        -0.0183170136207      0.000140118998121     -3.09362943871e-07    0.0961209146235      
  29                    0.998498581754        -0.0517275562442      0.000103631133424     0.00298240363122      -0.910266373195       0.0391208593742       0.979249267562        -0.0180962478001      0.00015577912852      -3.12777460372e-07    0.11068018523        
  30                    0.998506679098        -0.0515565554469      0.000100846932726     0.00292116812375      -0.915512176221       0.0390209547608       0.980316981497        -0.0178802689469      0.000167484827647     -3.15174100505e-07    0.123100325828       
  31                    0.998514887165        -0.0513907839657      9.82068167132e-05     0.00286292816601      -0.919621900085       0.0388812323239       0.981367283241        -0.0176686385891      0.000174851222397     -3.16573934356e-07    0.132798389329       
  32                    0.998523107756        -0.0512321867717      9.56993472078e-05     0.00280736581494      -0.922674446995       0.0387066269236       0.982397592531        -0.0174608974415      0.000177708467799     -3.16998118583e-07    0.139322287437       
  33                    0.998531265895        -0.0510822904353      9.33153289763e-05     0.00275423086366      -0.92474347842        0.0385017710523       0.983405177429        -0.0172565897743      0.000176068299205     -3.16470485468e-07    0.142350088376       
  34                    0.998539303647        -0.0509422668619      9.1047625546e-05      0.00270332590624      -0.925900752564       0.0382711776367       0.98438725319         -0.0170552826731      0.000170089047728     -3.15022121619e-07    0.141683118611       
  35                    0.998547172896        -0.0508129866873      8.88910068488e-05     0.00265449395392      -0.926218813657       0.0380193815274       0.985341060414        -0.0168565802652      0.000160043284636     -3.12698020276e-07    0.137236176843       
  36                    0.998554827474        -0.0506950662049      8.6841902713e-05      0.00260760837398      -0.925773173761       0.0377510483118       0.986263923021        -0.0166601334261      0.000146289668897     -3.0956485613e-07     0.129026699295       
  37                    0.998562215885        -0.0505889106115      8.48979480357e-05     0.00256256485413      -0.924644088788       0.037471057592        0.987153288068        -0.0164656457048      0.000129249247545     -3.05717679303e-07    0.117163823237       
  38                    0.998569276289        -0.0504947553602      8.30573100613e-05     0.00251927507507      -0.922917999678       0.0371845663127       0.988006750056        -0.0162728762677      0.000109385920893     -3.01282711469e-07    0.101837844131       
  39                    0.998575934982        -0.050412706543       8.13179317449e-05     0.00247766178534      -0.920688686752       0.0368970562904       0.988822062482        -0.0160816406242      8.71906570377e-05     -2.96414156233e-07    0.0833103834669      
  40                    0.998582108626        -0.0503427805426      7.96769098658e-05     0.00243765500565      -0.918058169495       0.0366143689234       0.989597139298        -0.0158918098081      6.31690767428e-05     -2.91284893531e-07    0.061905538892       
  41                    0.998587709247        -0.0502849426983      7.8130189351e-05      0.00239918913315      -0.915137374018       0.0363427291735       0.990330048798        -0.0157033085823      3.78320943035e-05     -2.86073131074e-07    0.0380022787942      
  42                    0.998592650359        -0.0502391444404      7.66726133072e-05     0.00236220076292      -0.912046584749       0.036088760312        0.991019002376        -0.015516113128       1.16893311684e-05     -2.80948323457e-07    0.012028313995       
  43                    0.998596852575        -0.0502053582328      7.52981929609e-05     0.00232662708623      -0.908915694309       0.0358594905694       0.991662340563        -0.015330248587       -1.47549986664e-05    -2.76059227339e-07    -0.0155443949934     
  44                    0.998600247908        -0.0501836096927      7.40003335843e-05     0.00229240476001      -0.905884264761       0.0356623526644       0.992258518771        -0.0151457867439      -4.10040838839e-05    -2.71524914831e-07    -0.0442024510921     
  45                    0.998602783069        -0.0501740063686      7.27717817698e-05     0.00225946916423      -0.903101413907       0.0355051771644       0.99280609508         -0.0149628440707      -6.65688044386e-05    -2.67426896756e-07    -0.0733922457068     
  46                    0.99860442255         -0.0501767627752      7.16044190959e-05     0.00222775396892      -0.900725541088       0.0353961806727       0.993303722216        -0.0147815802949      -9.09667728707e-05    -2.63799655243e-07    -0.102519820686      
  47                    0.99860515079         -0.0501922213284      7.04896360098e-05     0.00219719092368      -0.898923907506       0.0353439499008       0.993750145459        -0.0146021976069      -0.00011372060195     -2.60621251385e-07    -0.130949698617      
  48                    0.998604970033        -0.0502208688019      6.94199499972e-05     0.00216770979113      -0.897872086719       0.0353574227587       0.994144208106        -0.0144249405934      -0.00013435585159     -2.57813824097e-07    -0.158003081424      
  49                    0.998603890973        -0.0502633480796      6.83909505817e-05     0.00213923840625      -0.897753302872       0.0354458677788       0.994484866544        -0.0142500970102      -0.000152399054405    -2.55263533461e-07    -0.182955841704      
  50                    0.998601920012        -0.0503204654227      6.74013771933e-05     0.00211170289783      -0.898757678313       0.0356188635299       0.994771217229        -0.0140779995252      -0.000167376143735    -2.52852156434e-07    -0.205036716996      
  51                    0.998599052507        -0.0503931938263      6.64508347117e-05     0.00208502806504      -0.901081414939       0.0358862799403       0.995002536678        -0.0139090285379      -0.000178811521364    -2.50476582637e-07    -0.223426072416      
  52                    0.998595277324        -0.0504826728865      6.55372076182e-05     0.00205913782151      -0.904925931082       0.0362582634029       0.995178334006        -0.0137436161303      -0.000186227915914    -2.48041751591e-07    -0.237255533737      
  53                    0.998590589823        -0.050590205236       6.46554549074e-05     0.00203395562975      -0.91049697           0.0367452273125       0.99529841528         -0.0135822512217      -0.000189147105765    -2.45434064156e-07    -0.245608722419      
  54                    0.998585008231        -0.0507172495419      6.3797561517e-05      0.00200940491432      -0.91800369057        0.0373578495412       0.9953629594          -0.0134254860464      -0.000187091517999    -2.42489248141e-07    -0.247523256065      
  55                    0.998578590931        -0.0508654102144      6.29529362388e-05     0.0019854094656       -0.927657744741       0.0381070782245       0.995372605072        -0.0132739440827      -0.000179586670574    -2.38962341322e-07    -0.241994120346      
  56                    0.998571452873        -0.0510364240183      6.21094414532e-05     0.00196189382201      -0.939672337849       0.0390041469355       0.995328547729        -0.0131283295313      -0.000166164398236    -2.34504184127e-07    -0.227978475376      
  57                    0.998563774598        -0.0512321435251      6.12564239028e-05     0.00193878357921      -0.95426125544        0.0400605997323       0.995232644374        -0.0129894383654      -0.000146366792244    -2.28656671325e-07    -0.204401933238      
  58                    0.998555786362        -0.0514545167568      6.03919383489e-05     0.0019160055391       -0.971637824057       0.041288325591        0.995087523619        -0.0128581708494      -0.000119750787146    -2.20897545275e-07    -0.170166334202      
  59                    0.99854769584         -0.0517055615949      5.95353341122e-05     0.00189348763134      -0.99201375475        0.0426996003483       0.994896698177        -0.0127355452438      -8.58933400109e-05    -2.10785173359e-07    -0.124159053593      
  60                    0.998539528188        -0.0519873334998      5.87400940979e-05     0.00187115874222      -1.01559780454        0.0443071328674       0.994664679695        -0.012622712236       -4.43971654397e-05    -1.98240105019e-07    -0.0652638869498     
END_DB

BEGIN_DB
 ICCAP_VAR vg         -2.4           
 ICCAP_VAR freq       1e+08          

 #vd                    R:S_deemb(1,1)        I:S_deemb(1,1)        R:S_deemb(1,2)        I:S_deemb(1,2)        R:S_deemb(2,1)        I:S_deemb(2,1)        R:S_deemb(2,2)        I:S_deemb(2,2)        id                    ig                    T                    
  0                     0.998243938584        -0.0593099315568      0.00060003890004      0.0139067076106       0.30570801417         -0.0124900003915      0.556058205908        -0.0178262817883      0.00114141064153      -1.64698811896e-09    -4.60911224629e-05   
  1                     0.997654037986        -0.0659377964223      0.000631703538312     0.0132733511768       -1.14191819869        0.0571873532678       0.873090183181        -0.0337792968661      0.000217474334726     -2.93893317098e-09    0.00532644668973     
  2                     0.997267401045        -0.0702653748515      0.000539373077149     0.0110428750739       -2.35806395934        0.12070774073         0.849262385695        -0.0372593723818      0.00201976280009      -4.49944550025e-09    0.0988240304106      
  3                     0.99660162015         -0.0777963076421      0.000499668461015     0.00963192432319      -4.12615092283        0.222212211232        0.820328453495        -0.0424187489434      0.00350670088582      -6.3845909737e-09     0.257307410251       
  4                     0.995904728301        -0.0853338147701      0.000458873108004     0.00837675384309      -5.98761896354        0.338791308614        0.745697733491        -0.0452058532391      0.00535699270868      -8.63464664578e-09    0.523969900832       
  5                     0.995208912219        -0.0924769439137      0.000421167349732     0.00731654920296      -7.86621325843        0.466399938477        0.666200961693        -0.0466894311177      0.00879047239208      -1.13155257298e-08    1.07409885994        
  6                     0.994553460747        -0.0988513536836      0.000391094013099     0.00650046766368      -9.66863593663        0.598331003079        0.609994079457        -0.0477976134471      0.0142287421965       -1.45174460398e-08    2.08446206           
  7                     0.994013439915        -0.10388381591        0.000366104154774     0.00587839425145      -11.2595807523        0.720963037764        0.58017059836         -0.0485351086553      0.0205247024816       -1.82685278407e-08    3.50508214991        
  8                     0.993633946402        -0.107346009358       0.000343289398918     0.00538569414048      -12.5661946186        0.823611923114        0.570667155362        -0.048766880141       0.0258044808964       -2.2451393008e-08     5.03411981408        
