Title: 5DC_input.txt
Date: Sun Mar 31 13:53:13 2024
Plotname: DC dc1[1] <5DC_input.txt>   VGGROUND.Vdc=(-9 V->1.8 V)
Flags: real 
No. Variables: 14     
No. Points: 109     
Variables:	0	VGGROUND.Vdc	none 
		1	n1	voltage plot=0 grid=1
		2	n2	voltage plot=0 grid=1
		3	n3	voltage plot=0 grid=1
		4	XCKT.Gi	voltage plot=0 grid=1
		5	XCKT.Di	voltage plot=0 grid=1
		6	XCKT.X1.Si	voltage plot=0 grid=1
		7	XCKT.X1.Gi	voltage plot=0 grid=1
		8	XCKT.X1.Di	voltage plot=0 grid=1
		9	XCKT.X1.Sii	voltage plot=0 grid=1
		10	XCKT.X1.Gii	voltage plot=0 grid=1
		11	XCKT.X1.Dii	voltage plot=0 grid=1
		12	VDGROUND.i	current plot=0 grid=1
		13	VGGROUND.i	current plot=0 grid=1
Values:
0	-9.000000000000000e+00	0.000000000000000e+00
	-9.000000000000000e+00	-1.549553641805874e-44
	-8.999999998818376e+00	-1.178879999995320e-09
	-6.860400011698718e-15	-8.999999998815422e+00
	-1.181827199995309e-09	-6.860400011698718e-15
	-8.999999998815422e+00	-1.181827199995309e-09
	-2.947199999988301e-09	2.954060400000000e-09

1	-8.900000000000000e+00	0.000000000000000e+00
	-8.900000000000000e+00	-1.648576844186345e-43
	-8.899999998818377e+00	-1.178879999995320e-09
	-6.860400011698718e-15	-8.899999998815423e+00
	-1.181827199995309e-09	-6.860400011698718e-15
	-8.899999998815423e+00	-1.181827199995309e-09
	-2.947199999988301e-09	2.954060400000000e-09

2	-8.800000000000001e+00	0.000000000000000e+00
	-8.800000000000001e+00	9.077782964415511e-45
	-8.799999998818377e+00	-1.178879999995320e-09
	-6.860400011698718e-15	-8.799999998815423e+00
	-1.181827199995309e-09	-6.860400011698718e-15
	-8.799999998815423e+00	-1.181827199995309e-09
	-2.947199999988301e-09	2.954060400000000e-09

3	-8.700000000000001e+00	0.000000000000000e+00
	-8.700000000000001e+00	9.078892867474543e-45
	-8.699999998818377e+00	-1.178879999995320e-09
	-6.860400011698718e-15	-8.699999998815423e+00
	-1.181827199995309e-09	-6.860400011698718e-15
	-8.699999998815423e+00	-1.181827199995309e-09
	-2.947199999988301e-09	2.954060400000000e-09

4	-8.600000000000001e+00	0.000000000000000e+00
	-8.600000000000001e+00	9.077705853746792e-45
	-8.599999998818378e+00	-1.178879999995320e-09
	-6.860400011698718e-15	-8.599999998815424e+00
	-1.181827199995309e-09	-6.860400011698718e-15
	-8.599999998815424e+00	-1.181827199995309e-09
	-2.947199999988301e-09	2.954060400000000e-09

5	-8.500000000000002e+00	0.000000000000000e+00
	-8.500000000000002e+00	9.077541440213731e-45
	-8.499999998818378e+00	-1.178879999995320e-09
	-6.860400011698718e-15	-8.499999998815424e+00
	-1.181827199995309e-09	-6.860400011698718e-15
	-8.499999998815424e+00	-1.181827199995309e-09
	-2.947199999988301e-09	2.954060400000000e-09

6	-8.400000000000002e+00	0.000000000000000e+00
	-8.400000000000002e+00	9.077544481743416e-45
	-8.399999998818378e+00	-1.178879999995320e-09
	-6.860400011698718e-15	-8.399999998815424e+00
	-1.181827199995309e-09	-6.860400011698718e-15
	-8.399999998815424e+00	-1.181827199995309e-09
	-2.947199999988301e-09	2.954060400000000e-09

7	-8.300000000000002e+00	0.000000000000000e+00
	-8.300000000000002e+00	9.076777229992294e-45
	-8.299999998818379e+00	-1.178879999995320e-09
	-6.860400011698718e-15	-8.299999998815425e+00
	-1.181827199995309e-09	-6.860400011698718e-15
	-8.299999998815425e+00	-1.181827199995309e-09
	-2.947199999988301e-09	2.954060400000000e-09

8	-8.200000000000003e+00	0.000000000000000e+00
	-8.200000000000003e+00	9.078310202484582e-45
	-8.199999998818379e+00	-1.178879999995320e-09
	-6.860400011698718e-15	-8.199999998815425e+00
	-1.181827199995309e-09	-6.860400011698718e-15
	-8.199999998815425e+00	-1.181827199995309e-09
	-2.947199999988301e-09	2.954060400000000e-09

9	-8.100000000000003e+00	0.000000000000000e+00
	-8.100000000000003e+00	9.076909140961389e-45
	-8.099999998818380e+00	-1.178879999995320e-09
	-6.860400011698718e-15	-8.099999998815425e+00
	-1.181827199995309e-09	-6.860400011698718e-15
	-8.099999998815425e+00	-1.181827199995309e-09
	-2.947199999988301e-09	2.954060400000000e-09

10	-8.000000000000004e+00	0.000000000000000e+00
	-8.000000000000004e+00	9.079525456208894e-45
	-7.999999998818379e+00	-1.178879999995320e-09
	-6.860400011698718e-15	-7.999999998815425e+00
	-1.181827199995309e-09	-6.860400011698718e-15
	-7.999999998815425e+00	-1.181827199995309e-09
	-2.947199999988301e-09	2.954060400000000e-09

11	-7.900000000000004e+00	0.000000000000000e+00
	-7.900000000000004e+00	9.080677806560204e-45
	-7.899999998818379e+00	-1.178879999995320e-09
	-6.860400011698718e-15	-7.899999998815425e+00
	-1.181827199995309e-09	-6.860400011698718e-15
	-7.899999998815425e+00	-1.181827199995309e-09
	-2.947199999988301e-09	2.954060400000000e-09

12	-7.800000000000004e+00	0.000000000000000e+00
	-7.800000000000004e+00	9.078837855886298e-45
	-7.799999998818380e+00	-1.178879999995320e-09
	-6.860400011698718e-15	-7.799999998815426e+00
	-1.181827199995309e-09	-6.860400011698718e-15
	-7.799999998815426e+00	-1.181827199995309e-09
	-2.947199999988301e-09	2.954060400000000e-09

13	-7.700000000000005e+00	0.000000000000000e+00
	-7.700000000000005e+00	9.080511559743303e-45
	-7.699999998818380e+00	-1.178879999995320e-09
	-6.860400011698718e-15	-7.699999998815426e+00
	-1.181827199995309e-09	-6.860400011698718e-15
	-7.699999998815426e+00	-1.181827199995309e-09
	-2.947199999988301e-09	2.954060400000000e-09

14	-7.600000000000005e+00	0.000000000000000e+00
	-7.600000000000005e+00	9.079713591431296e-45
	-7.599999998818380e+00	-1.178879999995320e-09
	-6.860400011698718e-15	-7.599999998815426e+00
	-1.181827199995309e-09	-6.860400011698718e-15
	-7.599999998815426e+00	-1.181827199995309e-09
	-2.947199999988301e-09	2.954060400000000e-09

15	-7.500000000000005e+00	0.000000000000000e+00
	-7.500000000000005e+00	9.078444572537505e-45
	-7.499999998818381e+00	-1.178879999995320e-09
	-6.860400011698718e-15	-7.499999998815427e+00
	-1.181827199995309e-09	-6.860400011698718e-15
	-7.499999998815427e+00	-1.181827199995309e-09
	-2.947199999988301e-09	2.954060400000000e-09

16	-7.400000000000006e+00	0.000000000000000e+00
	-7.400000000000006e+00	9.078459587078920e-45
	-7.399999998818381e+00	-1.178879999995320e-09
	-6.860400011698718e-15	-7.399999998815427e+00
	-1.181827199995309e-09	-6.860400011698718e-15
	-7.399999998815427e+00	-1.181827199995309e-09
	-2.947199999988301e-09	2.954060400000000e-09

17	-7.300000000000006e+00	0.000000000000000e+00
	-7.300000000000006e+00	9.077132262411102e-45
	-7.299999998818381e+00	-1.178879999995320e-09
	-6.860400011698718e-15	-7.299999998815427e+00
	-1.181827199995309e-09	-6.860400011698718e-15
	-7.299999998815427e+00	-1.181827199995309e-09
	-2.947199999988301e-09	2.954060400000000e-09

18	-7.200000000000006e+00	0.000000000000000e+00
	-7.200000000000006e+00	9.079715364783954e-45
	-7.199999998818382e+00	-1.178879999995320e-09
	-6.860400011698718e-15	-7.199999998815428e+00
	-1.181827199995309e-09	-6.860400011698718e-15
	-7.199999998815428e+00	-1.181827199995309e-09
	-2.947199999988301e-09	2.954060400000000e-09

19	-7.100000000000007e+00	0.000000000000000e+00
	-7.100000000000007e+00	9.078788986191891e-45
	-7.099999998818382e+00	-1.178879999995320e-09
	-6.860400011698718e-15	-7.099999998815428e+00
	-1.181827199995309e-09	-6.860400011698718e-15
	-7.099999998815428e+00	-1.181827199995309e-09
	-2.947199999988301e-09	2.954060400000000e-09

20	-7.000000000000007e+00	0.000000000000000e+00
	-7.000000000000007e+00	9.078807006216408e-45
	-6.999999998818383e+00	-1.178879999995320e-09
	-6.860400011698718e-15	-6.999999998815428e+00
	-1.181827199995309e-09	-6.860400011698718e-15
	-6.999999998815428e+00	-1.181827199995309e-09
	-2.947199999988301e-09	2.954060400000000e-09

21	-6.900000000000007e+00	0.000000000000000e+00
	-6.900000000000007e+00	-1.843977412660216e-43
	-6.899999998818383e+00	-1.178879999995320e-09
	-6.860400011698718e-15	-6.899999998815429e+00
	-1.181827199995309e-09	-6.860400011698718e-15
	-6.899999998815429e+00	-1.181827199995309e-09
	-2.947199999988301e-09	2.954060399999999e-09

22	-6.800000000000008e+00	0.000000000000000e+00
	-6.800000000000008e+00	4.161610431801817e-45
	-6.799999998818383e+00	-1.178879999995320e-09
	-6.860400011698718e-15	-6.799999998815429e+00
	-1.181827199995309e-09	-6.860400011698718e-15
	-6.799999998815429e+00	-1.181827199995309e-09
	-2.947199999988301e-09	2.954060399999999e-09

23	-6.700000000000008e+00	0.000000000000000e+00
	-6.700000000000008e+00	-2.039397495057994e-43
	-6.699999998818384e+00	-1.178879999995320e-09
	-6.860400011698718e-15	-6.699999998815430e+00
	-1.181827199995308e-09	-6.860400011698718e-15
	-6.699999998815430e+00	-1.181827199995308e-09
	-2.947199999988300e-09	2.954060399999999e-09

24	-6.600000000000009e+00	0.000000000000000e+00
	-6.600000000000009e+00	3.714689715147139e-43
	-6.599999998818384e+00	-1.178879999995320e-09
	-6.860400011698718e-15	-6.599999998815430e+00
	-1.181827199995308e-09	-6.860400011698718e-15
	-6.599999998815430e+00	-1.181827199995308e-09
	-2.947199999988300e-09	2.954060399999999e-09

25	-6.500000000000009e+00	0.000000000000000e+00
	-6.500000000000009e+00	-3.584685980734829e-43
	-6.499999998818384e+00	-1.178879999995320e-09
	-6.860400011698718e-15	-6.499999998815430e+00
	-1.181827199995308e-09	-6.860400011698718e-15
	-6.499999998815430e+00	-1.181827199995308e-09
	-2.947199999988299e-09	2.954060399999998e-09

26	-6.400000000000009e+00	0.000000000000000e+00
	-6.400000000000009e+00	1.582943030250088e-43
	-6.399999998818385e+00	-1.178879999995319e-09
	-6.860400011698718e-15	-6.399999998815431e+00
	-1.181827199995308e-09	-6.860400011698718e-15
	-6.399999998815431e+00	-1.181827199995308e-09
	-2.947199999988299e-09	2.954060399999997e-09

27	-6.300000000000010e+00	0.000000000000000e+00
	-6.300000000000010e+00	-5.523938453423578e-43
	-6.299999998818385e+00	-1.178879999995318e-09
	-6.860400011698718e-15	-6.299999998815431e+00
	-1.181827199995307e-09	-6.860400011698718e-15
	-6.299999998815431e+00	-1.181827199995307e-09
	-2.947199999988296e-09	2.954060399999995e-09

28	-6.200000000000010e+00	0.000000000000000e+00
	-6.200000000000010e+00	-2.097321468908263e-43
	-6.199999998818385e+00	-1.178879999995317e-09
	-6.860400011698718e-15	-6.199999998815431e+00
	-1.181827199995306e-09	-6.860400011698718e-15
	-6.199999998815431e+00	-1.181827199995306e-09
	-2.947199999988293e-09	2.954060399999991e-09

29	-6.100000000000010e+00	0.000000000000000e+00
	-6.100000000000010e+00	-7.515134499127697e-43
	-6.099999998818386e+00	-1.178879999995315e-09
	-6.860400011698718e-15	-6.099999998815432e+00
	-1.181827199995303e-09	-6.860400011698718e-15
	-6.099999998815432e+00	-1.181827199995303e-09
	-2.947199999988287e-09	2.954060399999986e-09

30	-6.000000000000011e+00	0.000000000000000e+00
	-6.000000000000011e+00	-1.178656146319893e-42
	-5.999999998818386e+00	-1.178879999995311e-09
	-6.860400011698717e-15	-5.999999998815432e+00
	-1.181827199995299e-09	-6.860400011698717e-15
	-5.999999998815432e+00	-1.181827199995299e-09
	-2.947199999988277e-09	2.954060399999975e-09

31	-5.900000000000011e+00	0.000000000000000e+00
	-5.900000000000011e+00	-1.929792836438793e-42
	-5.899999998818386e+00	-1.178879999995304e-09
	-6.860400011698717e-15	-5.899999998815432e+00
	-1.181827199995292e-09	-6.860400011698717e-15
	-5.899999998815432e+00	-1.181827199995292e-09
	-2.947199999988260e-09	2.954060399999958e-09

32	-5.800000000000011e+00	0.000000000000000e+00
	-5.800000000000011e+00	-3.306613979867067e-42
	-5.799999998818387e+00	-1.178879999995292e-09
	-6.860400011698717e-15	-5.799999998815433e+00
	-1.181827199995280e-09	-6.860400011698717e-15
	-5.799999998815433e+00	-1.181827199995280e-09
	-2.947199999988230e-09	2.954060399999929e-09

33	-5.700000000000012e+00	0.000000000000000e+00
	-5.700000000000012e+00	-5.801403627549036e-42
	-5.699999998818387e+00	-1.178879999995272e-09
	-6.860400011698715e-15	-5.699999998815433e+00
	-1.181827199995260e-09	-6.860400011698715e-15
	-5.699999998815433e+00	-1.181827199995260e-09
	-2.947199999988179e-09	2.954060399999878e-09

34	-5.600000000000012e+00	0.000000000000000e+00
	-5.600000000000012e+00	-1.007332739505082e-41
	-5.599999998818388e+00	-1.178879999995236e-09
	-6.860400011698713e-15	-5.599999998815433e+00
	-1.181827199995225e-09	-6.860400011698713e-15
	-5.599999998815433e+00	-1.181827199995225e-09
	-2.947199999988091e-09	2.954060399999790e-09

35	-5.500000000000012e+00	0.000000000000000e+00
	-5.500000000000012e+00	-1.739989133234065e-41
	-5.499999998818388e+00	-1.178879999995176e-09
	-6.860400011698709e-15	-5.499999998815434e+00
	-1.181827199995164e-09	-6.860400011698709e-15
	-5.499999998815434e+00	-1.181827199995164e-09
	-2.947199999987941e-09	2.954060399999640e-09

36	-5.400000000000013e+00	0.000000000000000e+00
	-5.400000000000013e+00	-2.977008020555879e-41
	-5.399999998818388e+00	-1.178879999995073e-09
	-6.860400011698698e-15	-5.399999998815434e+00
	-1.181827199995061e-09	-6.860400011698698e-15
	-5.399999998815434e+00	-1.181827199995061e-09
	-2.947199999987682e-09	2.954060399999381e-09

37	-5.300000000000013e+00	0.000000000000000e+00
	-5.300000000000013e+00	-5.089954195399155e-41
	-5.299999998818389e+00	-1.178879999994896e-09
	-6.860400011698683e-15	-5.299999998815434e+00
	-1.181827199994883e-09	-6.860400011698683e-15
	-5.299999998815434e+00	-1.181827199994883e-09
	-2.947199999987239e-09	2.954060399998938e-09

38	-5.200000000000014e+00	0.000000000000000e+00
	-5.200000000000014e+00	-8.784739805417679e-41
	-5.199999998818389e+00	-1.178879999994591e-09
	-6.860400011698652e-15	-5.199999998815435e+00
	-1.181827199994577e-09	-6.860400011698652e-15
	-5.199999998815435e+00	-1.181827199994577e-09
	-2.947199999986477e-09	2.954060399998176e-09

39	-5.100000000000014e+00	0.000000000000000e+00
	-5.100000000000014e+00	-1.505859495933146e-40
	-5.099999998818389e+00	-1.178879999994068e-09
	-6.860400011698596e-15	-5.099999998815435e+00
	-1.181827199994053e-09	-6.860400011698596e-15
	-5.099999998815435e+00	-1.181827199994053e-09
	-2.947199999985169e-09	2.954060399996868e-09

40	-5.000000000000014e+00	0.000000000000000e+00
	-5.000000000000014e+00	-2.585478449061945e-40
	-4.999999998818390e+00	-1.178879999993170e-09
	-6.860400011698489e-15	-4.999999998815436e+00
	-1.181827199993153e-09	-6.860400011698489e-15
	-4.999999998815436e+00	-1.181827199993153e-09
	-2.947199999982924e-09	2.954060399994623e-09

41	-4.900000000000015e+00	0.000000000000000e+00
	-4.900000000000015e+00	-4.437699787060901e-40
	-4.899999998818390e+00	-1.178879999991627e-09
	-6.860400011698294e-15	-4.899999998815436e+00
	-1.181827199991607e-09	-6.860400011698294e-15
	-4.899999998815436e+00	-1.181827199991607e-09
	-2.947199999979069e-09	2.954060399990767e-09

42	-4.800000000000015e+00	0.000000000000000e+00
	-4.800000000000015e+00	-7.623025471011911e-40
	-4.799999998818390e+00	-1.178879999988980e-09
	-6.860400011697928e-15	-4.799999998815436e+00
	-1.181827199988952e-09	-6.860400011697928e-15
	-4.799999998815436e+00	-1.181827199988952e-09
	-2.947199999972449e-09	2.954060399984147e-09

43	-4.700000000000015e+00	0.000000000000000e+00
	-4.700000000000015e+00	-1.308579284170313e-39
	-4.699999998818391e+00	-1.178879999984433e-09
	-6.860400011697249e-15	-4.699999998815437e+00
	-1.181827199984394e-09	-6.860400011697249e-15
	-4.699999998815437e+00	-1.181827199984394e-09
	-2.947199999961083e-09	2.954060399972780e-09

44	-4.600000000000016e+00	0.000000000000000e+00
	-4.600000000000016e+00	-2.247078460495394e-39
	-4.599999998818391e+00	-1.178879999976626e-09
	-6.860400011695985e-15	-4.599999998815437e+00
	-1.181827199976568e-09	-6.860400011695985e-15
	-4.599999998815437e+00	-1.181827199976568e-09
	-2.947199999941566e-09	2.954060399953262e-09

45	-4.500000000000016e+00	0.000000000000000e+00
	-4.500000000000016e+00	-3.859523479856280e-39
	-4.499999998818391e+00	-1.178879999963222e-09
	-6.860400011693634e-15	-4.499999998815437e+00
	-1.181827199963130e-09	-6.860400011693634e-15
	-4.499999998815437e+00	-1.181827199963130e-09
	-2.947199999908055e-09	2.954060399919749e-09

46	-4.400000000000016e+00	0.000000000000000e+00
	-4.400000000000016e+00	-6.625827875384145e-39
	-4.399999998818392e+00	-1.178879999940207e-09
	-6.860400011689260e-15	-4.399999998815438e+00
	-1.181827199940057e-09	-6.860400011689260e-15
	-4.399999998815438e+00	-1.181827199940057e-09
	-2.947199999850517e-09	2.954060399862207e-09

47	-4.300000000000017e+00	0.000000000000000e+00
	-4.300000000000017e+00	-1.137785573541195e-38
	-4.299999998818392e+00	-1.178879999900689e-09
	-6.860400011681124e-15	-4.299999998815438e+00
	-1.181827199900441e-09	-6.860400011681124e-15
	-4.299999998815438e+00	-1.181827199900441e-09
	-2.947199999751722e-09	2.954060399763403e-09

48	-4.200000000000017e+00	0.000000000000000e+00
	-4.200000000000017e+00	-1.953162927222091e-38
	-4.199999998818392e+00	-1.178879999832835e-09
	-6.860400011665991e-15	-4.199999998815438e+00
	-1.181827199832418e-09	-6.860400011665991e-15
	-4.199999998815438e+00	-1.181827199832418e-09
	-2.947199999582088e-09	2.954060399593754e-09

49	-4.100000000000017e+00	0.000000000000000e+00
	-4.100000000000017e+00	-3.353834610744982e-38
	-4.099999998818393e+00	-1.178879999716329e-09
	-6.860400011637839e-15	-4.099999998815439e+00
	-1.181827199715620e-09	-6.860400011637839e-15
	-4.099999998815439e+00	-1.181827199715620e-09
	-2.947199999290822e-09	2.954060399302460e-09

50	-4.000000000000018e+00	0.000000000000000e+00
	-4.000000000000018e+00	-5.758555751532427e-38
	-3.999999998818394e+00	-1.178879999516284e-09
	-6.860400011585470e-15	-3.999999998815440e+00
	-1.181827199515075e-09	-6.860400011585470e-15
	-3.999999998815440e+00	-1.181827199515075e-09
	-2.947199998790710e-09	2.954060398802296e-09

51	-3.900000000000018e+00	0.000000000000000e+00
	-3.900000000000018e+00	-9.887310836071790e-38
	-3.899999998818394e+00	-1.178879999172801e-09
	-6.860400011488055e-15	-3.899999998815439e+00
	-1.181827199170733e-09	-6.860400011488055e-15
	-3.899999998815439e+00	-1.181827199170733e-09
	-2.947199997932003e-09	2.954060397943491e-09

52	-3.800000000000018e+00	0.000000000000000e+00
	-3.800000000000018e+00	-1.697867700508723e-37
	-3.799999998818393e+00	-1.178879998583031e-09
	-6.860400011306844e-15	-3.799999998815439e+00
	-1.181827198579489e-09	-6.860400011306844e-15
	-3.799999998815439e+00	-1.181827198579489e-09
	-2.947199996457578e-09	2.954060396468885e-09

53	-3.700000000000017e+00	0.000000000000000e+00
	-3.700000000000017e+00	-2.914425510530947e-37
	-3.699999998818393e+00	-1.178879997570380e-09
	-6.860400010969759e-15	-3.699999998815439e+00
	-1.181827197564306e-09	-6.860400010969759e-15
	-3.699999998815439e+00	-1.181827197564306e-09
	-2.947199993925949e-09	2.954060393936919e-09

54	-3.600000000000017e+00	0.000000000000000e+00
	-3.600000000000017e+00	-5.007784370534482e-37
	-3.599999998818393e+00	-1.178879995831628e-09
	-6.860400010342712e-15	-3.599999998815439e+00
	-1.181827195821207e-09	-6.860400010342712e-15
	-3.599999998815439e+00	-1.181827195821207e-09
	-2.947199989579069e-09	2.954060389589412e-09

55	-3.500000000000017e+00	0.000000000000000e+00
	-3.500000000000017e+00	-8.598736286186230e-37
	-3.499999998818393e+00	-1.178879992846141e-09
	-6.860400009176286e-15	-3.499999998815439e+00
	-1.181827192828256e-09	-6.860400009176286e-15
	-3.499999998815439e+00	-1.181827192828256e-09
	-2.947199982115353e-09	2.954060382124530e-09

56	-3.400000000000017e+00	0.000000000000000e+00
	-3.400000000000017e+00	-1.476667988046747e-36
	-3.399999998818393e+00	-1.178879987719975e-09
	-6.860400007006506e-15	-3.399999998815439e+00
	-1.181827187689275e-09	-6.860400007006506e-15
	-3.399999998815439e+00	-1.181827187689275e-09
	-2.947199969299938e-09	2.954060369306944e-09

57	-3.300000000000017e+00	0.000000000000000e+00
	-3.300000000000017e+00	-2.537797137700001e-36
	-3.299999998818393e+00	-1.178879978918202e-09
	-6.860400002970300e-15	-3.299999998815439e+00
	-1.181827178865497e-09	-6.860400002970300e-15
	-3.299999998815439e+00	-1.181827178865497e-09
	-2.947199947295504e-09	2.954060347298475e-09

58	-3.200000000000017e+00	0.000000000000000e+00
	-3.200000000000017e+00	-4.366950106365223e-36
	-3.199999998818393e+00	-1.178879963805305e-09
	-6.860399995462175e-15	-3.199999998815439e+00
