Title: 5DC_trans_su.txt
Date: Sun Mar 31 13:53:14 2024
Plotname: DC ct1[1].dc1[1/21] <5DC_trans_su.txt>  VDGROUND.Vdc=1 V  VGGROUND.Vdc=(-9 V->0 V)
Flags: real 
No. Variables: 14     
No. Points: 91      
Variables:	0	VGGROUND.Vdc	none 
		1	n1	voltage plot=0 grid=1
		2	n2	voltage plot=0 grid=1
		3	n3	voltage plot=0 grid=1
		4	XCKT.Gi	voltage plot=0 grid=1
		5	XCKT.Di	voltage plot=0 grid=1
		6	XCKT.X1.Si	voltage plot=0 grid=1
		7	XCKT.X1.Gi	voltage plot=0 grid=1
		8	XCKT.X1.Di	voltage plot=0 grid=1
		9	XCKT.X1.Sii	voltage plot=0 grid=1
		10	XCKT.X1.Gii	voltage plot=0 grid=1
		11	XCKT.X1.Dii	voltage plot=0 grid=1
		12	VGGROUND.i	current plot=0 grid=1
		13	VDGROUND.i	current plot=0 grid=1
Values:
0	-9.000000000000000e+00	1.000000000000000e+00
	-9.000000000000000e+00	9.276739438852329e-14
	-8.999999998818376e+00	9.999999988207194e-01
	-5.859038987709224e-15	-8.999999998815422e+00
	9.999999988177712e-01	-5.859038987709224e-15
	-8.999999998815422e+00	9.999999988177712e-01
	2.954060400000000e-09	-2.948201361012290e-09

1	-8.900000000000000e+00	1.000000000000000e+00
	-8.900000000000000e+00	9.276739438766969e-14
	-8.899999998818377e+00	9.999999988207194e-01
	-5.859038987709237e-15	-8.899999998815423e+00
	9.999999988177712e-01	-5.859038987709237e-15
	-8.899999998815423e+00	9.999999988177712e-01
	2.954060400000000e-09	-2.948201361012291e-09

2	-8.800000000000001e+00	1.000000000000000e+00
	-8.800000000000001e+00	9.276739438675333e-14
	-8.799999998818377e+00	9.999999988207194e-01
	-5.859038987709251e-15	-8.799999998815423e+00
	9.999999988177712e-01	-5.859038987709251e-15
	-8.799999998815423e+00	9.999999988177712e-01
	2.954060400000000e-09	-2.948201361012290e-09

3	-8.700000000000001e+00	1.000000000000000e+00
	-8.700000000000001e+00	9.276739438576684e-14
	-8.699999998818377e+00	9.999999988207194e-01
	-5.859038987709265e-15	-8.699999998815423e+00
	9.999999988177712e-01	-5.859038987709265e-15
	-8.699999998815423e+00	9.999999988177712e-01
	2.954060400000000e-09	-2.948201361012290e-09

4	-8.600000000000001e+00	1.000000000000000e+00
	-8.600000000000001e+00	9.276739438470184e-14
	-8.599999998818378e+00	9.999999988207194e-01
	-5.859038987709280e-15	-8.599999998815424e+00
	9.999999988177712e-01	-5.859038987709280e-15
	-8.599999998815424e+00	9.999999988177712e-01
	2.954060400000000e-09	-2.948201361012291e-09

5	-8.500000000000002e+00	1.000000000000000e+00
	-8.500000000000002e+00	9.276739438354862e-14
	-8.499999998818378e+00	9.999999988207194e-01
	-5.859038987709298e-15	-8.499999998815424e+00
	9.999999988177712e-01	-5.859038987709298e-15
	-8.499999998815424e+00	9.999999988177712e-01
	2.954060400000000e-09	-2.948201361012290e-09

6	-8.400000000000002e+00	1.000000000000000e+00
	-8.400000000000002e+00	9.276739438229567e-14
	-8.399999998818378e+00	9.999999988207194e-01
	-5.859038987709316e-15	-8.399999998815424e+00
	9.999999988177712e-01	-5.859038987709316e-15
	-8.399999998815424e+00	9.999999988177712e-01
	2.954060400000000e-09	-2.948201361012290e-09

7	-8.300000000000002e+00	1.000000000000000e+00
	-8.300000000000002e+00	9.276739438092955e-14
	-8.299999998818379e+00	9.999999988207194e-01
	-5.859038987709336e-15	-8.299999998815425e+00
	9.999999988177712e-01	-5.859038987709336e-15
	-8.299999998815425e+00	9.999999988177712e-01
	2.954060400000000e-09	-2.948201361012291e-09

8	-8.200000000000003e+00	1.000000000000000e+00
	-8.200000000000003e+00	9.276739437943415e-14
	-8.199999998818379e+00	9.999999988207194e-01
	-5.859038987709358e-15	-8.199999998815425e+00
	9.999999988177712e-01	-5.859038987709358e-15
	-8.199999998815425e+00	9.999999988177712e-01
	2.954060400000000e-09	-2.948201361012290e-09

9	-8.100000000000003e+00	1.000000000000000e+00
	-8.100000000000003e+00	9.276739437779020e-14
	-8.099999998818380e+00	9.999999988207194e-01
	-5.859038987709381e-15	-8.099999998815425e+00
	9.999999988177712e-01	-5.859038987709381e-15
	-8.099999998815425e+00	9.999999988177712e-01
	2.954060400000000e-09	-2.948201361012291e-09

10	-8.000000000000004e+00	1.000000000000000e+00
	-8.000000000000004e+00	9.276739437597445e-14
	-7.999999998818379e+00	9.999999988207194e-01
	-5.859038987709409e-15	-7.999999998815425e+00
	9.999999988177712e-01	-5.859038987709409e-15
	-7.999999998815425e+00	9.999999988177712e-01
	2.954060400000000e-09	-2.948201361012290e-09

11	-7.900000000000004e+00	1.000000000000000e+00
	-7.900000000000004e+00	9.276739437395885e-14
	-7.899999998818379e+00	9.999999988207194e-01
	-5.859038987709438e-15	-7.899999998815425e+00
	9.999999988177712e-01	-5.859038987709438e-15
	-7.899999998815425e+00	9.999999988177712e-01
	2.954060400000000e-09	-2.948201361012290e-09

12	-7.800000000000004e+00	1.000000000000000e+00
	-7.800000000000004e+00	9.276739437170762e-14
	-7.799999998818380e+00	9.999999988207194e-01
	-5.859038987709471e-15	-7.799999998815426e+00
	9.999999988177712e-01	-5.859038987709471e-15
	-7.799999998815426e+00	9.999999988177712e-01
	2.954060400000000e-09	-2.948201361012290e-09

13	-7.700000000000005e+00	1.000000000000000e+00
	-7.700000000000005e+00	9.276739436917734e-14
	-7.699999998818380e+00	9.999999988207194e-01
	-5.859038987709508e-15	-7.699999998815426e+00
	9.999999988177712e-01	-5.859038987709508e-15
	-7.699999998815426e+00	9.999999988177712e-01
	2.954060400000000e-09	-2.948201361012290e-09

14	-7.600000000000005e+00	1.000000000000000e+00
	-7.600000000000005e+00	9.276739436631273e-14
	-7.599999998818380e+00	9.999999988207194e-01
	-5.859038987709550e-15	-7.599999998815426e+00
	9.999999988177712e-01	-5.859038987709550e-15
	-7.599999998815426e+00	9.999999988177712e-01
	2.954060400000000e-09	-2.948201361012290e-09

15	-7.500000000000005e+00	1.000000000000000e+00
	-7.500000000000005e+00	9.276739436304281e-14
	-7.499999998818381e+00	9.999999988207194e-01
	-5.859038987709598e-15	-7.499999998815427e+00
	9.999999988177712e-01	-5.859038987709598e-15
	-7.499999998815427e+00	9.999999988177712e-01
	2.954060400000000e-09	-2.948201361012290e-09

16	-7.400000000000006e+00	1.000000000000000e+00
	-7.400000000000006e+00	9.276739435927506e-14
	-7.399999998818381e+00	9.999999988207194e-01
	-5.859038987709654e-15	-7.399999998815427e+00
	9.999999988177712e-01	-5.859038987709654e-15
	-7.399999998815427e+00	9.999999988177712e-01
	2.954060400000000e-09	-2.948201361012290e-09

17	-7.300000000000006e+00	1.000000000000000e+00
	-7.300000000000006e+00	9.276739435488635e-14
	-7.299999998818381e+00	9.999999988207194e-01
	-5.859038987709718e-15	-7.299999998815427e+00
	9.999999988177712e-01	-5.859038987709718e-15
	-7.299999998815427e+00	9.999999988177712e-01
	2.954060400000000e-09	-2.948201361012290e-09

18	-7.200000000000006e+00	1.000000000000000e+00
	-7.200000000000006e+00	9.276739434970948e-14
	-7.199999998818382e+00	9.999999988207194e-01
	-5.859038987709794e-15	-7.199999998815428e+00
	9.999999988177712e-01	-5.859038987709794e-15
	-7.199999998815428e+00	9.999999988177712e-01
	2.954060400000000e-09	-2.948201361012290e-09

19	-7.100000000000007e+00	1.000000000000000e+00
	-7.100000000000007e+00	9.276739434351114e-14
	-7.099999998818382e+00	9.999999988207194e-01
	-5.859038987709885e-15	-7.099999998815428e+00
	9.999999988177712e-01	-5.859038987709885e-15
	-7.099999998815428e+00	9.999999988177712e-01
	2.954060400000000e-09	-2.948201361012290e-09

20	-7.000000000000007e+00	1.000000000000000e+00
	-7.000000000000007e+00	9.276739433595596e-14
	-6.999999998818383e+00	9.999999988207194e-01
	-5.859038987709996e-15	-6.999999998815428e+00
	9.999999988177712e-01	-5.859038987709996e-15
	-6.999999998815428e+00	9.999999988177712e-01
	2.954060400000000e-09	-2.948201361012290e-09

21	-6.900000000000007e+00	1.000000000000000e+00
	-6.900000000000007e+00	9.276739432654363e-14
	-6.899999998818383e+00	9.999999988207194e-01
	-5.859038987710134e-15	-6.899999998815429e+00
	9.999999988177712e-01	-5.859038987710134e-15
	-6.899999998815429e+00	9.999999988177712e-01
	2.954060400000000e-09	-2.948201361012290e-09

22	-6.800000000000008e+00	1.000000000000000e+00
	-6.800000000000008e+00	9.276739431449348e-14
	-6.799999998818383e+00	9.999999988207194e-01
	-5.859038987710311e-15	-6.799999998815429e+00
	9.999999988177712e-01	-5.859038987710311e-15
	-6.799999998815429e+00	9.999999988177712e-01
	2.954060400000000e-09	-2.948201361012290e-09

23	-6.700000000000008e+00	1.000000000000000e+00
	-6.700000000000008e+00	9.276739429851603e-14
	-6.699999998818384e+00	9.999999988207194e-01
	-5.859038987710545e-15	-6.699999998815430e+00
	9.999999988177712e-01	-5.859038987710545e-15
	-6.699999998815430e+00	9.999999988177712e-01
	2.954060400000000e-09	-2.948201361012290e-09

24	-6.600000000000009e+00	1.000000000000000e+00
	-6.600000000000009e+00	9.276739427631777e-14
	-6.599999998818384e+00	9.999999988207194e-01
	-5.859038987710871e-15	-6.599999998815430e+00
	9.999999988177712e-01	-5.859038987710871e-15
	-6.599999998815430e+00	9.999999988177712e-01
	2.954060400000000e-09	-2.948201361012289e-09

25	-6.500000000000009e+00	1.000000000000000e+00
	-6.500000000000009e+00	9.276739424338803e-14
	-6.499999998818384e+00	9.999999988207194e-01
	-5.859038987711354e-15	-6.499999998815430e+00
	9.999999988177712e-01	-5.859038987711354e-15
	-6.499999998815430e+00	9.999999988177712e-01
	2.954060400000000e-09	-2.948201361012289e-09

26	-6.400000000000009e+00	1.000000000000000e+00
	-6.400000000000009e+00	9.276739418946670e-14
	-6.399999998818385e+00	9.999999988207194e-01
	-5.859038987712145e-15	-6.399999998815431e+00
	9.999999988177712e-01	-5.859038987712145e-15
	-6.399999998815431e+00	9.999999988177712e-01
	2.954060400000000e-09	-2.948201361012288e-09

27	-6.300000000000010e+00	1.000000000000000e+00
	-6.300000000000010e+00	9.276739408510697e-14
	-6.299999998818385e+00	9.999999988207194e-01
	-5.859038987713676e-15	-6.299999998815431e+00
	9.999999988177712e-01	-5.859038987713676e-15
	-6.299999998815431e+00	9.999999988177712e-01
	2.954060400000000e-09	-2.948201361012286e-09

28	-6.200000000000010e+00	1.000000000000000e+00
	-6.200000000000010e+00	9.276739379761225e-14
	-6.199999998818385e+00	9.999999988207194e-01
	-5.859038987717894e-15	-6.199999998815431e+00
	9.999999988177712e-01	-5.859038987717894e-15
	-6.199999998815431e+00	9.999999988177712e-01
	2.954060400000000e-09	-2.948201361012282e-09

29	-6.100000000000010e+00	1.000000000000000e+00
	-6.100000000000010e+00	9.276738980917261e-14
	-6.099999998818386e+00	9.999999988207194e-01
	-5.859038987776410e-15	-6.099999998815432e+00
	9.999999988177712e-01	-5.859038987776410e-15
	-6.099999998815432e+00	9.999999988177712e-01
	2.954060400000000e-09	-2.948201361012223e-09

30	-6.000000000000011e+00	1.000000000000000e+00
	-6.000000000000011e+00	1.391507213342748e-13
	-5.999999998818386e+00	9.999999988207192e-01
	-5.858358481143960e-15	-5.999999998815432e+00
	9.999999988177710e-01	-5.858358481143960e-15
	-5.999999998815432e+00	9.999999988177710e-01
	2.954060400000000e-09	-2.948202041518856e-09

31	-5.900000000000011e+00	1.000000000000000e+00
	-5.900000000000011e+00	3.710674108275789e-13
	-5.899999998818386e+00	9.999999988207178e-01
	-5.854955947514171e-15	-5.899999998815432e+00
	9.999999988177696e-01	-5.854955947514171e-15
	-5.899999998815432e+00	9.999999988177696e-01
	2.954060399999999e-09	-2.948205444052485e-09

32	-5.800000000000011e+00	1.000000000000000e+00
	-5.800000000000011e+00	6.493658181907698e-13
	-5.799999998818387e+00	9.999999988207162e-01
	-5.850872930926451e-15	-5.799999998815433e+00
	9.999999988177680e-01	-5.850872930926451e-15
	-5.799999998815433e+00	9.999999988177680e-01
	2.954060399999999e-09	-2.948209527069073e-09

33	-5.700000000000012e+00	1.000000000000000e+00
	-5.700000000000012e+00	1.345110266475388e-12
	-5.699999998818387e+00	9.999999988207121e-01
	-5.840665412492997e-15	-5.699999998815433e+00
	9.999999988177639e-01	-5.840665412492997e-15
	-5.699999998815433e+00	9.999999988177639e-01
	2.954060399999999e-09	-2.948219734587506e-09

34	-5.600000000000012e+00	1.000000000000000e+00
	-5.600000000000012e+00	3.130848834267803e-12
	-5.599999998818388e+00	9.999999988207017e-01
	-5.814466196109722e-15	-5.599999998815433e+00
	9.999999988177534e-01	-5.814466196109722e-15
	-5.599999998815433e+00	9.999999988177534e-01
	2.954060399999999e-09	-2.948245933803889e-09

35	-5.500000000000012e+00	1.000000000000000e+00
	-5.500000000000012e+00	7.003798490293376e-12
	-5.499999998818388e+00	9.999999988206789e-01
	-5.757644750960994e-15	-5.499999998815434e+00
	9.999999988177306e-01	-5.757644750960994e-15
	-5.499999998815434e+00	9.999999988177306e-01
	2.954060399999998e-09	-2.948302755249037e-09

36	-5.400000000000013e+00	1.000000000000000e+00
	-5.400000000000013e+00	1.546859358315045e-11
	-5.399999998818388e+00	9.999999988206292e-01
	-5.633454680657307e-15	-5.399999998815434e+00
	9.999999988176808e-01	-5.633454680657307e-15
	-5.399999998815434e+00	9.999999988176808e-01
	2.954060399999997e-09	-2.948426945319340e-09

37	-5.300000000000013e+00	1.000000000000000e+00
	-5.300000000000013e+00	3.420701937715288e-11
	-5.299999998818389e+00	9.999999988205193e-01
	-5.358536458631350e-15	-5.299999998815434e+00
	9.999999988175705e-01	-5.358536458631350e-15
	-5.299999998815434e+00	9.999999988175705e-01
	2.954060399999995e-09	-2.948701863541364e-09

38	-5.200000000000014e+00	1.000000000000000e+00
	-5.200000000000014e+00	7.588127918019800e-11
	-5.199999998818389e+00	9.999999988202747e-01
	-4.747118320560221e-15	-5.199999998815435e+00
	9.999999988173254e-01	-4.747118320560221e-15
	-5.199999998815435e+00	9.999999988173254e-01
	2.954060399999991e-09	-2.949313281679432e-09

39	-5.100000000000014e+00	1.000000000000000e+00
	-5.100000000000014e+00	1.682042915422377e-10
	-5.099999998818389e+00	9.999999988197329e-01
	-3.392614015340127e-15	-5.099999998815435e+00
	9.999999988167823e-01	-3.392614015340127e-15
	-5.099999998815435e+00	9.999999988167823e-01
	2.954060399999986e-09	-2.950667785984645e-09

40	-5.000000000000014e+00	1.000000000000000e+00
	-5.000000000000014e+00	3.723296786104092e-10
	-4.999999998818390e+00	9.999999988185350e-01
	-3.978166346990727e-16	-4.999999998815436e+00
	9.999999988155813e-01	-3.978166346990727e-16
	-4.999999998815436e+00	9.999999988155813e-01
	2.954060399999975e-09	-2.953662583365276e-09

41	-4.900000000000015e+00	1.000000000000000e+00
	-4.900000000000015e+00	8.215562660599860e-10
	-4.899999998818390e+00	9.999999988158986e-01
	6.192949103935893e-15	-4.899999998815436e+00
	9.999999988129384e-01	6.192949103935893e-15
	-4.899999998815436e+00	9.999999988129384e-01
	2.954060399999958e-09	-2.960253349103894e-09

42	-4.800000000000015e+00	1.000000000000000e+00
	-4.800000000000015e+00	1.799548105038954e-09
	-4.799999998818390e+00	9.999999988101592e-01
	2.054142109063353e-14	-4.799999998815436e+00
	9.999999988071847e-01	2.054142109063353e-14
	-4.799999998815436e+00	9.999999988071847e-01
	2.954060399999928e-09	-2.974601821090561e-09

43	-4.700000000000015e+00	1.000000000000000e+00
	-4.700000000000015e+00	3.872515951364886e-09
	-4.699999998818391e+00	9.999999987979939e-01
	5.095468211561319e-14	-4.699999998815437e+00
	9.999999987949889e-01	5.095468211561319e-14
	-4.699999998815437e+00	9.999999987949889e-01
	2.954060399999876e-09	-3.005015082115490e-09

44	-4.600000000000016e+00	1.000000000000000e+00
	-4.600000000000016e+00	7.989553045072677e-09
	-4.599999998818391e+00	9.999999987738329e-01
	1.113572223965716e-13	-4.599999998815437e+00
	9.999999987707675e-01	1.113572223965716e-13
	-4.599999998815437e+00	9.999999987707675e-01
	2.954060399999788e-09	-3.065417622396359e-09

45	-4.500000000000016e+00	1.000000000000000e+00
	-4.500000000000016e+00	1.505775300654209e-08
	-4.499999998818391e+00	9.999999987323529e-01
	2.150573405953348e-13	-4.499999998815437e+00
	9.999999987291838e-01	2.150573405953348e-13
	-4.499999998815437e+00	9.999999987291838e-01
	2.954060399999635e-09	-3.169117740594970e-09

46	-4.400000000000016e+00	1.000000000000000e+00
	-4.400000000000016e+00	2.628525844356211e-08
	-4.399999998818392e+00	9.999999986664638e-01
	3.797801340713905e-13	-4.399999998815438e+00
	9.999999986631299e-01	3.797801340713905e-13
	-4.399999998815438e+00	9.999999986631299e-01
	2.954060399999372e-09	-3.333840534070762e-09

47	-4.300000000000017e+00	1.000000000000000e+00
	-4.300000000000017e+00	5.092796302396601e-08
	-4.299999998818392e+00	9.999999985218470e-01
	7.413221676981513e-13	-4.299999998815438e+00
	9.999999985181516e-01	7.413221676981513e-13
	-4.299999998815438e+00	9.999999985181516e-01
	2.954060399998920e-09	-3.695382567697071e-09

48	-4.200000000000017e+00	1.000000000000000e+00
	-4.200000000000017e+00	1.093334981425014e-07
	-4.199999998818392e+00	9.999999981790915e-01
	1.598210907527649e-12	-4.199999998815438e+00
	9.999999981745392e-01	1.598210907527649e-12
	-4.199999998815438e+00	9.999999981745392e-01
	2.954060399998143e-09	-4.552271307525792e-09

49	-4.100000000000017e+00	1.000000000000000e+00
	-4.100000000000017e+00	2.419978802477504e-07
	-4.099999998818393e+00	9.999999974005446e-01
	3.544578090152105e-12	-4.099999998815439e+00
	9.999999973940460e-01	3.544578090152105e-12
	-4.099999998815439e+00	9.999999973940460e-01
	2.954060399996807e-09	-6.498638490148913e-09

50	-4.000000000000018e+00	1.000000000000000e+00
	-4.000000000000018e+00	5.396153472073713e-07
	-3.999999998818394e+00	9.999999956539631e-01
	7.911031845456893e-12	-3.999999998815440e+00
	9.999999956430980e-01	7.911031845456893e-12
	-3.999999998815440e+00	9.999999956430980e-01
	2.954060399994510e-09	-1.086509224545140e-08

51	-3.900000000000018e+00	1.000000000000000e+00
	-3.900000000000018e+00	1.205912758722443e-06
	-3.899999998818394e+00	9.999999917437664e-01
	1.768652343738526e-11	-3.899999998815439e+00
	9.999999917231259e-01	1.768652343738526e-11
	-3.899999998815439e+00	9.999999917231259e-01
	2.954060399990557e-09	-2.064058383737581e-08

52	-3.800000000000018e+00	1.000000000000000e+00
	-3.800000000000018e+00	2.697939461609406e-06
	-3.799999998818393e+00	9.999999829877385e-01
	3.957659325888027e-11	-3.799999998815439e+00
	9.999999829452079e-01	3.957659325888027e-11
	-3.799999998815439e+00	9.999999829452079e-01
	2.954060399983756e-09	-4.253065365886402e-08

53	-3.700000000000017e+00	1.000000000000000e+00
	-3.700000000000017e+00	6.041465935965836e-06
	-3.699999998818393e+00	9.999999633660912e-01
	8.863071171909367e-11	-3.699999998815439e+00
	9.999999632745064e-01	8.863071171909367e-11
	-3.699999998815439e+00	9.999999632745064e-01
	2.954060399972053e-09	-9.158477211906572e-08

54	-3.600000000000017e+00	1.000000000000000e+00
	-3.600000000000017e+00	1.354051203696547e-05
	-3.599999998818393e+00	9.999999193575392e-01
	1.986520915410026e-10	-3.599999998815439e+00
	9.999999191559331e-01	1.986520915410026e-10
	-3.599999998815439e+00	9.999999191559331e-01
	2.954060399951909e-09	-2.016061519409546e-07

55	-3.500000000000017e+00	1.000000000000000e+00
	-3.500000000000017e+00	3.037465763146812e-05
	-3.499999998818393e+00	9.999998205652770e-01
	4.456327469272814e-10	-3.499999998815439e+00
	9.999998201166903e-01	4.456327469272814e-10
	-3.499999998815439e+00	9.999998201166903e-01
	2.954060399917231e-09	-4.485868073271986e-07

56	-3.400000000000017e+00	1.000000000000000e+00
	-3.400000000000017e+00	6.819696215939088e-05
	-3.399999998818393e+00	9.999995986017456e-01
	1.000541575687487e-09	-3.399999998815439e+00
	9.999995975982500e-01	1.000541575687487e-09
	-3.399999998815439e+00	9.999995975982500e-01
	2.954060399857520e-09	-1.003495636087345e-06

57	-3.300000000000017e+00	1.000000000000000e+00
	-3.300000000000017e+00	1.532390407007172e-04
	-3.299999998818393e+00	9.999990995201852e-01
	2.248245476553006e-09	-3.299999998815439e+00
	9.999990972689857e-01	2.248245476553006e-09
	-3.299999998815439e+00	9.999990972689857e-01
	2.954060399754678e-09	-2.251199536952761e-06

58	-3.200000000000017e+00	1.000000000000000e+00
	-3.200000000000017e+00	3.445540561269463e-04
	-3.199999998818393e+00	9.999979767373750e-01
	5.055202502049817e-09	-3.199999998815439e+00
	9.999979716792184e-01	5.055202502049817e-09
	-3.199999998815439e+00	9.999979716792184e-01
	2.954060399577496e-09	-5.058156562449394e-06

59	-3.100000000000017e+00	1.000000000000000e+00
	-3.100000000000017e+00	7.749666233181901e-04
