Title: 5DC_trans.txt
Date: Sun Mar 31 13:53:15 2024
Plotname: DC ct1[1].dc1[1/6] <5DC_trans.txt>  VDGROUND.Vdc=100 mV  VGGROUND.Vdc=(-3 V->1 V)
Flags: real 
No. Variables: 14     
No. Points: 11      
Variables:	0	VGGROUND.Vdc	none 
		1	n1	voltage plot=0 grid=1
		2	n2	voltage plot=0 grid=1
		3	n3	voltage plot=0 grid=1
		4	XCKT.Gi	voltage plot=0 grid=1
		5	XCKT.Di	voltage plot=0 grid=1
		6	XCKT.X1.Si	voltage plot=0 grid=1
		7	XCKT.X1.Gi	voltage plot=0 grid=1
		8	XCKT.X1.Di	voltage plot=0 grid=1
		9	XCKT.X1.Sii	voltage plot=0 grid=1
		10	XCKT.X1.Gii	voltage plot=0 grid=1
		11	XCKT.X1.Dii	voltage plot=0 grid=1
		12	VGGROUND.i	current plot=0 grid=1
		13	VDGROUND.i	current plot=0 grid=1
Values:
0	-3.000000000000000e+00	1.000000000000000e-01
	-3.000000000000000e+00	1.176414071434255e-12
	-2.999999998818376e+00	9.999999882101103e-02
	-6.587803974137983e-15	-2.999999998815422e+00
	9.999999881806355e-02	-6.587803974137983e-15
	-2.999999998815422e+00	9.999999881806355e-02
	2.954060244595587e-09	-2.947472440621449e-09

1	-2.600000000000000e+00	1.000000000000000e-01
	-2.600000000000000e+00	1.669118040245160e-09
	-2.599999998818376e+00	9.999999872312759e-02
	2.381219739728407e-13	-2.599999998815422e+00
	9.999999871993541e-02	2.381219739728407e-13
	-2.599999998815422e+00	9.999999871993541e-02
	2.954059049070336e-09	-3.192181023043176e-09

2	-2.200000000000000e+00	1.000000000000000e-01
	-2.200000000000000e+00	1.635932174423607e-06
	-2.199999998818381e+00	9.999990281448123e-02
	2.400097482657191e-10	-2.199999998815427e+00
	9.999990257151745e-02	2.400097482657191e-10
	-2.199999998815427e+00	9.999990257151745e-02
	2.954048655710078e-09	-2.429637969214292e-07

3	-1.800000000000000e+00	1.000000000000000e-01
	-1.800000000000000e+00	2.413218779167738e-03
	-1.799999998818417e+00	9.985570590568460e-02
	3.607322818310131e-07	-1.799999998815463e+00
	9.985534517044882e-02	3.607322818310131e-07
	-1.799999998815463e+00	9.985534517044882e-02
	2.953957493452857e-09	-3.607352357885066e-04

4	-1.400000000000000e+00	1.000000000000000e-01
	-1.400000000000000e+00	3.174843014374560e-02
	-1.399999998818834e+00	9.529151102914260e-02
	1.177121947422677e-05	-1.399999998815881e+00
	9.527973980671545e-02	1.177121947422677e-05
	-1.399999998815881e+00	9.527973980671545e-02
	2.952916757841754e-09	-1.177122242714352e-02

5	-1.000000000000000e+00	1.000000000000000e-01
	-1.000000000000000e+00	2.360760607518873e-02
	-9.999999988226348e-01	9.401057901422068e-02
	1.497354952103421e-05	-9.999999988196914e-01
	9.399560546175623e-02	1.497354952103421e-05
	-9.999999988196914e-01	9.399560546175623e-02
	2.943414123393429e-09	-1.497355246444833e-02

6	-6.000000000000004e-01	1.000000000000000e-01
	-6.000000000000004e-01	2.120603497122917e-02
	-5.999999988558937e-01	9.376294164716821e-02
	1.559264302181271e-05	-5.999999988530335e-01
	9.374734900128613e-02	1.559264302181271e-05
	-5.999999988530335e-01	9.374734900128613e-02
	2.860266778798539e-09	-1.559264588207949e-02

7	-2.000000000000004e-01	1.000000000000000e-01
	-2.000000000000004e-01	2.014346208662100e-02
	-1.999999991463917e-01	9.366137203586386e-02
	1.584656777631851e-05	-1.999999991442576e-01
	9.364552546595352e-02	1.584656777631851e-05
	-1.999999991442576e-01	9.364552546595352e-02
	2.134021847991567e-09	-1.584656991034036e-02

8	1.999999999999996e-01	1.000000000000000e-01
	1.999999999999996e-01	1.955879549165870e-02
	1.999999983203989e-01	9.360724614199252e-02
	1.598188884402055e-05	1.999999983161999e-01
	9.359126425734750e-02	1.598188884402055e-05
	1.999999983161999e-01	9.359126425734750e-02
	-4.199001820608625e-09	-1.598188464501872e-02

9	5.999999999999996e-01	1.000000000000000e-01
	5.999999999999996e-01	1.919164670596702e-02
	5.999999762436561e-01	9.357384921757469e-02
	1.606543634692215e-05	5.999999761842653e-01
	9.355778384061862e-02	1.606543634692215e-05
	5.999999761842653e-01	9.355778384061862e-02
	-5.939085886908667e-08	-1.606537695606329e-02

10	1.000000000000000e+00	1.000000000000000e-01
	1.000000000000000e+00	1.894126927452272e-02
	9.999997838623006e-01	9.355132919579986e-02
	1.612221735474876e-05	9.999997833219564e-01
	9.353520751878937e-02	1.612221735474876e-05
	9.999997833219564e-01	9.353520751878937e-02
	-5.403442484027410e-07	-1.612167701050036e-02

Plotname: DC ct1[1].dc1[2/6] <5DC_trans.txt>  VDGROUND.Vdc=4.1 V  VGGROUND.Vdc=(-3 V->1 V)
Flags: real 
No. Variables: 14     
No. Points: 11      
Variables:	0	VGGROUND.Vdc	none 
		1	n1	voltage plot=0 grid=1
		2	n2	voltage plot=0 grid=1
		3	n3	voltage plot=0 grid=1
		4	XCKT.Gi	voltage plot=0 grid=1
		5	XCKT.Di	voltage plot=0 grid=1
		6	XCKT.X1.Si	voltage plot=0 grid=1
		7	XCKT.X1.Gi	voltage plot=0 grid=1
		8	XCKT.X1.Di	voltage plot=0 grid=1
		9	XCKT.X1.Sii	voltage plot=0 grid=1
		10	XCKT.X1.Gii	voltage plot=0 grid=1
		11	XCKT.X1.Dii	voltage plot=0 grid=1
		12	VGGROUND.i	current plot=0 grid=1
		13	VDGROUND.i	current plot=0 grid=1
Values:
0	-3.000000000000000e+00	4.100000000000000e+00
	-3.000000000000000e+00	1.258213819812945e+01
	-2.999999998818376e+00	4.080830128708937e+00
	4.792467527359631e-05	-2.999999998815422e+00
	4.080782204030709e+00	4.792467527359631e-05
	-2.999999998815422e+00	4.080782204030709e+00
	2.954060399900770e-09	-4.792467822765670e-02

1	-2.600000000000000e+00	4.100000000000000e+00
	-2.600000000000000e+00	1.849015398913286e+01
	-2.599999998818376e+00	4.070836495804834e+00
	7.290875753385597e-05	-2.599999998815422e+00
	4.070763587044345e+00	7.290875753385597e-05
	-2.599999998815422e+00	4.070763587044345e+00
	2.954060398937503e-09	-7.290876048791636e-02

2	-2.200000000000000e+00	4.100000000000000e+00
	-2.200000000000000e+00	2.662373094555808e+01
	-2.199999998818376e+00	4.055598291298461e+00
	1.110042687997866e-04	-2.199999998815422e+00
	4.055487287026707e+00	1.110042687997866e-04
	-2.199999998815422e+00	4.055487287026707e+00
	2.954060388389853e-09	-1.110042717538470e-01

3	-1.800000000000000e+00	4.100000000000000e+00
	-1.800000000000000e+00	3.771803840453723e+01
	-1.799999998818376e+00	4.030396271048788e+00
	1.740093194239700e-04	-1.799999998815422e+00
	4.030222261726410e+00	1.740093194239700e-04
	-1.799999998815422e+00	4.030222261726410e+00
	2.954060294188664e-09	-1.740093223780303e-01

4	-1.400000000000000e+00	4.100000000000000e+00
	-1.400000000000000e+00	4.711407845594977e+01
	-1.399999998818376e+00	4.000097733484370e+00
	2.497556633350145e-04	-1.399999998815422e+00
	3.999847977818081e+00	2.497556633350145e-04
	-1.399999998815422e+00	3.999847977818081e+00
	2.954059667974200e-09	-2.497556662890742e-01

5	-1.000000000000000e+00	4.100000000000000e+00
	-1.000000000000000e+00	5.214053940175628e+01
	-9.999999988183780e-01	3.970557785704585e+00
	3.236055327844800e-04	-9.999999988154239e-01
	3.970234180168847e+00	3.236055327844800e-04
	-9.999999988154239e-01	3.970234180168847e+00
	2.954056122784587e-09	-3.236055357385361e-01

6	-6.000000000000004e-01	4.100000000000000e+00
	-6.000000000000004e-01	5.325413266452230e+01
	-5.999999988183861e-01	3.943469161348009e+00
	3.913270936759415e-04	-5.999999988154321e-01
	3.943077834251379e+00	3.913270936759415e-04
	-5.999999988154321e-01	3.943077834251379e+00
	2.954035774157570e-09	-3.913270966299773e-01

7	-2.000000000000004e-01	4.100000000000000e+00
	-2.000000000000004e-01	5.169605234789078e+01
	-1.999999988184413e-01	3.920506001271115e+00
	4.487349938683127e-04	-1.999999988154874e-01
	3.920057266274293e+00	4.487349938683127e-04
	-1.999999988154874e-01	3.920057266274293e+00
	2.953897763570752e-09	-4.487349968222105e-01

8	1.999999999999996e-01	4.100000000000000e+00
	1.999999999999996e-01	4.896699623993477e+01
	2.000000011811128e-01	3.902577138895092e+00
	4.935571498094859e-04	2.000000011840656e-01
	3.902083581742330e+00	4.935571498094859e-04
	2.000000011840656e-01	3.902083581742330e+00
	2.952783012241627e-09	-4.935571527622690e-01

9	5.999999999999996e-01	4.100000000000000e+00
	5.999999999999996e-01	4.620337046665598e+01
	6.000000011772509e-01	3.889597368668475e+00
	5.260065753856848e-04	6.000000011801940e-01
	3.889071362090146e+00	5.260065753856848e-04
	6.000000011801940e-01	3.889071362090146e+00
	2.943128103181054e-09	-5.260065783288130e-01

10	1.000000000000000e+00	4.100000000000000e+00
	1.000000000000000e+00	4.394360098532718e+01
	1.000000001144086e+00	3.880709723810809e+00
	5.482256876127600e-04	1.000000001146946e+00
	3.880161498120337e+00	5.482256876127600e-04
	1.000000001146946e+00	3.880161498120337e+00
	2.860215156913650e-09	-5.482256904729752e-01

Plotname: DC ct1[1].dc1[3/6] <5DC_trans.txt>  VDGROUND.Vdc=8.1 V  VGGROUND.Vdc=(-3 V->1 V)
Flags: real 
No. Variables: 14     
No. Points: 11      
Variables:	0	VGGROUND.Vdc	none 
		1	n1	voltage plot=0 grid=1
		2	n2	voltage plot=0 grid=1
		3	n3	voltage plot=0 grid=1
		4	XCKT.Gi	voltage plot=0 grid=1
		5	XCKT.Di	voltage plot=0 grid=1
		6	XCKT.X1.Si	voltage plot=0 grid=1
		7	XCKT.X1.Gi	voltage plot=0 grid=1
		8	XCKT.X1.Di	voltage plot=0 grid=1
		9	XCKT.X1.Sii	voltage plot=0 grid=1
		10	XCKT.X1.Gii	voltage plot=0 grid=1
		11	XCKT.X1.Dii	voltage plot=0 grid=1
		12	VGGROUND.i	current plot=0 grid=1
		13	VDGROUND.i	current plot=0 grid=1
Values:
0	-3.000000000000000e+00	8.100000000000000e+00
	-3.000000000000000e+00	2.101631313224507e+01
	-2.999999998818376e+00	8.084381025171071e+00
	3.904743411825908e-05	-2.999999998815422e+00
	8.084341977733999e+00	3.904743411825908e-05
	-2.999999998815422e+00	8.084341977733999e+00
	2.954060399830496e-09	-3.904743707231947e-02

1	-2.600000000000000e+00	8.100000000000000e+00
	-2.600000000000000e+00	3.126696348647089e+01
	-2.599999998818376e+00	8.076446890276578e+00
	5.888277135449336e-05	-2.599999998815422e+00
	8.076388007502269e+00	5.888277135449336e-05
	-2.599999998815422e+00	8.076388007502269e+00
	2.954060397874752e-09	-5.888277430855375e-02

2	-2.200000000000000e+00	8.100000000000000e+00
	-2.200000000000000e+00	7.010160848426933e+01
	-2.199999998818376e+00	8.043906990727679e+00
	1.402325202267413e-04	-2.199999998815422e+00
	8.043766758204498e+00	1.402325202267413e-04
	-2.199999998815422e+00	8.043766758204498e+00
	2.954060355643809e-09	-1.402325231808016e-01

3	-1.800000000000000e+00	8.100000000000000e+00
	-1.800000000000000e+00	1.142070991154832e+02
	-1.799999998818376e+00	7.998948913324003e+00
	2.526277137359334e-04	-1.799999998815422e+00
	7.998696285607313e+00	2.526277137359334e-04
	-1.799999998815422e+00	7.998696285607313e+00
	2.954059955535629e-09	-2.526277166899933e-01

4	-1.400000000000000e+00	8.100000000000000e+00
	-1.400000000000000e+00	1.439782333174230e+02
	-1.399999998818377e+00	7.955768541185753e+00
	3.605786440815581e-04	-1.399999998815423e+00
	7.955407962538717e+00	3.605786440815581e-04
	-1.399999998815423e+00	7.955407962538717e+00
	2.954058402901813e-09	-3.605786470356165e-01

5	-1.000000000000000e+00	8.100000000000000e+00
	-1.000000000000000e+00	1.567655970871167e+02
	-9.999999988183786e-01	7.920837268745448e+00
	4.479068251823244e-04	-9.999999988154246e-01
	7.920389361917311e+00	4.479068251823244e-04
	-9.999999988154246e-01	7.920389361917311e+00
	2.954054506226741e-09	-4.479068281363788e-01

6	-6.000000000000004e-01	8.100000000000000e+00
	-6.000000000000004e-01	1.587490309697349e+02
	-5.999999988183828e-01	7.895554898107561e+00
	5.111127517770506e-04	-5.999999988154288e-01
	7.895043785352831e+00	5.111127517770506e-04
	-5.999999988154288e-01	7.895043785352831e+00
	2.954044089290892e-09	-5.111127547310947e-01

7	-2.000000000000004e-01	8.100000000000000e+00
	-2.000000000000004e-01	1.567479236889470e+02
	-1.999999988183964e-01	7.877506351409583e+00
	5.562341185220323e-04	-1.999999988154424e-01
	7.876950117288107e+00	5.562341185220323e-04
	-1.999999988154424e-01	7.876950117288107e+00
	2.954009857511703e-09	-5.562341214760421e-01

8	1.999999999999996e-01	8.100000000000000e+00
	1.999999999999996e-01	1.536429709446377e+02
	2.000000011815541e-01	7.863126771093825e+00
	5.921830693115521e-04	2.000000011845080e-01
	7.862534588021559e+00	5.921830693115521e-04
	2.000000011845080e-01	7.862534588021559e+00
	2.953886141531895e-09	-5.921830722654383e-01

9	5.999999999999996e-01	8.100000000000000e+00
	5.999999999999996e-01	1.503306997878734e+02
	6.000000011813605e-01	7.851033973990627e+00
	6.224150620700292e-04	6.000000011843140e-01
	7.850411558925604e+00	6.224150620700292e-04
	6.000000011843140e-01	7.850411558925604e+00
	2.953402221789152e-09	-6.224150650234315e-01

10	1.000000000000000e+00	8.100000000000000e+00
	1.000000000000000e+00	1.473385228113799e+02
	1.000000001180535e+00	7.841239754069770e+00
	6.469006118742370e-04	1.000000001183486e+00
	7.840592853454945e+00	6.469006118742370e-04
	1.000000001183486e+00	7.840592853454945e+00
	2.951336410531721e-09	-6.469006148255734e-01

Plotname: DC ct1[1].dc1[4/6] <5DC_trans.txt>  VDGROUND.Vdc=12.1 V  VGGROUND.Vdc=(-3 V->1 V)
Flags: real 
No. Variables: 14     
No. Points: 11      
Variables:	0	VGGROUND.Vdc	none 
		1	n1	voltage plot=0 grid=1
		2	n2	voltage plot=0 grid=1
		3	n3	voltage plot=0 grid=1
		4	XCKT.Gi	voltage plot=0 grid=1
		5	XCKT.Di	voltage plot=0 grid=1
		6	XCKT.X1.Si	voltage plot=0 grid=1
		7	XCKT.X1.Gi	voltage plot=0 grid=1
		8	XCKT.X1.Di	voltage plot=0 grid=1
		9	XCKT.X1.Sii	voltage plot=0 grid=1
		10	XCKT.X1.Gii	voltage plot=0 grid=1
		11	XCKT.X1.Dii	voltage plot=0 grid=1
		12	VGGROUND.i	current plot=0 grid=1
		13	VDGROUND.i	current plot=0 grid=1
Values:
0	-3.000000000000000e+00	1.210000000000000e+01
	-3.000000000000000e+00	1.051503533065577e+01
	-2.999999998818376e+00	1.209487207504459e+01
	1.281980943446229e-05	-2.999999998815422e+00
	1.209485925523220e+01	1.281980943446229e-05
	-2.999999998815422e+00	1.209485925523220e+01
	2.954060399891594e-09	-1.281981238852269e-02

1	-2.600000000000000e+00	1.210000000000000e+01
	-2.600000000000000e+00	5.208540687698486e+01
	-2.599999998818376e+00	1.207398962145485e+01
	6.502594340881198e-05	-2.599999998815422e+00
	1.207392459550849e+01	6.502594340881198e-05
	-2.599999998815422e+00	1.207392459550849e+01
	2.954060395093360e-09	-6.502594636287237e-02

2	-2.200000000000000e+00	1.210000000000000e+01
	-2.200000000000000e+00	1.220105881212411e+02
	-2.199999998818376e+00	1.203584003870521e+01
	1.603999002829090e-04	-2.199999998815422e+00
	1.203567963880197e+01	1.603999002829090e-04
	-2.199999998815422e+00	1.203567963880197e+01
	2.954060241627523e-09	-1.603999032369692e-01

3	-1.800000000000000e+00	1.210000000000000e+01
	-1.800000000000000e+00	1.830990476193029e+02
	-1.799999998818377e+00	1.199619168189209e+01
	2.595207923157039e-04	-1.799999998815422e+00
	1.199593216109682e+01	2.595207923157039e-04
	-1.799999998815422e+00	1.199593216109682e+01
	2.954059124047485e-09	-2.595207952697630e-01

4	-1.400000000000000e+00	1.210000000000000e+01
	-1.400000000000000e+00	2.138064325683011e+02
	-1.399999998818378e+00	1.196631470164387e+01
	3.342132429362609e-04	-1.399999998815423e+00
	1.196598048839798e+01	3.342132429362609e-04
	-1.399999998815423e+00	1.196598048839798e+01
	2.954056977523401e-09	-3.342132458903179e-01

5	-1.000000000000000e+00	1.210000000000000e+01
	-1.000000000000000e+00	2.177552133211178e+02
	-9.999999988183783e-01	1.194679421503304e+01
	3.830144594633571e-04	-9.999999988154242e-01
	1.194641120057062e+01	3.830144594633571e-04
	-9.999999988154242e-01	1.194641120057062e+01
	2.954055379126513e-09	-3.830144624174124e-01

6	-6.000000000000004e-01	1.210000000000000e+01
	-6.000000000000004e-01	2.112627361871037e+02
	-5.999999988183787e-01	1.193043872448587e+01
	4.239031858312579e-04	-5.999999988154248e-01
	1.193001482129709e+01	4.239031858312579e-04
	-5.999999988154248e-01	1.193001482129709e+01
	2.954054100673016e-09	-4.239031887853120e-01

7	-2.000000000000004e-01	1.210000000000000e+01
	-2.000000000000004e-01	2.016537388926476e+02
	-1.999999988183795e-01	1.191384391463768e+01
	4.653902104517387e-04	-1.999999988154255e-01
	1.191337852442428e+01	4.653902104517387e-04
	-1.999999988154255e-01	1.191337852442428e+01
	2.954052177976613e-09	-4.653902134057909e-01

8	1.999999999999996e-01	1.210000000000000e+01
	1.999999999999996e-01	1.915031718244825e+02
	2.000000011816188e-01	1.189681368988606e+01
	5.079657723308067e-04	2.000000011845728e-01
	1.189630572411077e+01	5.079657723308067e-04
	2.000000011845728e-01	1.189630572411077e+01
	2.954047911222742e-09	-5.079657752848548e-01

9	5.999999999999996e-01	1.210000000000000e+01
	5.999999999999996e-01	1.824835001581006e+02
	6.000000011816140e-01	1.188095509013249e+01
	5.476122717147367e-04	6.000000011845681e-01
	1.188040747785782e+01	5.476122717147367e-04
	6.000000011845681e-01	1.188040747785782e+01
	2.954036016674625e-09	-5.476122746687727e-01

10	1.000000000000000e+00	1.210000000000000e+01
	1.000000000000000e+00	1.753971932411316e+02
	1.000000001181599e+00	1.186774451825050e+01
	5.806387014197430e-04	1.000000001184553e+00
	1.186716387954613e+01	5.806387014197430e-04
	1.000000001184553e+00	1.186716387954613e+01
	2.953998063083604e-09	-5.806387043737411e-01

Plotname: DC ct1[1].dc1[5/6] <5DC_trans.txt>  VDGROUND.Vdc=16.1 V  VGGROUND.Vdc=(-3 V->1 V)
Flags: real 
No. Variables: 14     
No. Points: 11      
Variables:	0	VGGROUND.Vdc	none 
		1	n1	voltage plot=0 grid=1
		2	n2	voltage plot=0 grid=1
		3	n3	voltage plot=0 grid=1
		4	XCKT.Gi	voltage plot=0 grid=1
		5	XCKT.Di	voltage plot=0 grid=1
		6	XCKT.X1.Si	voltage plot=0 grid=1
		7	XCKT.X1.Gi	voltage plot=0 grid=1
		8	XCKT.X1.Di	voltage plot=0 grid=1
		9	XCKT.X1.Sii	voltage plot=0 grid=1
		10	XCKT.X1.Gii	voltage plot=0 grid=1
		11	XCKT.X1.Dii	voltage plot=0 grid=1
		12	VGGROUND.i	current plot=0 grid=1
		13	VDGROUND.i	current plot=0 grid=1
Values:
0	-3.000000000000000e+00	1.610000000000000e+01
	-3.000000000000000e+00	1.685989229020036e+01
	-2.999999998818376e+00	1.609382369668964e+01
	1.544075532183277e-05	-2.999999998815422e+00
	1.609380825593137e+01	1.544075532183277e-05
	-2.999999998815422e+00	1.609380825593137e+01
	2.954060399844674e-09	-1.544075827589317e-02

1	-2.600000000000000e+00	1.610000000000000e+01
	-2.600000000000000e+00	8.503644650340898e+01
	-2.599999998818376e+00	1.606812722450497e+01
	7.968193578351747e-05	-2.599999998815422e+00
	1.606804754256623e+01	7.968193578351747e-05
	-2.599999998815422e+00	1.606804754256623e+01
	2.954060385259604e-09	-7.968193873757787e-02

2	-2.200000000000000e+00	1.610000000000000e+01
	-2.200000000000000e+00	1.702543636190793e+02
	-2.199999998818376e+00	1.603354250486792e+01
	1.661437348761311e-04	-2.199999998815422e+00
	1.603337636113010e+01	1.661437348761311e-04
	-2.199999998815422e+00	1.603337636113010e+01
	2.954059988520772e-09	-1.661437378301911e-01

3	-1.800000000000000e+00	1.610000000000000e+01
	-1.800000000000000e+00	2.329413069875785e+02
	-1.799999998818377e+00	1.600348753044995e+01
	2.412811709210859e-04	-1.799999998815423e+00
	1.600324624927607e+01	2.412811709210859e-04
	-1.799999998815423e+00	1.600324624927607e+01
	2.954058112594336e-09	-2.412811738751440e-01

4	-1.400000000000000e+00	1.610000000000000e+01
	-1.400000000000000e+00	2.538492986855394e+02
	-1.399999998818378e+00	1.598618392873210e+01
	2.845401752157080e-04	-1.399999998815424e+00
	1.598589938855393e+01	2.845401752157080e-04
	-1.399999998815424e+00	1.598589938855393e+01
	2.954056280499984e-09	-2.845401781697643e-01

5	-1.000000000000000e+00	1.610000000000000e+01
	-1.000000000000000e+00	2.531555989488138e+02
	-9.999999988183782e-01	1.597556691131837e+01
	3.110827187500189e-04	-9.999999988154241e-01
	1.597525582859667e+01	3.110827187500189e-04
	-9.999999988154241e-01	1.597525582859667e+01
	2.954055556645915e-09	-3.110827217040744e-01

6	-6.000000000000004e-01	1.610000000000000e+01
	-6.000000000000004e-01	2.465332353823190e+02
	-5.999999988183783e-01	1.596591529353147e+01
	3.352117632172664e-04	-5.999999988154243e-01
	1.596558008176530e+01	3.352117632172664e-04
	-5.999999988154243e-01	1.596558008176530e+01
	2.954055211586183e-09	-3.352117661713216e-01

7	-2.000000000000004e-01	1.610000000000000e+01
	-2.000000000000004e-01	2.378222772703410e+02
	-1.999999988183784e-01	1.595556794496447e+01
	3.610801346347662e-04	-1.999999988154244e-01
	1.595520686482688e+01	3.610801346347662e-04
	-1.999999988154244e-01	1.595520686482688e+01
