! VERSION = 6.00
BEGIN_HEADER
 ICCAP_INPUTS
  vd         V  P2 GROUND SMU_C 0.1 LIN        1    5          35         7    5         
  vg         V  P1 GROUND SMU_B 0.1 LIN        2    -2         -0.4       5    0.4       
  freq       F  CON        6000000000
 ICCAP_OUTPUTS
  S_deemb    S  P1 P2 GROUND n/a B
  id         I  P2 GROUND SMU_C B
  ig         I  P1 GROUND SMU_B B
  T          V  T GROUND n/a B
 ICCAP_VALUES
  MAIN.NF "8.000"
  MAIN.L "150.0n"
  MAIN.W "100.0u"
  TEMP "25.00"
  MAIN.TNOM "25.00"
END_HEADER

BEGIN_DB
 ICCAP_VAR vg         -2             
 ICCAP_VAR freq       6e+09          

 #vd                    R:S_deemb(1,1)        I:S_deemb(1,1)        R:S_deemb(1,2)        I:S_deemb(1,2)        R:S_deemb(2,1)        I:S_deemb(2,1)        R:S_deemb(2,2)        I:S_deemb(2,2)        id                    ig                    T                    
  5                     -0.772872159073       -0.394304314332       0.0665280344949       0.00376329621976      0.156371873087        3.34368455527         -0.386424156021       -0.25055572197        0.0850078423707       -4.70105608842e-09    10.1578048067        
  10                    -0.761065808748       -0.434100872185       0.0517583022581       0.00225603770949      0.359366256183        4.23973133352         -0.191326744041       -0.328149925988       0.129945752513        -1.9636880127e-08     31.2393119801        
  15                    -0.751824173182       -0.470713838926       0.0434765587733       0.00184711945695      0.482829156553        4.7798084322          -0.0287438987919      -0.389633154148       0.132192901318        -4.13658773266e-08    47.9626498141        
  20                    -0.74700154849        -0.497319220637       0.0380075301212       0.0021717477775       0.508811405966        5.08906892129         0.0920367143849       -0.417805267127       0.132733939072        -6.66860858508e-08    64.4163137735        
  25                    -0.743350248276       -0.519600002967       0.0334928202009       0.00270599353784      0.4827723004          5.32141934326         0.19927421307         -0.426621821743       0.132750651584        -9.36869955127e-08    80.6862967723        
  30                    -0.738382904756       -0.539398920201       0.0297435234267       0.0031352488105       0.439963231043        5.53386230915         0.294024624842        -0.427304719841       0.132273955155        -1.22097846324e-07    96.6023453487        
  35                    -0.733950878007       -0.55465164922        0.0267846109916       0.00332894576692      0.410350781229        5.69330651336         0.372989220305        -0.42646950164        0.131238143303        -1.51840800783e-07    111.927348836        
END_DB

BEGIN_DB
 ICCAP_VAR vg         -1.6           
 ICCAP_VAR freq       6e+09          

 #vd                    R:S_deemb(1,1)        I:S_deemb(1,1)        R:S_deemb(1,2)        I:S_deemb(1,2)        R:S_deemb(2,1)        I:S_deemb(2,1)        R:S_deemb(2,2)        I:S_deemb(2,2)        id                    ig                    T                    
  5                     -0.792427810114       -0.375689927753       0.0634627439311       0.0035195049531       0.148843792446        3.29892925139         -0.392749608768       -0.2358338251         0.188240295479        -3.33541868174e-09    21.8058314698        
  10                    -0.766665770485       -0.436522586918       0.0506855788706       0.00253186464171      0.321356146344        4.21210857455         -0.174057044126       -0.324459840696       0.230019370933        -2.0345065114e-08     54.4829197848        
  15                    -0.751401708036       -0.484884596877       0.0417187487929       0.00254106425387      0.376956479462        4.8169392681          -0.000505368871657    -0.383373852186       0.227820617822        -5.13597134077e-08    81.8878584966        
  20                    -0.729252996878       -0.531321407935       0.0367780694267       0.00349596014253      0.293092363258        5.31825277255         0.129781478777        -0.409528921119       0.22273880113         -9.2107261049e-08     107.386791425        
  25                    -0.686024017167       -0.591321034953       0.034188596716        0.00525118698948      0.0385958643766       5.92711562286         0.233733834112        -0.41524199326        0.217245779906        -1.38975853802e-07    131.393316382        
  30                    -0.614194570437       -0.667518950919       0.0316943441364       0.00720532514458      -0.407985414149       6.73539058539         0.324254145464        -0.420292234437       0.211308855795        -1.90724004146e-07    153.732291916        
  35                    -0.518299016233       -0.748518116669       0.0276755516958       0.00842362349773      -1.02275062326        7.64222794316         0.41420139684         -0.434044738748       0.204500822169        -2.46256169045e-07    173.879882741        
END_DB

BEGIN_DB
 ICCAP_VAR vg         -1.2           
 ICCAP_VAR freq       6e+09          

 #vd                    R:S_deemb(1,1)        I:S_deemb(1,1)        R:S_deemb(1,2)        I:S_deemb(1,2)        R:S_deemb(2,1)        I:S_deemb(2,1)        R:S_deemb(2,2)        I:S_deemb(2,2)        id                    ig                    T                    
  5                     -0.799310693807       -0.376044688946       0.0649343696722       0.00372551791355      0.134411221026        2.99510081716         -0.397952807564       -0.223944588125       0.298920428064        -3.35807132031e-09    33.4565966776        
  10                    -0.763941932308       -0.444991835923       0.0531675853483       0.00291764467204      0.290376458606        3.95289132915         -0.168890910456       -0.321332457629       0.320436014225        -2.39431663762e-08    74.8742165079        
  15                    -0.738554926749       -0.500542527052       0.0463975451276       0.00369349426634      0.268391858844        4.57270692542         -0.00835242382344     -0.373072419181       0.311403998268        -6.72437709432e-08    111.010248472        
  20                    -0.685781581307       -0.561171497805       0.0496991442023       0.00736919865781      -0.0420731363326      5.20060984417         0.0576440529182       -0.381975513628       0.29651456941         -1.2533053858e-07     142.181636823        
  25                    -0.544500339483       -0.666049613026       0.0591691621108       0.0170624801672       -0.904747625607       6.295615631           0.0518953471487       -0.401559962452       0.283714623402        -1.93230124281e-07    170.927446756        
  30                    -0.174191955533       -0.785741791077       0.0662422636034       0.038807462553        -3.38309878623        8.0499704878          0.0191860371512       -0.521586486639       0.271761604871        -2.69420809855e-07    197.131909661        
  35                    0.562678297465        -0.489587275997       0.0454510462427       0.0725109686745       -9.57213729646        7.71595868325         0.143540495681        -0.817129484543       0.258689116982        -3.51953693393e-07    219.458364655        
END_DB

BEGIN_DB
 ICCAP_VAR vg         -0.8           
 ICCAP_VAR freq       6e+09          

 #vd                    R:S_deemb(1,1)        I:S_deemb(1,1)        R:S_deemb(1,2)        I:S_deemb(1,2)        R:S_deemb(2,1)        I:S_deemb(2,1)        R:S_deemb(2,2)        I:S_deemb(2,2)        id                    ig                    T                    
  5                     -0.800241361183       -0.380078340171       0.068942854069        0.00393739125218      0.150058457256        2.62335120621         -0.395739941169       -0.216227493021       0.398146587861        -2.71012002583e-09    43.1647970376        
  10                    -0.759304277107       -0.452197235486       0.0576507313527       0.00349678669951      0.279569646608        3.5516690826          -0.17804373489        -0.311525218174       0.401195326545        -2.26901391266e-08    92.598467224         
  15                    -0.732462468198       -0.504571379023       0.0543636619792       0.0049513528227       0.196948179179        4.02325664824         -0.0458501134779      -0.352322260158       0.38465086027         -7.46250914365e-08    136.12475678         
  20                    -0.690556810205       -0.54189446421        0.0660303700286       0.0107822794705       -0.163989938419       4.46879405277         -0.0440515927197      -0.346591397634       0.356748251436        -1.48138866203e-07    170.304064599        
  25                    -0.580871069449       -0.617227801842       0.0839519200036       0.0245235854753       -0.926957224412       5.2979378167          -0.127260010547       -0.374096867987       0.332012236185        -2.31430207226e-07    199.457651067        
  30                    -0.296606025227       -0.725009226264       0.0991546270773       0.053657889588        -2.87722695571        6.78094633003         -0.247343096562       -0.536118626119       0.312553492785        -3.24874472186e-07    226.27069378         
  35                    0.334943362068        -0.577948201698       0.0847186069157       0.109264118668        -8.07198284594        7.28471786464         -0.231308449212       -0.993253783296       0.294769404435        -4.30602281787e-07    249.690742044        
END_DB

BEGIN_DB
 ICCAP_VAR vg         -0.4           
 ICCAP_VAR freq       6e+09          

 #vd                    R:S_deemb(1,1)        I:S_deemb(1,1)        R:S_deemb(1,2)        I:S_deemb(1,2)        R:S_deemb(2,1)        I:S_deemb(2,1)        R:S_deemb(2,2)        I:S_deemb(2,2)        id                    ig                    T                    
  5                     -0.804060935973       -0.37740557689        0.0733042543683       0.00393586971234      0.181584638823        2.2515071888          -0.392606848591       -0.2070605112         0.485087879528        -8.86336388978e-10    51.0984409021        
  10                    -0.758568612067       -0.45396814796        0.0633146910549       0.00369870548457      0.283598522652        3.10318844139         -0.186388605543       -0.303866871733       0.474739436874        -1.42513365939e-08    108.337723615        
  15                    -0.735011363849       -0.505124928427       0.0616943819013       0.00511985449349      0.177159520639        3.39253136286         -0.0673410102902      -0.344368528633       0.452145061731        -7.1226195302e-08     158.930759296        
  20                    -0.721152629249       -0.517357439096       0.0776256182398       0.0106684685299       -0.145118594212       3.61757222927         -0.0790052816614      -0.331711546771       0.412266027233        -1.65179631309e-07    195.997340418        
  25                    -0.67727822058        -0.55439200953        0.0969637504404       0.0208128257938       -0.606326793557       4.12750936584         -0.16235570659        -0.343770808731       0.37418596213         -2.66248965147e-07    224.235388134        
  30                    -0.567381627035       -0.634912431956       0.112294289478        0.0364234145351       -1.45637088253        5.1878008968          -0.271021471062       -0.428268189722       0.343278770586        -3.67198147668e-07    248.140878207        
  35                    -0.337656298064       -0.730291755879       0.121547871801        0.0613764073798       -3.30434053199        6.84332491834         -0.392932119043       -0.634523679662       0.31776353185         -4.77534477038e-07    268.909914163        
END_DB

