! VERSION = 6.00
BEGIN_HEADER
 ICCAP_INPUTS
  vg         V  P1 GROUND SMU_B 0.1 LIN        1    -2         -0.6       8    0.2       
  freq       F  LIN        3    1e+09      1.1e+10    3    5e+09     
  vd         V  P2 GROUND SMU_C 0.1 LIN        2    5          30         6    5         
 ICCAP_OUTPUTS
  S_deemb    S  P1 P2 GROUND n/a B
  id         I  P2 GROUND SMU_C B
  ig         I  P1 GROUND SMU_B B
  T          V  T GROUND n/a B
 ICCAP_VALUES
  MAIN.NF "8.000"
  MAIN.L "150.0n"
  MAIN.W "100.0u"
  TEMP "25.00"
  MAIN.TNOM "25.00"
END_HEADER

BEGIN_DB
 ICCAP_VAR freq       1e+09          
 ICCAP_VAR vd         5              

 #vg                    R:S_deemb(1,1)        I:S_deemb(1,1)        R:S_deemb(1,2)        I:S_deemb(1,2)        R:S_deemb(2,1)        I:S_deemb(2,1)        R:S_deemb(2,2)        I:S_deemb(2,2)        id                    ig                    T                    
  -2                    0.324582834577        -0.892941140622       0.0265795103895       0.0331902517998       -9.71080259914        8.05404781043         0.0270475566214       -0.338685156958       0.0850078423707       -4.70105608842e-09    10.1578048067        
  -1.8                  0.294202794415        -0.903465148192       0.0265216718446       0.0321729969432       -9.81380647573        8.37687494036         0.00734177277224      -0.335683720906       0.134933369894        -3.66143101924e-09    15.885205722         
  -1.6                  0.275215484737        -0.909981506058       0.0268327233293       0.0319639191764       -9.67109833176        8.39783741095         -0.00600357073465     -0.331529435878       0.188240295479        -3.33541868174e-09    21.8058314698        
  -1.4                  0.268851183984        -0.913165731078       0.0270554248579       0.0320867509677       -9.2965908607         8.10641118841         -0.0247650086073      -0.320226050599       0.244131151217        -3.32998637309e-09    27.7975282818        
  -1.2                  0.273840214897        -0.913124142539       0.0273640532795       0.0326764399892       -8.77189891839        7.60309997778         -0.0400180942373      -0.306565292853       0.298920428064        -3.35807132031e-09    33.4565966776        
  -1                    0.280795549143        -0.91210368801        0.0278873246724       0.0335720582558       -8.20572618091        7.06741145736         -0.0513644717569      -0.294059373011       0.350326835204        -3.20271542973e-09    38.5731221334        
  -0.8                  0.28304293987         -0.912010008573       0.028654584964        0.0345845808728       -7.64970463201        6.58758242191         -0.0617759077303      -0.283319751843       0.398146587861        -2.71012002583e-09    43.1647970376        
  -0.6                  0.279601266583        -0.913260776051       0.0296639743386       0.0356682440919       -7.10895667773        6.16370178898         -0.0722977324998      -0.27386037781        0.442926323511        -1.85959488502e-09    47.3178702993        
END_DB

BEGIN_DB
 ICCAP_VAR freq       1e+09          
 ICCAP_VAR vd         10             

 #vg                    R:S_deemb(1,1)        I:S_deemb(1,1)        R:S_deemb(1,2)        I:S_deemb(1,2)        R:S_deemb(2,1)        I:S_deemb(2,1)        R:S_deemb(2,2)        I:S_deemb(2,2)        id                    ig                    T                    
  -2                    0.403044857365        -0.86889721925        0.0188310517353       0.0255028590616       -12.0729025239        9.31720493684         0.249441302675        -0.32991740466        0.129945752513        -1.9636880127e-08     31.2393119801        
  -1.8                  0.403146463694        -0.870351831359       0.0183490553538       0.0249389976669       -12.0907503342        9.29959563871         0.248204161022        -0.321698554346       0.180889311213        -1.9082717975e-08     43.160268356         
  -1.6                  0.406752970593        -0.869882033425       0.0182309074702       0.0249213537933       -11.9633086061        9.14147214509         0.25127969699         -0.316863695773       0.230019370933        -2.0345065114e-08     54.4829197848        
  -1.4                  0.413882985935        -0.86756786674        0.018325697321        0.0252795948839       -11.6312362946        8.80679374576         0.252299094731        -0.311393424532       0.276646029751        -2.23087187111e-08    65.0706740917        
  -1.2                  0.424226424687        -0.863462149056       0.0185547000118       0.025930052598        -11.1399708448        8.33546462495         0.246469187775        -0.304257684537       0.320436014225        -2.39431663762e-08    74.8742165079        
  -1                    0.434080194554        -0.859240082376       0.0189442171371       0.0268075561311       -10.5438113539        7.80684392363         0.234968086336        -0.29627407729        0.361799104416        -2.43090073222e-08    84.009826415         
  -0.8                  0.439790523898        -0.856660630061       0.0195596139416       0.0278763528452       -9.91991192933        7.30905528909         0.222509156315        -0.289512337476       0.401195326545        -2.26901391266e-08    92.598467224         
  -0.6                  0.441354096816        -0.855904311683       0.0203991305373       0.0291178479105       -9.30488658797        6.859056628           0.211308541174        -0.284395966763       0.438857521999        -1.90387639898e-08    100.706404885        
END_DB

BEGIN_DB
 ICCAP_VAR freq       1e+09          
 ICCAP_VAR vd         15             

 #vg                    R:S_deemb(1,1)        I:S_deemb(1,1)        R:S_deemb(1,2)        I:S_deemb(1,2)        R:S_deemb(2,1)        I:S_deemb(2,1)        R:S_deemb(2,2)        I:S_deemb(2,2)        id                    ig                    T                    
  -2                    0.468670533215        -0.843753431681       0.0144034777246       0.0210519197707       -13.2879413199        9.56139099819         0.415537746255        -0.307701206326       0.132192901318        -4.13658773266e-08    47.9626498141        
  -1.8                  0.479620570217        -0.84005766744        0.0135491024437       0.0201755948064       -13.3429579713        9.42312637925         0.414477026739        -0.293422016114       0.180841726265        -4.44702948031e-08    65.3023250519        
  -1.6                  0.493597447987        -0.833883417962       0.0131202950526       0.0199432424219       -13.1989084904        9.12477994604         0.41952859791         -0.284274464313       0.227820617822        -5.13597134077e-08    81.8878584966        
  -1.4                  0.509479353234        -0.825423857528       0.0131752719539       0.0204767299285       -12.8303314753        8.67525053275         0.422308230293        -0.279868102483       0.271423689862        -5.96728723923e-08    97.1418541876        
  -1.2                  0.523564720398        -0.816880761235       0.0136984364619       0.0217272076597       -12.2952498035        8.15138016962         0.413372367852        -0.278785536648       0.311403998268        -6.72437709432e-08    111.010248472        
  -1                    0.531363975736        -0.811765712447       0.0145731890521       0.0233993156111       -11.5748853634        7.58604425197         0.393900865943        -0.277551529208       0.348847477584        -7.25124102769e-08    123.896104468        
  -0.8                  0.533326560274        -0.810486413469       0.0156215182036       0.0251752613971       -10.7229687576        7.004395307           0.37105382651         -0.274197762232       0.38465086027         -7.46250914365e-08    136.12475678         
  -0.6                  0.532810934995        -0.811077761372       0.0166967106675       0.0268818581926       -9.85371096158        6.44044140745         0.350343437056        -0.269188248663       0.419098247841        -7.37823328612e-08    147.80465547         
END_DB

BEGIN_DB
 ICCAP_VAR freq       1e+09          
 ICCAP_VAR vd         20             

 #vg                    R:S_deemb(1,1)        I:S_deemb(1,1)        R:S_deemb(1,2)        I:S_deemb(1,2)        R:S_deemb(2,1)        I:S_deemb(2,1)        R:S_deemb(2,2)        I:S_deemb(2,2)        id                    ig                    T                    
  -2                    0.512672695307        -0.824428348743       0.0116407565786       0.0180819191606       -13.8057991475        9.40305864764         0.515174309365        -0.279623120645       0.132733939072        -6.66860858508e-08    64.4163137735        
  -1.8                  0.535913312044        -0.81269201655        0.0104947951729       0.0169101126512       -13.9584928776        9.16708967514         0.523116754653        -0.261943394471       0.179062737193        -7.65470340065e-08    86.6063780111        
  -1.6                  0.568071966736        -0.792777260751       0.00999699546542      0.0169084959787       -13.9069790883        8.69470348937         0.532319917601        -0.253887274298       0.22273880113         -9.2107261049e-08     107.386791425        
  -1.4                  0.601605747622        -0.768150633466       0.0104347225221       0.0185969038983       -13.5784239598        8.05246868598         0.531087250205        -0.25833301209        0.262040398147        -1.09537583164e-07    125.970526185        
  -1.2                  0.622195518169        -0.750302602099       0.0117895298134       0.0217791336698       -13.0417533148        7.4552633798          0.511197689577        -0.272491632943       0.29651456941         -1.2533053858e-07     142.181636823        
  -1                    0.620584152612        -0.749616650891       0.0138069036584       0.0255608645996       -12.287376009         6.99405599958         0.477682900632        -0.287824580633       0.327528653214        -1.38058869128e-07    156.693823497        
  -0.8                  0.602748917909        -0.762459529494       0.0161360098149       0.0291602384901       -11.3694197723        6.6051680752          0.441814802806        -0.297908588545       0.356748251436        -1.48138866203e-07    170.304064599        
  -0.6                  0.580097203491        -0.779254468616       0.018462947759        0.0322983989145       -10.4060523839        6.21247279265         0.411621094544        -0.301603335492       0.384987805449        -1.56759775647e-07    183.400404313        
END_DB

BEGIN_DB
 ICCAP_VAR freq       1e+09          
 ICCAP_VAR vd         25             

 #vg                    R:S_deemb(1,1)        I:S_deemb(1,1)        R:S_deemb(1,2)        I:S_deemb(1,2)        R:S_deemb(2,1)        I:S_deemb(2,1)        R:S_deemb(2,2)        I:S_deemb(2,2)        id                    ig                    T                    
  -2                    0.546954024479        -0.807608021259       0.00954149024439      0.0156542827107       -14.0737357095        9.13461024205         0.588759849639        -0.250195568458       0.132750651584        -9.36869955127e-08    80.6862967723        
  -1.8                  0.585731035192        -0.78361409147        0.00824208297444      0.0143789502837       -14.3266864509        8.75073472122         0.605512895183        -0.230925240638       0.176735859749        -1.12725959093e-07    107.145635315        
  -1.6                  0.651154520509        -0.732924790545       0.00762643396982      0.0147933097795       -14.4694252099        7.94882415682         0.618627341926        -0.225652563246       0.217245779906        -1.38975853802e-07    131.393316382        
  -1.4                  0.72037298691         -0.665473613901       0.00804897286645      0.0177691931334       -14.3001140806        6.90760816757         0.61532255831         -0.239679914069       0.253168118322        -1.67486519277e-07    152.797912581        
  -1.2                  0.759659136498        -0.61773774351        0.00949728016425      0.0229509010072       -13.8553826859        6.11113174884         0.589382120918        -0.268888429944       0.283714623402        -1.93230124281e-07    170.927446756        
  -1                    0.755373282264        -0.619022102797       0.0119270437698       0.0287948029488       -13.1855783574        5.79063490235         0.54651741413         -0.30100224737        0.309410277249        -2.14060327296e-07    186.126844033        
  -0.8                  0.719906048194        -0.656714760508       0.0151121305186       0.034032133531        -12.337329339         5.75454996851         0.499700355055        -0.326166009255       0.332012236185        -2.31430207226e-07    199.457651067        
  -0.6                  0.672349028383        -0.703736975594       0.018592613156        0.0383472268235       -11.396166239         5.74084714711         0.46027012484         -0.341727462107       0.353313069972        -2.48174843524e-07    211.987960288        
END_DB

BEGIN_DB
 ICCAP_VAR freq       1e+09          
 ICCAP_VAR vd         30             

 #vg                    R:S_deemb(1,1)        I:S_deemb(1,1)        R:S_deemb(1,2)        I:S_deemb(1,2)        R:S_deemb(2,1)        I:S_deemb(2,1)        R:S_deemb(2,2)        I:S_deemb(2,2)        id                    ig                    T                    
  -2                    0.575407456884        -0.79178064929        0.00794067645742      0.0136760724657       -14.2831786722        8.88721673738         0.650515192191        -0.225121781179       0.132273955155        -1.22097846324e-07    96.6023453487        
  -1.8                  0.631396423801        -0.752149583302       0.00650211871581      0.0122699226138       -14.6647241991        8.33314841536         0.674658874726        -0.204432103991       0.173904071591        -1.52348697301e-07    126.749537227        
  -1.6                  0.735967363584        -0.65440542361        0.00554300369434      0.0126727659724       -15.0470807325        7.07288932828         0.692640844774        -0.198700630674       0.211308855795        -1.90724004146e-07    153.732291916        
  -1.4                  0.843466547524        -0.510533378642       0.00527946548746      0.0159423379649       -15.0540644542        5.39754162816         0.692828323491        -0.214723215642       0.244075145052        -2.31645685674e-07    177.287624636        
  -1.2                  0.899522314075        -0.400621211399       0.00571880073787      0.0218766338481       -14.7007004524        4.19203331591         0.670929831487        -0.2499808725         0.271761604871        -2.69420809855e-07    197.131909661        
  -1                    0.900094038823        -0.39267486562        0.00737639254621      0.0288312974222       -14.2370479946        3.93733944283         0.630361776161        -0.29357455951        0.294296375351        -3.00464465207e-07    213.243680426        
  -0.8                  0.862659104587        -0.463486155601       0.0105207927432       0.0352115112095       -13.6848800002        4.32590182943         0.581905454562        -0.33437373362        0.312553492785        -3.24874472186e-07    226.27069378         
  -0.6                  0.80319103868         -0.55693444106        0.0145967388193       0.0404168383958       -12.9742119775        4.85660693383         0.538849567601        -0.366021922192       0.32829018636         -3.45854403534e-07    237.480381918        
END_DB

BEGIN_DB
 ICCAP_VAR freq       6e+09          
 ICCAP_VAR vd         5              

 #vg                    R:S_deemb(1,1)        I:S_deemb(1,1)        R:S_deemb(1,2)        I:S_deemb(1,2)        R:S_deemb(2,1)        I:S_deemb(2,1)        R:S_deemb(2,2)        I:S_deemb(2,2)        id                    ig                    T                    
  -2                    -0.772872159073       -0.394304314332       0.0665280344949       0.00376329621976      0.156371873087        3.34368455527         -0.386424156021       -0.25055572197        0.0850078423707       -4.70105608842e-09    10.1578048067        
  -1.8                  -0.784443257168       -0.382511003365       0.0640832094888       0.00366819977488      0.154866758487        3.35941612243         -0.390914195302       -0.241209131707       0.134933369894        -3.66143101924e-09    15.885205722         
  -1.6                  -0.792427810114       -0.375689927753       0.0634627439311       0.0035195049531       0.148843792446        3.29892925139         -0.392749608768       -0.2358338251         0.188240295479        -3.33541868174e-09    21.8058314698        
  -1.4                  -0.797587457373       -0.373755964584       0.0636665441141       0.00356675117915      0.138902039135        3.1688690767          -0.396543924373       -0.229202083934       0.244131151217        -3.32998637309e-09    27.7975282818        
  -1.2                  -0.799310693807       -0.376044688946       0.0649343696722       0.00372551791355      0.134411221026        2.99510081716         -0.397952807564       -0.223944588125       0.298920428064        -3.35807132031e-09    33.4565966776        
  -1                    -0.799571154274       -0.379001916572       0.066846752089        0.00387142008127      0.138550411913        2.80867226289         -0.397155694113       -0.219992073614       0.350326835204        -3.20271542973e-09    38.5731221334        
  -0.8                  -0.800241361183       -0.380078340171       0.068942854069        0.00393739125218      0.150058457256        2.62335120621         -0.395739941169       -0.216227493021       0.398146587861        -2.71012002583e-09    43.1647970376        
  -0.6                  -0.801832760615       -0.378899456514       0.0711110430222       0.00391856538228      0.166430974302        2.44066335908         -0.394095093186       -0.212231236945       0.442926323511        -1.85959488502e-09    47.3178702993        
END_DB

BEGIN_DB
 ICCAP_VAR freq       6e+09          
 ICCAP_VAR vd         10             

 #vg                    R:S_deemb(1,1)        I:S_deemb(1,1)        R:S_deemb(1,2)        I:S_deemb(1,2)        R:S_deemb(2,1)        I:S_deemb(2,1)        R:S_deemb(2,2)        I:S_deemb(2,2)        id                    ig                    T                    
  -2                    -0.761065808748       -0.434100872185       0.0517583022581       0.00225603770949      0.359366256183        4.23973133352         -0.191326744041       -0.328149925988       0.129945752513        -1.9636880127e-08     31.2393119801        
  -1.8                  -0.765041085344       -0.434505781969       0.050634430826        0.00243827488725      0.3428389829          4.25057108837         -0.181817688006       -0.324667905392       0.180889311213        -1.9082717975e-08     43.160268356         
  -1.6                  -0.766665770485       -0.436522586918       0.0506855788706       0.00253186464171      0.321356146344        4.21210857455         -0.174057044126       -0.324459840696       0.230019370933        -2.0345065114e-08     54.4829197848        
  -1.4                  -0.766274353528       -0.440097886151       0.0515813625189       0.00265501322348      0.30472163438         4.10730923301         -0.168761921188       -0.324181440103       0.276646029751        -2.23087187111e-08    65.0706740917        
  -1.2                  -0.763941932308       -0.444991835923       0.0531675853483       0.00291764467204      0.290376458606        3.95289132915         -0.168890910456       -0.321332457629       0.320436014225        -2.39431663762e-08    74.8742165079        
  -1                    -0.761157182712       -0.449584082692       0.0552452300851       0.00324473382587      0.280852596281        3.76097932244         -0.173006976276       -0.316444190485       0.361799104416        -2.43090073222e-08    84.009826415         
