! VERSION = 6.00
BEGIN_HEADER
 ICCAP_INPUTS
  vg         V  G GROUND MPSMU1 0.01 LIN        1    -9         1.8        109  0.1       
  vd         V  D GROUND HPSMU2 1 CON        0
 ICCAP_OUTPUTS
  ig         I  G GROUND MPSMU1 B
  id         I  D GROUND HPSMU2 B
  T          V  T GROUND DEFAULT B
 ICCAP_VALUES
  MAIN.NF "8.000"
  MAIN.L "150.0n"
  MAIN.W "100.0u"
  TEMP "25.00"
  MAIN.TNOM "25.00"
END_HEADER

BEGIN_DB
 ICCAP_VAR vd         0              

 #vg                    ig                    id                    T                    
  -9                    -3.53496e-07          0.000274057           -2.65702e-06         
  -8.9                  -3.37118e-07          0.000268217           -2.54499e-06         
  -8.8                  -3.21243e-07          0.000261964           -2.42772e-06         
  -8.7                  -3.05867e-07          0.000255359           -2.30684e-06         
  -8.6                  -2.90988e-07          0.000248462           -2.18391e-06         
  -8.5                  -2.766e-07            0.000241331           -2.06035e-06         
  -8.4                  -2.62698e-07          0.00023402            -1.93741e-06         
  -8.3                  -2.49278e-07          0.000226577           -1.81613e-06         
  -8.2                  -2.3633e-07           0.00021904            -1.69732e-06         
  -8.1                  -2.23849e-07          0.000211439           -1.58156e-06         
  -8                    -2.11827e-07          0.000203789           -1.46919e-06         
  -7.9                  -2.00255e-07          0.000196093           -1.36033e-06         
  -7.8                  -1.89126e-07          0.000188342           -1.25491e-06         
  -7.7                  -1.78429e-07          0.000180508           -1.15269e-06         
  -7.6                  -1.68157e-07          0.000172553           -1.05332e-06         
  -7.5                  -1.583e-07            0.000164422           -9.56398e-07         
  -7.4                  -1.48849e-07          0.00015605            -8.61478e-07         
  -7.3                  -1.39795e-07          0.000147357           -7.68177e-07         
  -7.2                  -1.31128e-07          0.000138256           -6.76218e-07         
  -7.1                  -1.22839e-07          0.000128648           -5.85499e-07         
  -7                    -1.14919e-07          0.000118429           -4.96173e-07         
  -6.9                  -1.07358e-07          0.000107486           -4.08718e-07         
  -6.8                  -1.00148e-07          9.57047e-05           -3.24029e-07         
  -6.7                  -9.32782e-08          8.29658e-05           -2.43509e-07         
  -6.6                  -8.67403e-08          6.91493e-05           -1.69157e-07         
  -6.5                  -8.0525e-08           5.41352e-05           -1.03674e-07         
  -6.4                  -7.4623e-08           3.78052e-05           -5.056e-08           
  -6.3                  -6.90252e-08          2.00438e-05           -1.42116e-08         
  -6.2                  -6.37227e-08          7.40097e-07           -1.93203e-11         
  -6.1                  -5.87064e-08          -2.02109e-05          -1.44526e-08         
  -6                    -5.39674e-08          -4.29059e-05          -6.51307e-08         
  -5.9                  -4.94968e-08          -6.7431e-05           -1.60866e-07         
  -5.8                  -4.52858e-08          -9.38572e-05          -3.11656e-07         
  -5.7                  -4.13256e-08          -0.000122235          -5.286e-07           
  -5.6                  -3.76076e-08          -0.000152583          -8.23665e-07         
  -5.5                  -3.41231e-08          -0.000184879          -1.20924e-06         
  -5.4                  -3.08637e-08          -0.000219037          -1.69734e-06         
  -5.3                  -2.7821e-08           -0.000254884          -2.29837e-06         
  -5.2                  -2.49867e-08          -0.00029213           -3.01917e-06         
  -5.1                  -2.23527e-08          -0.000330329          -3.86037e-06         
  -5                    -1.99109e-08          -0.000368836          -4.81284e-06         
  -4.9                  -1.76535e-08          -0.000406761          -5.85346e-06         
  -4.8                  -1.55728e-08          -0.000442927          -6.94062e-06         
  -4.7                  -1.36614e-08          -0.000475843          -8.01053e-06         
  -4.6                  -1.19119e-08          -0.000503698          -8.97583e-06         
  -4.5                  -1.03175e-08          -0.000524402          -9.72886e-06         
  -4.4                  -8.87126e-09          -0.000535685          -1.0152e-05          
  -4.3                  -7.56687e-09          -0.000535283          -1.01368e-05         
  -4.2                  -6.39813e-09          -0.000521201          -9.61045e-06         
  -4.1                  -5.3592e-09           -0.000492054          -8.56564e-06         
  -4                    -4.44449e-09          -0.000447458          -7.08335e-06         
  -3.9                  -3.64855e-09          -0.000388396          -5.33682e-06         
  -3.8                  -2.96596e-09          -0.000317521          -3.5668e-06          
  -3.7                  -2.39111e-09          -0.000239322          -2.02628e-06         
  -3.6                  -1.91793e-09          -0.000160079          -9.06567e-07         
  -3.5                  -1.53972e-09          -8.74904e-05          -2.70804e-07         
  -3.4                  -1.24919e-09          -2.97951e-05          -3.14067e-08         
  -3.3                  -1.03895e-09          5.978e-06             -1.26428e-09         
  -3.2                  -9.02819e-10          1.7104e-05            -1.03497e-08         
  -3.1                  -8.37902e-10          1.0132e-05            -3.63181e-09         
  -3                    -8.47076e-10          7.63091e-06           -2.06008e-09         
  -2.9                  -9.39801e-10          5.39276e-05           -1.02886e-07         
  -2.8                  -1.12532e-09          0.000209113           -1.54702e-06         
  -2.7                  -1.38854e-09          0.000506359           -9.07091e-06         
  -2.6                  -1.65207e-09          0.00086274            -2.63326e-05         
  -2.5                  -1.77496e-09          0.00108694            -4.17966e-05         
  -2.4                  -1.64699e-09          0.00114141            -4.60911e-05         
  -2.3                  -1.30081e-09          0.00107828            -4.11335e-05         
  -2.2                  -8.83428e-10          0.000704181           -1.75429e-05         
  -2.1                  -5.26696e-10          0.000108336           -4.15224e-07         
  -2                    -2.80644e-10          -0.000397626          -5.5935e-06          
  -1.9                  -1.3442e-10           -0.000743122          -1.95368e-05         
  -1.8                  -5.69652e-11          -0.000979697          -3.39561e-05         
  -1.7                  -2.01889e-11          -0.00113132           -4.52801e-05         
  -1.6                  -5.12788e-12          -0.00118293           -4.95055e-05         
  -1.5                  -5.5004e-13           -0.0011225            -4.45768e-05         
  -1.4                  1.61985e-17           -0.000970883          -3.33478e-05         
  -1.3                  5.89174e-13           -0.000774181          -2.1204e-05          
  -1.2                  4.43602e-12           -0.000577262          -1.17891e-05         
  -1.1                  1.48416e-11           -0.00040533           -5.81235e-06         
  -1                    3.57467e-11           -0.000262139          -2.43107e-06         
  -0.9                  7.20087e-11           -0.000138216          -6.7585e-07          
  -0.8                  1.29324e-10           -2.08142e-05          -1.53268e-08         
  -0.7                  2.13521e-10           9.8555e-05            -3.4363e-07          
  -0.6                  3.28738e-10           0.000220016           -1.71255e-06         
  -0.5                  4.73822e-10           0.0003345             -3.95845e-06         
  -0.4                  6.36619e-10           0.000425667           -6.41023e-06         
  -0.3                  7.87566e-10           0.000473797           -7.94179e-06         
  -0.2                  8.79228e-10           0.000460648           -7.50708e-06         
  -0.1                  8.67266e-10           0.00037424            -4.9549e-06          
  0                     7.67351e-10           0.000212674           -1.60015e-06         
  0.1                   7.31522e-10           -1.37083e-05          -6.64811e-09         
  0.2                   1.29328e-09           -0.000282171          -2.81681e-06         
  0.3                   6.59893e-09           -0.000559631          -1.10799e-05         
  0.4                   6.34101e-08           -0.000806881          -2.30331e-05         
  0.5                   6.63124e-07           -0.000984962          -3.43212e-05         
  0.6                   6.16681e-06           -0.00106377           -4.00256e-05         
  0.7                   4.66283e-05           -0.00103341           -3.77222e-05         
  0.8                   0.000248518           -0.00091951           -2.96321e-05         
  0.9                   0.000772757           -0.00079978           -2.18724e-05         
  1                     0.00134967            -0.000818044          -2.23223e-05         
  1.1                   0.00191502            -0.00122526           -5.0237e-05          
  1.2                   0.00331939            -0.00241227           -0.000196057         
  1.3                   0.00789688            -0.00485779           -0.000787861         
  1.4                   0.0260736             -0.00855953           -0.0023186           
  1.5                   0.0721358             -0.0120993            -0.00410996          
  1.6                   0.137064              -0.0148621            -0.00531896          
  1.7                   0.21017               -0.0171501            -0.00599014          
  1.8                   0.287207              -0.0191727            -0.00625915          
END_DB

