! VERSION = 6.00
BEGIN_HEADER
 ICCAP_INPUTS
  vd         V  D GROUND SMU_C 0.1 LIN        2    0.1        20.1       6    4         
  vg         V  G GROUND SMU_B 0.1 LIN        1    -3         1          11   0.4       
 ICCAP_OUTPUTS
  id         I  D GROUND SMU_C B
  T          V  T GROUND n/a B
  ig         I  G GROUND SMU_B B
 ICCAP_VALUES
  MAIN.NF "8.000"
  MAIN.L "150.0n"
  MAIN.W "100.0u"
  TEMP "25.00"
  MAIN.TNOM "25.00"
END_HEADER

BEGIN_DB
 ICCAP_VAR vd         0.1            

 #vg                    id                    T                     ig                   
  -3                    -7.65557e-05          -0.000187769          -9.98864e-10         
  -2.6                  0.000511016           0.00124275            -1.80915e-09         
  -2.2                  0.00290896            0.00682757            -9.52868e-10         
  -1.8                  0.0145986             0.0282268             -7.0174e-11          
  -1.4                  0.0212428             0.0360803             -4.42428e-14         
  -1                    0.0241389             0.038526              2.02032e-11          
  -0.6                  0.0259406             0.0397481             2.2182e-10           
  -0.2                  0.0270482             0.0403853             6.10783e-10          
  0.2                   0.0271889             0.0404601             5.21052e-10          
  0.6                   0.0274258             0.0405826             3.0805e-06           
  1                     0.0286124             0.0410969             0.00115643           
END_DB

BEGIN_DB
 ICCAP_VAR vd         4.1            

 #vg                    id                    T                     ig                   
  -3                    5.71554e-06           0.000574125           -2.25371e-08         
  -2.6                  -0.000331708          -0.0333239            -1.3197e-08          
  -2.2                  0.0296491             2.94715               -5.32938e-09         
  -1.8                  0.11727               11.2933               -2.36717e-09         
  -1.4                  0.225555              20.8571               -1.92684e-09         
  -1                    0.335575              29.7245               -1.77369e-09         
  -0.6                  0.432667              36.8386               -9.93914e-10         
  -0.2                  0.516787              42.4628               -7.94953e-11         
  0.2                   0.581369              46.4411               6.0723e-11           
  0.6                   0.617383              48.5313               1.47387e-09          
  1                     0.634956              49.518                5.97361e-09          
END_DB

BEGIN_DB
 ICCAP_VAR vd         8.1            

 #vg                    id                    T                     ig                   
  -3                    0.000191156           0.0379337             -8.61085e-08         
  -2.6                  0.00378927            0.751472              -3.57362e-08         
  -2.2                  0.0721025             14.1248               -1.62105e-08         
  -1.8                  0.179417              34.4665               -1.20452e-08         
  -1.4                  0.278079              52.4491               -1.30349e-08         
  -1                    0.365562              67.8179               -1.33543e-08         
  -0.6                  0.445653              81.4136               -9.17824e-09         
  -0.2                  0.517296              93.1903               -2.94325e-09         
  0.2                   0.579067              103.053               -3.41898e-10         
  0.6                   0.6338                111.566               -1.05729e-11         
  1                     0.680357              118.641               3.14195e-13          
END_DB

BEGIN_DB
 ICCAP_VAR vd         12.1           

 #vg                    id                    T                     ig                   
  -3                    7.14481e-06           0.00211808            -1.93154e-07         
  -2.6                  0.00601265            1.78117               -6.58323e-08         
  -2.2                  0.081336              23.878                -3.17044e-08         
  -1.8                  0.181154              52.5421               -2.86505e-08         
  -1.4                  0.274813              78.7965               -3.58702e-08         
  -1                    0.357035              101.333               -4.12828e-08         
  -0.6                  0.431588              121.354               -3.67821e-08         
  -0.2                  0.500067              139.398               -2.62152e-08         
  0.2                   0.560301              154.995               -1.89614e-08         
  0.6                   0.608787              167.363               -1.67077e-08         
  1                     0.644847              176.454               -1.6896e-08          
END_DB

BEGIN_DB
 ICCAP_VAR vd         16.1           

 #vg                    id                    T                     ig                   
  -3                    -9.45025e-05          -0.0372768            -3.20014e-07         
  -2.6                  0.00727179            2.86649               -9.6211e-08          
  -2.2                  0.0839522             32.8656               -4.87543e-08         
  -1.8                  0.180535              70.0589               -5.10851e-08         
  -1.4                  0.269475              103.726               -6.98141e-08         
  -1                    0.344477              131.681               -8.59638e-08         
  -0.6                  0.412411              156.658               -9.06671e-08         
  -0.2                  0.474777              179.301               -8.95355e-08         
  0.2                   0.529726              199.023               -9.20897e-08         
  0.6                   0.574652              214.989               -1.00139e-07         
  1                     0.607337              226.514               -1.09491e-07         
END_DB

BEGIN_DB
 ICCAP_VAR vd         20.1           

 #vg                    id                    T                     ig                   
  -3                    -5.53651e-05          -0.0272646            -4.36185e-07         
  -2.6                  0.00820405            4.0377                -1.21223e-07         
  -2.2                  0.0854712             41.8318               -6.56695e-08         
  -1.8                  0.17902               87.0247               -7.72348e-08         
  -1.4                  0.261857              126.526               -1.10626e-07         
  -1                    0.327117              157.303               -1.39478e-07         
  -0.6                  0.384287              184.018               -1.58533e-07         
  -0.2                  0.437309              208.587               -1.76612e-07         
  0.2                   0.483654              229.9                 -1.98942e-07         
  0.6                   0.520596              246.779               -2.23337e-07         
  1                     0.546372              258.5                 -2.42891e-07         
END_DB

