! VERSION = 6.00
BEGIN_HEADER
 ICCAP_INPUTS
  freq       F  LIN        1    1e+08      2.51e+10   126  2e+08     
  vg         V  P1 GROUND DEFAULT 0 CON        -3
  vd         V  P2 GROUND DEFAULT 0 LIN        2    0          0.2        2    0.2       
 ICCAP_OUTPUTS
  S_deemb    S  P1 P2 GROUND n/a B
  id         I  P2 GROUND DEFAULT B
  ig         I  P1 GROUND DEFAULT B
  T          V  T GROUND DEFAULT B
 ICCAP_VALUES
  MAIN.NF "8.000"
  MAIN.L "150.0n"
  MAIN.W "100.0u"
  TEMP "25.00"
  MAIN.TNOM "25.00"
END_HEADER

BEGIN_DB
 ICCAP_VAR vg         -3             
 ICCAP_VAR vd         0              

 #freq                  R:S_deemb(1,1)        I:S_deemb(1,1)        R:S_deemb(1,2)        I:S_deemb(1,2)        R:S_deemb(2,1)        I:S_deemb(2,1)        R:S_deemb(2,2)        I:S_deemb(2,2)        id                    ig                    T                    
  100000000             0.998397              -0.0549631            0.000623645           0.0141386             -0.0704914            0.011623              1.01331               -0.032714             7.63091e-06           -8.47076e-10          -2.06008e-09         
  300000000             0.985676              -0.163758             0.00556263            0.0419029             -0.0666564            0.0345849             1.00844               -0.0978298            7.63091e-06           -8.47076e-10          -2.06008e-09         
  500000000             0.960764              -0.26924              0.0151845             0.0681687             -0.0591807            0.0563806             0.99881               -0.162006             7.63091e-06           -8.47076e-10          -2.06008e-09         
  700000000             0.924665              -0.369454             0.0290049             0.0920631             -0.048432             0.0763611             0.984674              -0.224672             7.63091e-06           -8.47076e-10          -2.06008e-09         
  900000000             0.878759              -0.462789             0.0463616             0.112883              -0.0349132            0.0939899             0.966357              -0.285331             7.63091e-06           -8.47076e-10          -2.06008e-09         
  1100000000            0.824674              -0.548048             0.0664782             0.130132              -0.0192142            0.108884              0.944257              -0.343577             7.63091e-06           -8.47076e-10          -2.06008e-09         
  1300000000            0.764151              -0.624469             0.0885308             0.143524              -0.00196153           0.120821              0.918811              -0.399098             7.63091e-06           -8.47076e-10          -2.06008e-09         
  1500000000            0.698924              -0.691706             0.111709              0.152979              0.0162276             0.129734              0.89047               -0.451681             7.63091e-06           -8.47076e-10          -2.06008e-09         
  1700000000            0.630624              -0.749773             0.135263              0.158588              0.034782              0.135687              0.859676              -0.501195             7.63091e-06           -8.47076e-10          -2.06008e-09         
  1900000000            0.560704              -0.798978             0.158539              0.160584              0.0532015             0.138848              0.826848              -0.547584             7.63091e-06           -8.47076e-10          -2.06008e-09         
  2100000000            0.490411              -0.839838             0.180995              0.159292              0.0710706             0.139463              0.792371              -0.590849             7.63091e-06           -8.47076e-10          -2.06008e-09         
  2300000000            0.420764              -0.873016             0.202207              0.155104              0.0880627             0.137819              0.756592              -0.631037             7.63091e-06           -8.47076e-10          -2.06008e-09         
  2500000000            0.352563              -0.899248             0.221865              0.148435              0.103937              0.134231              0.719819              -0.668228             7.63091e-06           -8.47076e-10          -2.06008e-09         
  2700000000            0.286409              -0.919299             0.239759              0.139705              0.118529              0.129012              0.682321              -0.702521             7.63091e-06           -8.47076e-10          -2.06008e-09         
  2900000000            0.222729              -0.93392              0.255772              0.129318              0.131741              0.122466              0.644331              -0.734032             7.63091e-06           -8.47076e-10          -2.06008e-09         
  3100000000            0.161801              -0.943828             0.269853              0.117649              0.143532              0.114875              0.606052              -0.762883             7.63091e-06           -8.47076e-10          -2.06008e-09         
  3300000000            0.103789              -0.949684             0.282015              0.105035              0.153902              0.106495              0.567659              -0.789201             7.63091e-06           -8.47076e-10          -2.06008e-09         
  3500000000            0.0487599             -0.952085             0.292308              0.0917764             0.162885              0.0975516             0.529303              -0.813111             7.63091e-06           -8.47076e-10          -2.06008e-09         
  3700000000            -0.00328726           -0.951568             0.300819              0.0781302             0.17054               0.0882408             0.491114              -0.834739             7.63091e-06           -8.47076e-10          -2.06008e-09         
  3900000000            -0.0524063            -0.948602             0.307654              0.0643157             0.176942              0.0787294             0.453206              -0.85421              7.63091e-06           -8.47076e-10          -2.06008e-09         
  4100000000            -0.0986876            -0.943596             0.312932              0.0505154             0.182176              0.069157              0.415674              -0.871642             7.63091e-06           -8.47076e-10          -2.06008e-09         
  4300000000            -0.142246             -0.936904             0.316779              0.0368789             0.186332              0.0596386             0.378602              -0.887153             7.63091e-06           -8.47076e-10          -2.06008e-09         
  4500000000            -0.183213             -0.92883              0.319325              0.0235264             0.189505              0.0502674             0.342062              -0.900855             7.63091e-06           -8.47076e-10          -2.06008e-09         
  4700000000            -0.221725             -0.919635             0.320696              0.0105522             0.191785              0.0411172             0.306116              -0.912858             7.63091e-06           -8.47076e-10          -2.06008e-09         
  4900000000            -0.257926             -0.909537             0.321016              -0.00197142           0.193262              0.0322453             0.270815              -0.923268             7.63091e-06           -8.47076e-10          -2.06008e-09         
  5100000000            -0.291956             -0.898724             0.320401              -0.013991             0.194022              0.0236949             0.236201              -0.932184             7.63091e-06           -8.47076e-10          -2.06008e-09         
  5300000000            -0.323952             -0.887353             0.318961              -0.025469             0.194145              0.0154972             0.202311              -0.939705             7.63091e-06           -8.47076e-10          -2.06008e-09         
  5500000000            -0.354047             -0.875558             0.316799              -0.0363813            0.193706              0.00767349            0.169173              -0.945925             7.63091e-06           -8.47076e-10          -2.06008e-09         
  5700000000            -0.382367             -0.863449             0.314009              -0.0467144            0.192774              0.000236848           0.13681               -0.950931             7.63091e-06           -8.47076e-10          -2.06008e-09         
  5900000000            -0.409032             -0.85112              0.310678              -0.056464             0.191412              -0.00680644           0.105239              -0.954811             7.63091e-06           -8.47076e-10          -2.06008e-09         
  6100000000            -0.434153             -0.83865              0.306884              -0.0656326            0.189679              -0.0134555            0.0744704             -0.957645             7.63091e-06           -8.47076e-10          -2.06008e-09         
  6300000000            -0.457835             -0.826103             0.302697              -0.0742286            0.187627              -0.0197139            0.0445125             -0.95951              7.63091e-06           -8.47076e-10          -2.06008e-09         
  6500000000            -0.480176             -0.813533             0.298183              -0.0822649            0.185303              -0.0255884            0.0153681             -0.960481             7.63091e-06           -8.47076e-10          -2.06008e-09         
  6700000000            -0.501267             -0.800985             0.293399              -0.0897576            0.182749              -0.0310886            -0.0129632            -0.960626             7.63091e-06           -8.47076e-10          -2.06008e-09         
  6900000000            -0.521191             -0.788497             0.288394              -0.0967254            0.180005              -0.0362261            -0.040485             -0.960011             7.63091e-06           -8.47076e-10          -2.06008e-09         
  7100000000            -0.540028             -0.776099             0.283216              -0.103189             0.177103              -0.0410139            -0.0672037            -0.958698             7.63091e-06           -8.47076e-10          -2.06008e-09         
  7300000000            -0.557849             -0.763815             0.277904              -0.109169             0.174074              -0.045466             -0.0931283            -0.956746             7.63091e-06           -8.47076e-10          -2.06008e-09         
  7500000000            -0.574722             -0.751666             0.272493              -0.114689             0.170945              -0.049597             -0.11827              -0.95421              7.63091e-06           -8.47076e-10          -2.06008e-09         
  7700000000            -0.590709             -0.739668             0.267016              -0.119771             0.167739              -0.0534219            -0.142641             -0.95114              7.63091e-06           -8.47076e-10          -2.06008e-09         
  7900000000            -0.605867             -0.727834             0.261498              -0.124438             0.164476              -0.0569559            -0.166255             -0.947585             7.63091e-06           -8.47076e-10          -2.06008e-09         
  8100000000            -0.620249             -0.716174             0.255964              -0.128713             0.161176              -0.0602141            -0.189129             -0.943589             7.63091e-06           -8.47076e-10          -2.06008e-09         
  8300000000            -0.633904             -0.704695             0.250435              -0.132616             0.157854              -0.0632112            -0.211278             -0.939195             7.63091e-06           -8.47076e-10          -2.06008e-09         
  8500000000            -0.646878             -0.693404             0.244928              -0.136171             0.154523              -0.0659618            -0.23272              -0.934441             7.63091e-06           -8.47076e-10          -2.06008e-09         
  8700000000            -0.659214             -0.682304             0.239459              -0.139396             0.151197              -0.0684799            -0.253473             -0.929365             7.63091e-06           -8.47076e-10          -2.06008e-09         
  8900000000            -0.670949             -0.671398             0.23404               -0.142313             0.147884              -0.0707793            -0.273556             -0.923998             7.63091e-06           -8.47076e-10          -2.06008e-09         
  9100000000            -0.682122             -0.660687             0.228683              -0.14494              0.144594              -0.0728729            -0.292985             -0.918373             7.63091e-06           -8.47076e-10          -2.06008e-09         
  9300000000            -0.692765             -0.650171             0.223397              -0.147296             0.141335              -0.0747732            -0.311782             -0.912519             7.63091e-06           -8.47076e-10          -2.06008e-09         
  9500000000            -0.70291              -0.639851             0.21819               -0.149399             0.138113              -0.0764923            -0.329964             -0.906461             7.63091e-06           -8.47076e-10          -2.06008e-09         
  9700000000            -0.712585             -0.629725             0.213068              -0.151263             0.134933              -0.0780416            -0.34755              -0.900225             7.63091e-06           -8.47076e-10          -2.06008e-09         
  9900000000            -0.721819             -0.619792             0.208037              -0.152906             0.1318                -0.0794317            -0.364559             -0.893834             7.63091e-06           -8.47076e-10          -2.06008e-09         
  10100000000           -0.730636             -0.610049             0.2031                -0.154342             0.128717              -0.080673             -0.38101              -0.887309             7.63091e-06           -8.47076e-10          -2.06008e-09         
  10300000000           -0.73906              -0.600494             0.198261              -0.155585             0.125688              -0.0817752            -0.396921             -0.880668             7.63091e-06           -8.47076e-10          -2.06008e-09         
  10500000000           -0.747113             -0.591125             0.193522              -0.156647             0.122716              -0.0827472            -0.412309             -0.873929             7.63091e-06           -8.47076e-10          -2.06008e-09         
  10700000000           -0.754815             -0.581937             0.188885              -0.157543             0.119801              -0.0835979            -0.427193             -0.86711              7.63091e-06           -8.47076e-10          -2.06008e-09         
  10900000000           -0.762186             -0.572928             0.184351              -0.158282             0.116945              -0.0843352            -0.44159              -0.860224             7.63091e-06           -8.47076e-10          -2.06008e-09         
  11100000000           -0.769243             -0.564095             0.17992               -0.158876             0.11415               -0.0849668            -0.455516             -0.853285             7.63091e-06           -8.47076e-10          -2.06008e-09         
  11300000000           -0.776003             -0.555433             0.175593              -0.159336             0.111415              -0.0854998            -0.468988             -0.846306             7.63091e-06           -8.47076e-10          -2.06008e-09         
  11500000000           -0.782482             -0.54694              0.171369              -0.15967              0.108742              -0.085941             -0.482023             -0.839298             7.63091e-06           -8.47076e-10          -2.06008e-09         
  11700000000           -0.788695             -0.538611             0.167247              -0.159888             0.10613               -0.0862966            -0.494634             -0.832272             7.63091e-06           -8.47076e-10          -2.06008e-09         
  11900000000           -0.794655             -0.530444             0.163228              -0.159999             0.103579              -0.0865726            -0.506839             -0.825237             7.63091e-06           -8.47076e-10          -2.06008e-09         
  12100000000           -0.800375             -0.522434             0.159308              -0.160009             0.101089              -0.0867745            -0.51865              -0.818202             7.63091e-06           -8.47076e-10          -2.06008e-09         
  12300000000           -0.805867             -0.514577             0.155488              -0.159927             0.0986588             -0.0869074            -0.530083             -0.811174             7.63091e-06           -8.47076e-10          -2.06008e-09         
  12500000000           -0.811143             -0.506871             0.151765              -0.159759             0.0962884             -0.0869763            -0.541151             -0.804161             7.63091e-06           -8.47076e-10          -2.06008e-09         
  12700000000           -0.816213             -0.499311             0.148137              -0.159512             0.0939767             -0.0869855            -0.551867             -0.797169             7.63091e-06           -8.47076e-10          -2.06008e-09         
  12900000000           -0.821088             -0.491893             0.144604              -0.159192             0.0917229             -0.0869395            -0.562244             -0.790204             7.63091e-06           -8.47076e-10          -2.06008e-09         
  13100000000           -0.825776             -0.484615             0.141163              -0.158804             0.089526              -0.0868421            -0.572294             -0.783271             7.63091e-06           -8.47076e-10          -2.06008e-09         
  13300000000           -0.830288             -0.477473             0.137812              -0.158353             0.087385              -0.0866971            -0.58203              -0.776375             7.63091e-06           -8.47076e-10          -2.06008e-09         
  13500000000           -0.83463              -0.470463             0.134549              -0.157845             0.0852986             -0.0865078            -0.591462             -0.76952              7.63091e-06           -8.47076e-10          -2.06008e-09         
  13700000000           -0.838812             -0.463583             0.131372              -0.157284             0.083266              -0.0862777            -0.600601             -0.762709             7.63091e-06           -8.47076e-10          -2.06008e-09         
  13900000000           -0.84284              -0.456828             0.12828               -0.156674             0.0812857             -0.0860096            -0.609459             -0.755947             7.63091e-06           -8.47076e-10          -2.06008e-09         
  14100000000           -0.846722             -0.450195             0.125269              -0.156018             0.0793568             -0.0857063            -0.618046             -0.749236             7.63091e-06           -8.47076e-10          -2.06008e-09         
