! VERSION = 6.00
BEGIN_HEADER
 ICCAP_INPUTS
  vd         V  D GROUND SMU_C 0.1 LIN        1    0          60         121  0.5       
  vg         V  G GROUND SMU_B 0.1 LIN        2    -2.8       1.8        24   0.2       
 ICCAP_OUTPUTS
  id         I  D GROUND SMU_C B
  ig         I  G GROUND SMU_B B
  T          V  T GROUND n/a B
 ICCAP_VALUES
  MAIN.NF "8.000"
  MAIN.L "150.0n"
  MAIN.W "100.0u"
  TEMP "25.00"
  MAIN.TNOM "25.00"
END_HEADER

BEGIN_DB
 ICCAP_VAR vg         -2.8           

 #vd                    id                    ig                    T                    
  0                     0.000209113           -1.12532e-09          -1.54702e-06         
  0.5                   -0.000457389          -2.01686e-09          -0.00561041          
  1                     -0.000348157          -3.18138e-09          -0.00853414          
  1.5                   -8.57015e-06          -4.63707e-09          -0.000314956         
  2                     0.000236796           -6.40315e-09          0.011601             
  2.5                   0.00029004            -8.49713e-09          0.0177619            
  3                     0.00016426            -1.09343e-08          0.0120722            
  3.5                   -7.12367e-05          -1.3728e-08           -0.00610872          
  4                     -0.000327065          -1.68908e-08          -0.0320561           
  4.5                   -0.000526979          -2.04343e-08          -0.0581093           
  5                     -0.000626138          -2.4369e-08           -0.0767157           
  5.5                   -0.000611457          -2.87032e-08          -0.082407            
  6                     -0.000494024          -3.34417e-08          -0.0726301           
  6.5                   -0.000301868          -3.85847e-08          -0.0480757           
  7                     -7.39471e-05          -4.41264e-08          -0.0126821           
  7.5                   0.000147416           -5.00544e-08          0.0270869            
  8                     0.000326322           -5.63498e-08          0.0639554            
  8.5                   0.000441539           -6.29892e-08          0.0919437            
  9                     0.000488598           -6.99463e-08          0.107727             
  9.5                   0.000475739           -7.71935e-08          0.11072              
  10                    0.000417824           -8.47024e-08          0.102361             
  10.5                  0.000331587           -9.24439e-08          0.0852967            
  11                    0.000232789           -1.00389e-07          0.0627347            
  11.5                  0.00013455            -1.08506e-07          0.0379088            
  12                    4.64157e-05           -1.16766e-07          0.0136461            
  12.5                  -2.58899e-05          -1.25136e-07          -0.0079288           
  13                    -8.00887e-05          -1.33584e-07          -0.0255085           
  13.5                  -0.000116564          -1.42075e-07          -0.0385542           
  14                    -0.000137435          -1.50578e-07          -0.0471408           
  14.5                  -0.000145696          -1.59058e-07          -0.0517592           
  15                    -0.000144559          -1.67482e-07          -0.0531261           
  15.5                  -0.000137006          -1.7582e-07           -0.0520288           
  16                    -0.000125548          -1.84041e-07          -0.0492154           
  16.5                  -0.000112125          -1.9212e-07           -0.0453269           
  17                    -9.81165e-05          -2.0003e-07           -0.0408658           
  17.5                  -8.44062e-05          -2.0775e-07           -0.0361894           
  18                    -7.14736e-05          -2.15261e-07          -0.03152             
  18.5                  -5.94941e-05          -2.22544e-07          -0.0269658           
  19                    -4.84317e-05          -2.29587e-07          -0.022545            
  19.5                  -3.81194e-05          -2.36376e-07          -0.0182116           
  20                    -2.83247e-05          -2.42903e-07          -0.0138791           
  20.5                  -1.87984e-05          -2.49159e-07          -0.0094415           
  21                    -9.30978e-06          -2.55139e-07          -0.00478988          
  21.5                  3.3078e-07            -2.60839e-07          0.000174238          
  22                    1.02597e-05           -2.66255e-07          0.00552997           
  22.5                  2.0556e-05            -2.71387e-07          0.0113315            
  23                    3.12429e-05           -2.76234e-07          0.0176053            
  23.5                  4.22937e-05           -2.80796e-07          0.0243505            
  24                    5.36399e-05           -2.85074e-07          0.0315402            
  24.5                  6.51806e-05           -2.8907e-07           0.0391245            
  25                    7.67916e-05           -2.92787e-07          0.0470346            
  25.5                  8.83351e-05           -2.96226e-07          0.0551871            
  26                    9.96671e-05           -2.99391e-07          0.0634875            
  26.5                  0.000110644           -3.02284e-07          0.0718351            
  27                    0.000121128           -3.04908e-07          0.0801255            
  27.5                  0.000130991           -3.07267e-07          0.0882548            
  28                    0.000140119           -3.09363e-07          0.0961209            
  28.5                  0.00014841            -3.11199e-07          0.103627             
  29                    0.000155779           -3.12777e-07          0.11068              
  29.5                  0.000162156           -3.14102e-07          0.117197             
  30                    0.000167485           -3.15174e-07          0.1231               
  30.5                  0.000171726           -3.15997e-07          0.128321             
  31                    0.000174851           -3.16574e-07          0.132798             
  31.5                  0.000176847           -3.16907e-07          0.13648              
  32                    0.000177708           -3.16998e-07          0.139322             
  32.5                  0.000177444           -3.16852e-07          0.141288             
  33                    0.000176068           -3.1647e-07           0.14235              
  33.5                  0.000173606           -3.15859e-07          0.142486             
  34                    0.000170089           -3.15022e-07          0.141683             
  34.5                  0.000165554           -3.13966e-07          0.139933             
  35                    0.000160043           -3.12698e-07          0.137236             
  35.5                  0.000153605           -3.11227e-07          0.133597             
  36                    0.00014629            -3.09565e-07          0.129027             
  36.5                  0.000138152           -3.07723e-07          0.123542             
  37                    0.000129249           -3.05718e-07          0.117164             
  37.5                  0.00011964            -3.03565e-07          0.109919             
  38                    0.000109386           -3.01283e-07          0.101838             
  38.5                  9.85484e-05           -2.98892e-07          0.0929554            
  39                    8.71907e-05           -2.96414e-07          0.0833104            
  39.5                  7.53763e-05           -2.93871e-07          0.0729452            
  40                    6.31691e-05           -2.91285e-07          0.0619055            
  40.5                  5.06331e-05           -2.88678e-07          0.0502406            
  41                    3.78321e-05           -2.86073e-07          0.0380023            
  41.5                  2.48298e-05           -2.8349e-07           0.0252456            
  42                    1.16893e-05           -2.80948e-07          0.0120283            
  42.5                  -1.52637e-06          -2.78466e-07          -0.00158934          
  43                    -1.4755e-05           -2.76059e-07          -0.0155444           
  43.5                  -2.79347e-05          -2.73742e-07          -0.0297714           
  44                    -4.10041e-05          -2.71525e-07          -0.0442025           
  44.5                  -5.39023e-05          -2.69418e-07          -0.058767            
  45                    -6.65688e-05          -2.67427e-07          -0.0733922           
  45.5                  -7.89436e-05          -2.65554e-07          -0.0880025           
  46                    -9.09668e-05          -2.638e-07            -0.10252             
  46.5                  -0.000102579          -2.62158e-07          -0.116863            
  47                    -0.000113721          -2.60621e-07          -0.13095             
  47.5                  -0.000124333          -2.59178e-07          -0.144693            
  48                    -0.000134356          -2.57814e-07          -0.158003            
  48.5                  -0.000143731          -2.56514e-07          -0.170789            
  49                    -0.000152399          -2.55264e-07          -0.182956            
  49.5                  -0.000160301          -2.54047e-07          -0.194405            
  50                    -0.000167376          -2.52852e-07          -0.205037            
  50.5                  -0.000173566          -2.51666e-07          -0.214746            
  51                    -0.000178812          -2.50477e-07          -0.223426            
  51.5                  -0.000183052          -2.49273e-07          -0.230967            
  52                    -0.000186228          -2.48042e-07          -0.237256            
  52.5                  -0.00018828           -2.46768e-07          -0.242176            
  53                    -0.000189147          -2.45434e-07          -0.245609            
  53.5                  -0.000188771          -2.44017e-07          -0.247433            
  54                    -0.000187092          -2.42489e-07          -0.247523            
  54.5                  -0.00018405           -2.40818e-07          -0.245754            
  55                    -0.000179587          -2.38962e-07          -0.241994            
  55.5                  -0.000173644          -2.36876e-07          -0.236114            
  56                    -0.000166164          -2.34504e-07          -0.227978            
  56.5                  -0.000157091          -2.31786e-07          -0.217453            
  57                    -0.000146367          -2.28657e-07          -0.204402            
  57.5                  -0.000133938          -2.25048e-07          -0.188686            
  58                    -0.000119751          -2.20898e-07          -0.170166            
  58.5                  -0.000103753          -2.16153e-07          -0.148704            
  59                    -8.58933e-05          -2.10785e-07          -0.124159            
  59.5                  -6.61237e-05          -2.04798e-07          -0.096392            
  60                    -4.43972e-05          -1.9824e-07           -0.0652639           
END_DB

BEGIN_DB
 ICCAP_VAR vg         -2.6           

 #vd                    id                    ig                    T                    
  0                     0.00086274            -1.65207e-09          -2.63326e-05         
  0.5                   -0.000338316          -2.49312e-09          -0.00414842          
  1                     -0.000287429          -3.47682e-09          -0.00704492          
  1.5                   0.00019622            -4.61316e-09          0.00720971           
  2                     0.000518908           -5.91033e-09          0.025417             
  2.5                   0.000537777           -7.37308e-09          0.0329286            
  3                     0.000316379           -9.00416e-09          0.0232503            
  3.5                   -8.88284e-06          -1.08058e-08          -0.000761706         
  4                     -0.000291431          -1.27808e-08          -0.0285633           
  4.5                   -0.000414325          -1.49332e-08          -0.0456854           
  5                     -0.000309312          -1.72671e-08          -0.0378941           
  5.5                   4.34104e-05           -1.97863e-08          0.00584949           
  6                     0.000621126           -2.24925e-08          0.0912919            
  6.5                   0.00136296            -2.53832e-08          0.216985             
  7                     0.00217889            -2.84501e-08          0.373511             
  7.5                   0.00297159            -3.16779e-08          0.545717             
  8                     0.00366593            -3.50472e-08          0.718047             
  8.5                   0.00422826            -3.85377e-08          0.879901             
  9                     0.00466353            -4.21314e-08          1.02754              
  9.5                   0.0049974             -4.58126e-08          1.16226              
  10                    0.00525896            -4.95672e-08          1.28747              
  10.5                  0.0054724             -5.33817e-08          1.40672              
  11                    0.00565582            -5.72424e-08          1.52311              
  11.5                  0.00582235            -6.11358e-08          1.63925              
  12                    0.00598122            -6.50486e-08          1.75721              
  12.5                  0.00613837            -6.89676e-08          1.87854              
  13                    0.00629683            -7.28798e-08          2.00414              
  13.5                  0.00645735            -7.6772e-08           2.13429              
  14                    0.00661912            -8.06313e-08          2.26881              
  14.5                  0.00678042            -8.44452e-08          2.40712              
  15                    0.0069393             -8.82019e-08          2.54849              
  15.5                  0.00709391            -9.189e-08            2.69213              
  16                    0.0072428             -9.54994e-08          2.83732              
  16.5                  0.00738494            -9.9021e-08           2.98343              
  17                    0.00751979            -1.02447e-07          3.12999              
  17.5                  0.00764722            -1.0577e-07           3.27668              
  18                    0.00776739            -1.08985e-07          3.42328              
  18.5                  0.00788071            -1.12088e-07          3.56973              
  19                    0.00798773            -1.15074e-07          3.71603              
  19.5                  0.00808906            -1.17941e-07          3.86223              
  20                    0.00818534            -1.20688e-07          4.00845              
  20.5                  0.00827719            -1.23313e-07          4.15479              
  21                    0.00836515            -1.25816e-07          4.30139              
  21.5                  0.0084497             -1.28198e-07          4.44835              
  22                    0.00853122            -1.30458e-07          4.59575              
  22.5                  0.00861001            -1.32598e-07          4.74364              
  23                    0.0086863             -1.34619e-07          4.89206              
  23.5                  0.00876022            -1.36522e-07          5.04098              
  24                    0.00883187            -1.38309e-07          5.19038              
  24.5                  0.00890126            -1.39982e-07          5.34018              
  25                    0.00896839            -1.41542e-07          5.4903               
  25.5                  0.00903323            -1.42991e-07          5.64062              
  26                    0.00909571            -1.44332e-07          5.79104              
  26.5                  0.00915579            -1.45564e-07          5.94143              
  27                    0.00921339            -1.46691e-07          6.09165              
  27.5                  0.00926847            -1.47715e-07          6.24159              
  28                    0.00932097            -1.48635e-07          6.39111              
  28.5                  0.00937088            -1.49455e-07          6.54011              
  29                    0.00941817            -1.50176e-07          6.68847              
  29.5                  0.00946284            -1.508e-07            6.8361               
  30                    0.0095049             -1.51327e-07          6.9829               
  30.5                  0.00954438            -1.5176e-07           7.12882              
  31                    0.00958133            -1.521e-07            7.27377              
  31.5                  0.00961579            -1.52349e-07          7.41771              
  32                    0.00964782            -1.52508e-07          7.5606               
  32.5                  0.00967751            -1.5258e-07           7.7024               
  33                    0.00970491            -1.52567e-07          7.84309              
  33.5                  0.00973013            -1.5247e-07           7.98265              
  34                    0.00975325            -1.52294e-07          8.12109              
  34.5                  0.00977437            -1.52039e-07          8.2584               
  35                    0.00979357            -1.51711e-07          8.39459              
  35.5                  0.00981098            -1.51311e-07          8.52969              
  36                    0.00982668            -1.50846e-07          8.66371              
  36.5                  0.00984077            -1.5032e-07           8.79668              
  37                    0.00985338            -1.49737e-07          8.92865              
  37.5                  0.0098646             -1.49105e-07          9.05965              
  38                    0.00987453            -1.48429e-07          9.18974              
  38.5                  0.00988329            -1.47717e-07          9.31896              
  39                    0.00989099            -1.46976e-07          9.44737              
  39.5                  0.00989772            -1.46213e-07          9.57505              
  40                    0.00990359            -1.45437e-07          9.70205              
  40.5                  0.00990873            -1.44654e-07          9.82846              
  41                    0.00991322            -1.43874e-07          9.95435              
  41.5                  0.00991718            -1.43104e-07          10.0798              
  42                    0.00992071            -1.4235e-07           10.2049              
  42.5                  0.00992392            -1.4162e-07           10.3298              
  43                    0.00992693            -1.4092e-07           10.4545              
  43.5                  0.00992983            -1.40257e-07          10.5792              
  44                    0.00993274            -1.39635e-07          10.704               
  44.5                  0.00993576            -1.39059e-07          10.829               
  45                    0.00993901            -1.38532e-07          10.9543              
  45.5                  0.00994259            -1.38055e-07          11.08                
  46                    0.00994662            -1.37629e-07          11.2063              
