! VERSION = 6.00
BEGIN_HEADER
 ICCAP_INPUTS
  vg         V  P1 GROUND SMU_B 0.1 CON        -2.4
  vd         V  P2 GROUND SMU_C 0.1 CON        25
  freq       F  LIN        1    1e+08      2.51e+10   126  2e+08     
 ICCAP_OUTPUTS
  S_deemb    S  P1 P2 GROUND n/a B
  id         I  P2 GROUND SMU_C B
  ig         I  P1 GROUND SMU_B B
  T          V  T GROUND n/a B
 ICCAP_VALUES
  MAIN.NF "8.000"
  MAIN.L "150.0n"
  MAIN.W "100.0u"
  TEMP "25.00"
  MAIN.TNOM "25.00"
END_HEADER

BEGIN_DB
 ICCAP_VAR vg         -2.4           
 ICCAP_VAR vd         25             

 #freq                  R:S_deemb(1,1)        I:S_deemb(1,1)        R:S_deemb(1,2)        I:S_deemb(1,2)        R:S_deemb(2,1)        I:S_deemb(2,1)        R:S_deemb(2,2)        I:S_deemb(2,2)        id                    ig                    T                    
  100000000             0.994233861525        -0.103430390751       0.00016186089012      0.00270997732028      -17.0482208016        1.06267814439         0.756861439831        -0.0365337983781      0.0420414669701       -9.2882157676e-08     25.6878621041        
  300000000             0.949672274602        -0.302881042797       0.00142316173166      0.00791815919508      -16.5850700755        3.1106098923          0.743373180457        -0.107377727668       0.0420414669656       -9.28821576722e-08    25.6878621014        
  500000000             0.866654514303        -0.481794254999       0.00377113113825      0.0125394494802       -15.7223190794        4.94485825035         0.718214812582        -0.172099859879       0.0420414669656       -9.28821576722e-08    25.6878621014        
  700000000             0.755433237133        -0.631361378339       0.00691251858802      0.0163222651669       -14.5666861338        6.47370223382         0.684439584492        -0.228068640999       0.0420414669656       -9.28821576722e-08    25.6878621014        
  900000000             0.627571980854        -0.747976689993       0.0105165903812       0.0191638529192       -13.2385337496        7.65962412587         0.645491306582        -0.274203881398       0.0420414669656       -9.28821576722e-08    25.6878621014        
  1100000000            0.493519114985        -0.832484394871       0.0142845274897       0.021088748578        -11.8466158885        8.51142955793         0.604481985765        -0.310750606975       0.0420414669656       -9.28821576722e-08    25.6878621014        
  1300000000            0.361277412256        -0.88860100335        0.0179874827562       0.0222036480258       -10.4742295452        9.06782278239         0.563795683701        -0.338809178679       0.0420414669656       -9.28821576722e-08    25.6878621014        
  1500000000            0.236129420505        -0.921330603165       0.0214744365181       0.0226520747982       -9.17635615462        9.38091056126         0.525006742119        -0.359863416233       0.0420414669656       -9.28821576722e-08    25.6878621014        
  1700000000            0.121012403327        -0.935809766823       0.0246614710557       0.022581337582        -7.98356436057        9.50417858566         0.488991418523        -0.375436668066       0.0420414669656       -9.28821576722e-08    25.6878621014        
  1900000000            0.0171329599008       -0.936654525186       0.0275141888965       0.0221238495073       -6.90840760687        9.48569402166         0.456110886474        -0.386897378239       0.0420414669656       -9.28821576722e-08    25.6878621014        
  2100000000            -0.07543608095        -0.927695720035       0.0300306381351       0.0213895571742       -5.95163722242        9.36535073284         0.426388957381        -0.395380295888       0.0420414669656       -9.28821576722e-08    25.6878621014        
  2300000000            -0.157284596791       -0.911951084234       0.0322278371316       0.0204651413756       -5.10710574298        9.17457861662         0.39965233546         -0.40177817138        0.0420414669656       -9.28821576722e-08    25.6878621014        
  2500000000            -0.229336483033       -0.891713415739       0.0341323718754       0.0194165387495       -4.36518824934        8.93726136925         0.375628479439        -0.406768019679       0.0420414669656       -9.28821576722e-08    25.6878621014        
  2700000000            -0.292640088426       -0.868679120249       0.0357744009013       0.0182926182171       -3.71496374522        8.67107445262         0.354007994244        -0.41084940332        0.0420414669656       -9.28821576722e-08    25.6878621014        
  2900000000            -0.34824504           -0.844077280154       0.0371841313772       0.017128872503        -3.14549730912        8.38882854237         0.334481299488        -0.414382871711       0.0420414669656       -9.28821576722e-08    25.6878621014        
  3100000000            -0.397136409382       -0.818782115573       0.0383899354348       0.0159506346114       -2.6465253813         8.0996401068          0.316758223973        -0.417623454942       0.0420414669656       -9.28821576722e-08    25.6878621014        
  3300000000            -0.440204522436       -0.793404026975       0.0394174860644       0.0147756816516       -2.20877004081        7.80987904381         0.30057698688         -0.420747779713       0.0420414669656       -9.28821576722e-08    25.6878621014        
  3500000000            -0.478235657375       -0.76836018508        0.0402894905108       0.0136162536396       -1.82403585554        7.5239034273          0.285706959           -0.423875094893       0.0420414669656       -9.28821576722e-08    25.6878621014        
  3700000000            -0.511914196872       -0.743927809008       0.0410257512935       0.0124805771244       -1.48518750873        7.24461405774         0.271948013182        -0.427083141914       0.0420414669656       -9.28821576722e-08    25.6878621014        
  3900000000            -0.5418304794         -0.720283686379       0.0416433902389       0.0113739952957       -1.18606810303        6.973865807           0.259128177531        -0.430419928117       0.0420414669656       -9.28821576722e-08    25.6878621014        
  4100000000            -0.568490987895       -0.697533154641       0.042157139357        0.0102997966609       -0.92139313615        6.7127692671          0.247100592428        -0.433912361575       0.0420414669656       -9.28821576722e-08    25.6878621014        
  4300000000            -0.592329004883       -0.675731190292       0.0425796450491       0.00925981800199      -0.686639621843       6.46191025193         0.235740328449        -0.437572535444       0.0420414669656       -9.28821576722e-08    25.6878621014        
  4500000000            -0.61371476128        -0.654897671504       0.0429217578218       0.0082548806967       -0.477940481556       6.22150865176         0.224941354887        -0.441402276849       0.0420414669656       -9.28821576722e-08    25.6878621014        
  4700000000            -0.632964629923       -0.635028377458       0.0431927946681       0.00728510512254      -0.291988880047       5.99153291319         0.21461379259         -0.445396425772       0.0420414669656       -9.28821576722e-08    25.6878621014        
  4900000000            -0.650349209416       -0.616102885643       0.0434007696998       0.00635013636264      -0.125954111858       5.77178223177         0.204681497118        -0.449545189721       0.0420414669656       -9.28821576722e-08    25.6878621014        
  5100000000            -0.666100301452       -0.598090219761       0.0435525931252       0.00544930560237      0.0225909942321       5.56194533259         0.195079971339        -0.453835828054       0.0420414669656       -9.28821576722e-08    25.6878621014        
  5300000000            -0.680416862396       -0.580952869869       0.0436542408847       0.00458174499914      0.15573199381         5.36164230936         0.185754583425        -0.458253851055       0.0420414669656       -9.28821576722e-08    25.6878621014        
  5500000000            -0.693470042228       -0.564649636192       0.0437108981815       0.00374646893733      0.275265245876        5.1704542208          0.17665905663         -0.462783868199       0.0420414669656       -9.28821576722e-08    25.6878621014        
  5700000000            -0.705407431527       -0.549137623667       0.0437270803629       0.0029424310241       0.38274208856         4.9879438488          0.167754194932        -0.467410182979       0.0420414669656       -9.28821576722e-08    25.6878621014        
  5900000000            -0.716356632029       -0.534373624052       0.043706734457        0.00216856359957      0.479505974304        4.81367008352         0.159006810183        -0.47211720485        0.0420414669656       -9.28821576722e-08    25.6878621014        
  6100000000            -0.726428255321       -0.52031505706        0.0436533243607       0.0014238046649       0.566723652893        4.64719771987         0.150388819666        -0.476889729344       0.0420414669656       -9.28821576722e-08    25.6878621014        
  6300000000            -0.735718441209       -0.506920594683       0.0435699022958       0.00070711577938      0.645411355209        4.48810395816         0.141876486828        -0.48171312335        0.0420414669656       -9.28821576722e-08    25.6878621014        
  6500000000            -0.744310974224       -0.494150558725       0.0434591687829       1.74934999593e-05     0.716456794714        4.33598254541         0.133449781861        -0.486573442377       0.0420414669656       -9.28821576722e-08    25.6878621014        
  6700000000            -0.752279064681       -0.48196715678        0.0433235230324       -0.00064602377178     0.780637677916        4.19044623663         0.125091842368        -0.491457499251       0.0420414669656       -9.28821576722e-08    25.6878621014        
  6900000000            -0.759686849983       -0.470334603988       0.043165105347        -0.00128435218266     0.83863730354         4.05112806859         0.116788517573        -0.496352898366       0.0420414669656       -9.28821576722e-08    25.6878621014        
  7100000000            -0.766590662598       -0.45921916488        0.0429858328673       -0.00189836108104     0.891057733914        3.91768180298         0.108527982263        -0.501248045707       0.0420414669656       -9.28821576722e-08    25.6878621014        
  7300000000            -0.773040103319       -0.44858914016        0.0427874297633       -0.00248887322049     0.93843094041         3.78978179789         0.100300408983        -0.506132142101       0.0420414669656       -9.28821576722e-08    25.6878621014        
  7500000000            -0.779078951825       -0.438414816406       0.0425714527908       -0.00305666600157     0.981228256276        3.66712249425         0.092097688976        -0.510995165044       0.0420414669656       -9.28821576722e-08    25.6878621014        
  7700000000            -0.784745941087       -0.428668391632       0.0423393129727       -0.00360247338278     1.0198684132          3.54941765229         0.0839131939743       -0.515827843007       0.0420414669656       -9.28821576722e-08    25.6878621014        
  7900000000            -0.790075417606       -0.419323886015       0.0420922940336       -0.00412698819621     1.05472439061         3.43639943449         0.0757415723091       -0.520621624997       0.0420414669656       -9.28821576722e-08    25.6878621014        
  8100000000            -0.795097905753       -0.410357044406       0.0418315681133       -0.00463086468032     1.08612926778         3.32781740396         0.067578573912        -0.525368647396       0.0420414669656       -9.28821576722e-08    25.6878621014        
  8300000000            -0.799840591354       -0.401745235307       0.0415582091902       -0.00511472109747     1.11438123641         3.22343748687         0.059420899708        -0.530061699463       0.0420414669656       -9.28821576722e-08    25.6878621014        
  8500000000            -0.804327737114       -0.393467349557       0.041273204578        -0.00557914234491     1.13974790497         3.1230409326          0.0512660716527       -0.534694188531       0.0420414669656       -9.28821576722e-08    25.6878621014        
  8700000000            -0.808581040406       -0.385503700964       0.0409774647948       -0.00602468249718     1.16247000414         3.02642329483         0.043112320293        -0.539260105554       0.0420414669656       -9.28821576722e-08    25.6878621014        
  8900000000            -0.812619942164       -0.377835930334       0.040671832057        -0.00645186723955     1.18276458448         2.93339344864         0.0349584872452       -0.543753991493       0.0420414669656       -9.28821576722e-08    25.6878621014        
  9100000000            -0.816461894224       -0.370446913845       0.0403570876057       -0.00686119616739     1.20082778274         2.84377265319         0.0268039404088       -0.548170904824       0.0420414669656       -9.28821576722e-08    25.6878621014        
  9300000000            -0.820122591261       -0.363320676287       0.0400339580436       -0.00725314493771     1.21683722077         2.75739366568         0.0186485000865       -0.552506390358       0.0420414669656       -9.28821576722e-08    25.6878621014        
  9500000000            -0.823616172468       -0.356442309448       0.039703120829        -0.00762816726667     1.23095409071         2.67409990907         0.0104923744714       -0.556756449487       0.0420414669656       -9.28821576722e-08    25.6878621014        
  9700000000            -0.82695539735        -0.349797895689       0.0393652090504       -0.00798669677272     1.24332497174         2.59374469425         0.00233610320325      -0.560917511882       0.0420414669656       -9.28821576722e-08    25.6878621014        
  9900000000            -0.830151799283       -0.343374436676       0.0390208155876       -0.00832914866852     1.25408341664         2.51619049595         -0.00581949210245     -0.564986408649       0.0420414669656       -9.28821576722e-08    25.6878621014        
  10100000000           -0.833215819946       -0.337159787072       0.0386704967473       -0.00865592130743     1.26335134027         2.44130828059         -0.0139733512831      -0.568960346926       0.0420414669656       -9.28821576722e-08    25.6878621014        
  10300000000           -0.836156927269       -0.331142593013       0.0383147754482       -0.00896739759201     1.2712402376          2.36897688384         -0.0221242138065      -0.572836885873       0.0420414669656       -9.28821576722e-08    25.6878621014        
  10500000000           -0.838983719124       -0.325312235089       0.0379541440181       -0.00926394625284     1.2778522544          2.29908243527         -0.0302706523702      -0.576613913995       0.0420414669656       -9.28821576722e-08    25.6878621014        
  10700000000           -0.841704014665       -0.319658775576       0.0375890666589       -0.00954592300638     1.28328113035         2.23151782711         -0.0384111025005      -0.58028962774        0.0420414669656       -9.28821576722e-08    25.6878621014        
  10900000000           -0.844324934962       -0.314172909648       0.0372199816243       -0.0098136716008      1.28761303175         2.16618222434         -0.0465438886445      -0.583862511307       0.0420414669656       -9.28821576722e-08    25.6878621014        
  11100000000           -0.84685297429        -0.308845920278       0.0368473031487       -0.0100675247586      1.29092728796         2.10298061317         -0.0546672471798      -0.587331317604       0.0420414669656       -9.28821576722e-08    25.6878621014        
  11300000000           -0.849294063306       -0.303669636589       0.0364714231629       -0.0103078050246      1.29329704423         2.04182338509         -0.0627793467102      -0.590695050277       0.0420414669656       -9.28821576722e-08    25.6878621014        
  11500000000           -0.851653625114       -0.298636395376       0.0360927128233       -0.0105348255268      1.29478984148         1.98262595378         -0.070878305963       -0.593952946763       0.0420414669656       -9.28821576722e-08    25.6878621014        
  11700000000           -0.853936625107       -0.293739005564       0.0357115238799       -0.0107488906594      1.29546813219         1.92530840239         -0.0789622095641      -0.597104462302       0.0420414669656       -9.28821576722e-08    25.6878621014        
  11900000000           -0.856147615364       -0.288970715388       0.0353281899049       -0.0109502966929      1.29538974033         1.86979515867         -0.0870291219303      -0.600149254843       0.0420414669656       -9.28821576722e-08    25.6878621014        
  12100000000           -0.85829077425        -0.284325182057       0.034943027399        -0.0111393323198      1.29460827225         1.81601469581         -0.0950770994876      -0.60308717081        0.0420414669656       -9.28821576722e-08    25.6878621014        
  12300000000           -0.860369941792       -0.27979644373        0.0345563367912       -0.011316279142       1.29317348425         1.76389925687         -0.1031042014         -0.605918231654       0.0420414669656       -9.28821576722e-08    25.6878621014        
  12500000000           -0.86238865134        -0.275378893597       0.0341684033462       -0.0114814121044      1.29113161224         1.71338460077         -0.111108498966       -0.608642621167       0.0420414669656       -9.28821576722e-08    25.6878621014        
  12700000000           -0.86435015793        -0.271067255916       0.0337794979904       -0.0116349998812      1.28852566775         1.66440976823         -0.119088083832       -0.611260673501       0.0420414669656       -9.28821576722e-08    25.6878621014        
  12900000000           -0.866257463742       -0.266856563831       0.033389878067        -0.0117773052194      1.28539570424         1.61691686585         -0.127041075138       -0.613772861855       0.0420414669656       -9.28821576722e-08    25.6878621014        
  13100000000           -0.868113340974       -0.262742138847       0.0329997880279       -0.011908585244       1.2817790572          1.57085086687         -0.134965625712       -0.616179787794       0.0420414669656       -9.28821576722e-08    25.6878621014        
  13300000000           -0.869920352424       -0.258719571805       0.0326094600713       -0.0120290917287      1.27771056084         1.52615942727         -0.142859927415       -0.618482171165       0.0420414669656       -9.28821576722e-08    25.6878621014        
  13500000000           -0.871680870034       -0.254784705265       0.0322191147309       -0.0121390713357      1.27322274415         1.48279271589         -0.150722215712       -0.620680840577       0.0420414669656       -9.28821576722e-08    25.6878621014        
  13700000000           -0.873397091611       -0.250933617159       0.0318289614211       -0.0122387658289      1.26834600838         1.44070325735         -0.158550773565       -0.622776724408       0.0420414669656       -9.28821576722e-08    25.6878621014        
  13900000000           -0.875071055939       -0.24716260563        0.0314391989456       -0.0123284122625      1.26310878829         1.39984578687         -0.166343934699       -0.624770842329       0.0420414669656       -9.28821576722e-08    25.6878621014        
  14100000000           -0.876704656433       -0.243468174954       0.0310500159712       -0.0124082431476      1.25753769846         1.36017711576         -0.174100086315       -0.626664297298       0.0420414669656       -9.28821576722e-08    25.6878621014        
  14300000000           -0.878299653499       -0.239847022465       0.0306615914723       -0.0124784866011      1.25165766674         1.32165600703         -0.181817671314       -0.628458268009       0.0420414669656       -9.28821576722e-08    25.6878621014        
