! VERSION = 6.00
BEGIN_HEADER
 ICCAP_INPUTS
  freq       F  LIN        1    1e+08      2.51e+10   51   5e+08     
  vg         V  P1 GROUND DEFAULT 0 CON        1.6
  vd         V  P2 GROUND DEFAULT 0 CON        0
 ICCAP_OUTPUTS
  S_deemb    S  P1 P2 GROUND n/a B
  id         I  P2 GROUND DEFAULT B
  ig         I  P1 GROUND DEFAULT B
  T          V  T GROUND DEFAULT B
 ICCAP_VALUES
  MAIN.NF "8.000"
  MAIN.L "150.0n"
  MAIN.W "100.0u"
  TEMP "25.00"
  MAIN.TNOM "25.00"
END_HEADER

BEGIN_DB
 ICCAP_VAR vg         1.6            
 ICCAP_VAR vd         0              

 #freq                  R:S_deemb(1,1)        I:S_deemb(1,1)        R:S_deemb(1,2)        I:S_deemb(1,2)        R:S_deemb(2,1)        I:S_deemb(2,1)        R:S_deemb(2,2)        I:S_deemb(2,2)        id                    ig                    T                    
  100000000             -0.959472             0.00036695            0.04065               -2.03098e-06          0.0029303             8.60158e-05           -0.875666             -8.17688e-05          -0.0148621            0.137064              -0.00531896          
  600000000             -0.959469             0.00220181            0.0406453             -1.97726e-05          0.00293117            0.00051612            -0.875676             -0.000506832          -0.0148621            0.137064              -0.00531896          
  1100000000            -0.959463             0.00403666            0.0406338             -3.6287e-05           0.00293328            0.000946211           -0.875699             -0.000929332          -0.0148621            0.137064              -0.00531896          
  1600000000            -0.959452             0.0058715             0.0406156             -5.23085e-05          0.00293662            0.00137628            -0.875737             -0.0013509            -0.0148621            0.137064              -0.00531896          
  2100000000            -0.959438             0.00770632            0.0405906             -6.76865e-05          0.0029412             0.00180632            -0.875788             -0.00177128           -0.0148621            0.137064              -0.00531896          
  2600000000            -0.95942              0.00954113            0.040559              -8.22371e-05          0.00294702            0.00223633            -0.875852             -0.00219012           -0.0148621            0.137064              -0.00531896          
  3100000000            -0.959398             0.0113759             0.0405207             -9.5771e-05           0.00295407            0.00266629            -0.87593              -0.00260707           -0.0148621            0.137064              -0.00531896          
  3600000000            -0.959372             0.0132107             0.0404757             -0.000108098          0.00296236            0.00309619            -0.876022             -0.00302179           -0.0148621            0.137064              -0.00531896          
  4100000000            -0.959342             0.0150454             0.0404242             -0.00011903           0.00297188            0.00352603            -0.876128             -0.00343393           -0.0148621            0.137064              -0.00531896          
  4600000000            -0.959308             0.0168801             0.0403661             -0.000128379          0.00298262            0.0039558             -0.876246             -0.00384313           -0.0148621            0.137064              -0.00531896          
  5100000000            -0.95927              0.0187147             0.0403015             -0.000135961          0.0029946             0.00438549            -0.876378             -0.00424905           -0.0148621            0.137064              -0.00531896          
  5600000000            -0.959229             0.0205493             0.0402306             -0.000141591          0.0030078             0.00481509            -0.876524             -0.00465136           -0.0148621            0.137064              -0.00531896          
  6100000000            -0.959184             0.0223839             0.0401532             -0.000145091          0.00302222            0.0052446             -0.876682             -0.00504972           -0.0148621            0.137064              -0.00531896          
  6600000000            -0.959134             0.0242184             0.0400697             -0.000146282          0.00303787            0.005674              -0.876853             -0.00544381           -0.0148621            0.137064              -0.00531896          
  7100000000            -0.959081             0.0260528             0.0399799             -0.000144992          0.00305472            0.00610328            -0.877037             -0.00583329           -0.0148621            0.137064              -0.00531896          
  7600000000            -0.959024             0.0278872             0.039884              -0.000141048          0.0030728             0.00653245            -0.877233             -0.00621786           -0.0148621            0.137064              -0.00531896          
  8100000000            -0.958964             0.0297216             0.0397821             -0.000134285          0.00309208            0.00696149            -0.877442             -0.0065972            -0.0148621            0.137064              -0.00531896          
  8600000000            -0.958899             0.0315558             0.0396742             -0.000124539          0.00311256            0.00739039            -0.877664             -0.00697102           -0.0148621            0.137064              -0.00531896          
  9100000000            -0.95883              0.03339               0.0395606             -0.000111652          0.00313425            0.00781915            -0.877897             -0.00733901           -0.0148621            0.137064              -0.00531896          
  9600000000            -0.958758             0.0352241             0.0394412             -9.54669e-05          0.00315713            0.00824776            -0.878142             -0.00770089           -0.0148621            0.137064              -0.00531896          
  10100000000           -0.958682             0.0370582             0.0393162             -7.58347e-05          0.00318121            0.00867621            -0.878399             -0.00805638           -0.0148621            0.137064              -0.00531896          
  10600000000           -0.958602             0.0388922             0.0391858             -5.26091e-05          0.00320648            0.0091045             -0.878667             -0.0084052            -0.0148621            0.137064              -0.00531896          
  11100000000           -0.958518             0.040726              0.0390499             -2.56486e-05          0.00323292            0.00953261            -0.878947             -0.0087471            -0.0148621            0.137064              -0.00531896          
  11600000000           -0.95843              0.0425598             0.0389089             5.18342e-06           0.00326055            0.00996055            -0.879237             -0.00908183           -0.0148621            0.137064              -0.00531896          
  12100000000           -0.958338             0.0443935             0.0387627             4.00185e-05           0.00328935            0.0103883             -0.879539             -0.00940913           -0.0148621            0.137064              -0.00531896          
  12600000000           -0.958243             0.0462271             0.0386115             7.89834e-05           0.00331932            0.0108159             -0.879851             -0.00972877           -0.0148621            0.137064              -0.00531896          
  13100000000           -0.958143             0.0480607             0.0384554             0.0001222             0.00335045            0.0112432             -0.880173             -0.0100405            -0.0148621            0.137064              -0.00531896          
  13600000000           -0.95804              0.0498941             0.0382947             0.000169784           0.00338274            0.0116704             -0.880505             -0.0103442            -0.0148621            0.137064              -0.00531896          
  14100000000           -0.957933             0.0517274             0.0381293             0.000221846           0.00341618            0.0120974             -0.880847             -0.0106395            -0.0148621            0.137064              -0.00531896          
  14600000000           -0.957822             0.0535606             0.0379595             0.000278493           0.00345077            0.0125241             -0.881199             -0.0109264            -0.0148621            0.137064              -0.00531896          
  15100000000           -0.957708             0.0553937             0.0377854             0.000339826           0.0034865             0.0129507             -0.88156              -0.0112045            -0.0148621            0.137064              -0.00531896          
  15600000000           -0.957589             0.0572267             0.0376072             0.000405938           0.00352337            0.013377              -0.88193              -0.0114738            -0.0148621            0.137064              -0.00531896          
  16100000000           -0.957467             0.0590596             0.0374249             0.000476919           0.00356136            0.0138031             -0.882309             -0.011734             -0.0148621            0.137064              -0.00531896          
  16600000000           -0.95734              0.0608924             0.0372388             0.000552855           0.00360048            0.0142289             -0.882696             -0.0119851            -0.0148621            0.137064              -0.00531896          
  17100000000           -0.95721              0.0627251             0.037049              0.000633822           0.00364072            0.0146546             -0.883091             -0.0122268            -0.0148621            0.137064              -0.00531896          
  17600000000           -0.957076             0.0645577             0.0368557             0.000719896           0.00368207            0.0150799             -0.883494             -0.012459             -0.0148621            0.137064              -0.00531896          
  18100000000           -0.956939             0.0663901             0.0366589             0.000811143           0.00372452            0.0155051             -0.883905             -0.0126816            -0.0148621            0.137064              -0.00531896          
  18600000000           -0.956797             0.0682224             0.0364589             0.000907626           0.00376807            0.01593               -0.884323             -0.0128945            -0.0148621            0.137064              -0.00531896          
  19100000000           -0.956652             0.0700546             0.0362558             0.0010094             0.00381272            0.0163546             -0.884749             -0.0130975            -0.0148621            0.137064              -0.00531896          
  19600000000           -0.956502             0.0718867             0.0360498             0.00111653            0.00385846            0.016779              -0.885181             -0.0132907            -0.0148621            0.137064              -0.00531896          
  20100000000           -0.956349             0.0737187             0.0358409             0.00122904            0.00390527            0.0172032             -0.885619             -0.0134738            -0.0148621            0.137064              -0.00531896          
  20600000000           -0.956193             0.0755505             0.0356294             0.00134699            0.00395317            0.0176271             -0.886064             -0.0136468            -0.0148621            0.137064              -0.00531896          
  21100000000           -0.956032             0.0773822             0.0354155             0.00147041            0.00400213            0.0180507             -0.886515             -0.0138096            -0.0148621            0.137064              -0.00531896          
  21600000000           -0.955867             0.0792138             0.0351992             0.00159933            0.00405216            0.0184741             -0.886971             -0.0139622            -0.0148621            0.137064              -0.00531896          
  22100000000           -0.955699             0.0810453             0.0349807             0.00173378            0.00410324            0.0188972             -0.887433             -0.0141045            -0.0148621            0.137064              -0.00531896          
  22600000000           -0.955527             0.0828766             0.0347602             0.00187378            0.00415538            0.01932               -0.8879               -0.0142365            -0.0148621            0.137064              -0.00531896          
  23100000000           -0.955351             0.0847078             0.0345379             0.00201934            0.00420856            0.0197426             -0.888372             -0.0143582            -0.0148621            0.137064              -0.00531896          
  23600000000           -0.955171             0.0865389             0.0343138             0.00217049            0.00426279            0.0201649             -0.888848             -0.0144694            -0.0148621            0.137064              -0.00531896          
  24100000000           -0.954988             0.0883699             0.0340881             0.00232723            0.00431805            0.020587              -0.889329             -0.0145703            -0.0148621            0.137064              -0.00531896          
  24600000000           -0.9548               0.0902007             0.033861              0.00248956            0.00437434            0.0210087             -0.889813             -0.0146607            -0.0148621            0.137064              -0.00531896          
  25100000000           -0.954609             0.0920314             0.0336326             0.00265748            0.00443166            0.0214302             -0.890302             -0.0147407            -0.0148621            0.137064              -0.00531896          
END_DB

