! VERSION = 6.00
BEGIN_HEADER
 ICCAP_INPUTS
  freq       F  LIN        1    1e+08      2.51e+10   126  2e+08     
  vg         V  P1 GROUND SMU_B 0.1 LIN        3    -3         0.2        9    0.4       
  vd         V  P2 GROUND SMU_C 0.1 LIN        2    5          35         7    5         
 ICCAP_OUTPUTS
  S_deemb    S  P1 P2 GROUND n/a B
  id         I  P2 GROUND SMU_C B
  ig         I  P1 GROUND SMU_B B
  T          V  T GROUND n/a B
 ICCAP_VALUES
  MAIN.NF "8.000"
  MAIN.L "150.0n"
  MAIN.W "100.0u"
  TEMP "25.00"
  MAIN.TNOM "25.00"
END_HEADER

BEGIN_DB
 ICCAP_VAR vg         -3             
 ICCAP_VAR vd         5              

 #freq                  R:S_deemb(1,1)        I:S_deemb(1,1)        R:S_deemb(1,2)        I:S_deemb(1,2)        R:S_deemb(2,1)        I:S_deemb(2,1)        R:S_deemb(2,2)        I:S_deemb(2,2)        id                    ig                    T                    
  100000000             0.99899912651         -0.0437068988079      0.000309830298006     0.00873974847408      -0.072172083237       0.00767154132303      0.993728391208        -0.0262440679878      -0.000149505514101    -3.26990185208e-08    -0.0183152117617     
  300000000             0.991064505156        -0.130573923588       0.00276313673475      0.0260174482861       -0.0701731823508      0.022941552856        0.990710878149        -0.0785785258227      -0.000149505514098    -3.26990185208e-08    -0.0183152117613     
  500000000             0.975395159903        -0.215823874778       0.00758987815728      0.0426994117342       -0.0662383913797      0.0377195611621       0.984717174435        -0.130483722711       -0.000149505514098    -3.26990185208e-08    -0.0183152117613     
  700000000             0.952378221201        -0.298454117174       0.0146356709576       0.0584197808348       -0.060489550897       0.051728859492        0.975827878799        -0.181684197864       -0.000149505514098    -3.26990185208e-08    -0.0183152117613     
  900000000             0.922564203725        -0.377568208004       0.0236817026653       0.0728566876786       -0.0530994080062      0.0647139611587       0.964159002049        -0.231924765856       -0.000149505514098    -3.26990185208e-08    -0.0183152117613     
  1100000000            0.88663466002         -0.452405566787       0.034458386325        0.0857443834426       -0.0442809107048      0.0764622828141       0.949856681589        -0.280974925709       -0.000149505514098    -3.26990185208e-08    -0.0183152117613     
  1300000000            0.845364757783        -0.522360552126       0.04666111898         0.0968808528203       -0.0342748453675      0.0868110866679       0.933090992405        -0.32863272741        -0.000149505514098    -3.26990185208e-08    -0.0183152117613     
  1500000000            0.79958438038         -0.586990549924       0.059966602596        0.106130755342        -0.023337027909       0.0956500135283       0.914049399795        -0.37472698291        -0.000149505514098    -3.26990185208e-08    -0.0183152117613     
  1700000000            0.750141016304        -0.646013889462       0.074048331595        0.113424055459        -0.0117261420418      0.102920104158        0.892930354223        -0.419117861273       -0.000149505514098    -3.26990185208e-08    -0.0183152117613     
  1900000000            0.697866995767        -0.699299309625       0.0885901575643       0.118751091304        0.000306921708667     0.108609992322        0.86993742799         -0.461696095804       -0.000149505514098    -3.26990185208e-08    -0.0183152117613     
  2100000000            0.643552736006        -0.746849212983       0.10329722914         0.122155051623        0.0125276756995       0.112750050948        0.845274264039        -0.502381118777       -0.000149505514098    -3.26990185208e-08    -0.0183152117613     
  2300000000            0.587926749242        -0.788779078113       0.117903996607        0.123722884802        0.02472434943         0.115405299573        0.819140475088        -0.541118465568       -0.000149505514098    -3.26990185208e-08    -0.0183152117613     
  2500000000            0.531642384397        -0.8252952244         0.132179307988        0.123575585328        0.0367119281486       0.116667815431        0.791728516306        -0.577876769866       -0.000149505514098    -3.26990185208e-08    -0.0183152117613     
  2700000000            0.475270692275        -0.856672745509       0.145928873186        0.121858637545        0.0483341311412       0.116649259777        0.763221468222        -0.61264462126        -0.000149505514098    -3.26990185208e-08    -0.0183152117613     
  2900000000            0.419298445108        -0.883234955948       0.158995526197        0.118733191044        0.0594636652152       0.115473969798        0.733791611668        -0.645427491748       -0.000149505514098    -3.26990185208e-08    -0.0183152117613     
  3100000000            0.36413018425         -0.90533521885        0.171257781508        0.114368334905        0.0700011407622       0.113272904271        0.703599650502        -0.676244871541       -0.000149505514098    -3.26990185208e-08    -0.0183152117613     
  3300000000            0.310093170323        -0.923341602155       0.182627178767        0.108934655209        0.0798730363299       0.110178588091        0.672794434447        -0.705127695564       -0.000149505514098    -3.26990185208e-08    -0.0183152117613     
  3500000000            0.257444216476        -0.937624476499       0.19304486197         0.102599115404        0.0890290603791       0.106321087464        0.641513046138        -0.732116095002       -0.000149505514098    -3.26990185208e-08    -0.0183152117613     
  3700000000            0.206377550033        -0.948546929258       0.202477766545        0.095521195663        0.0974392019985       0.101824966629        0.609881136809        -0.757257474192       -0.000149505514098    -3.26990185208e-08    -0.0183152117613     
  3900000000            0.157033032729        -0.956457718236       0.210914706031        0.0878501622511       0.105090698638        0.0968071259666       0.578013418453        -0.780604891267       -0.000149505514098    -3.26990185208e-08    -0.0183152117613     
  4100000000            0.109504248893        -0.961686409806       0.218362571161        0.0797233042169       0.111985087265        0.0913753950048       0.546014243126        -0.80221570893        -0.000149505514098    -3.26990185208e-08    -0.0183152117613     
  4300000000            0.0638461288303       -0.96454032169        0.224842784489        0.071264964684        0.118135451004        0.0856277458694       0.513978220236        -0.822150477132       -0.000149505514098    -3.26990185208e-08    -0.0183152117613     
  4500000000            0.0200819042544       -0.965302902624       0.230388096542        0.0625861999414       0.12356392867         0.0796519973418       0.481990839029        -0.840472009734       -0.000149505514098    -3.26990185208e-08    -0.0183152117613     
  4700000000            -0.0217907072468      -0.964233215413       0.235039765249        0.0537849151995       0.12829952009         0.0735258918495       0.450129076114        -0.857244620548       -0.000149505514098    -3.26990185208e-08    -0.0183152117613     
  4900000000            -0.06179411873        -0.961566235173       0.23884512809         0.0449463463904       0.132376194871        0.0673174436929       0.418461976915        -0.87253348887        -0.000149505514098    -3.26990185208e-08    -0.0183152117613     
  5100000000            -0.0999662714399      -0.957513723171       0.241855554265        0.0361437793556       0.135831295041        0.0610854739192       0.387051206131        -0.886404129795       -0.000149505514098    -3.26990185208e-08    -0.0183152117613     
  5300000000            -0.136356761801       -0.952265483539       0.244124750185        0.0274394189844       0.138704211008        0.0548802637704       0.355951566155        -0.898921949489       -0.000149505514098    -3.26990185208e-08    -0.0183152117613     
  5500000000            -0.171023628556       -0.945990852427       0.245707383738        0.0188853400696       0.141035304187        0.0487442735901       0.325211484612        -0.910151869934       -0.000149505514098    -3.26990185208e-08    -0.0183152117613     
  5700000000            -0.204030723018       -0.938840305631       0.246657989421        0.0105244682599       0.14286504703         0.0427128869913       0.294873473272        -0.920158011256       -0.000149505514098    -3.26990185208e-08    -0.0183152117613     
  5900000000            -0.235445584527       -0.930947100932       0.247030116149        0.00239155333477      0.144233350924        0.0368151508644       0.264974560884        -0.929003422588       -0.000149505514098    -3.26990185208e-08    -0.0183152117613     
  6100000000            -0.265337746642       -0.922428895765       0.246875681242        -0.00548589174047     0.145179053773        0.0310744905287       0.23554670237         -0.936749854604       -0.000149505514098    -3.26990185208e-08    -0.0183152117613     
  6300000000            -0.293777405662       -0.913389299973       0.246244496986        -0.0130867036633      0.145739541289        0.0255093862184       0.206617166484        -0.943457568475       -0.000149505514098    -3.26990185208e-08    -0.0183152117613     
  6500000000            -0.320834390335       -0.903919338021       0.245183939612        -0.0203952443921      0.145950478713        0.0201340023973       0.178208903601        -0.949185177127       -0.000149505514098    -3.26990185208e-08    -0.0183152117613     
  6700000000            -0.346577379287       -0.894098806037       0.243738734247        -0.0274006451979      0.145845632539        0.0149587653903       0.150340894908        -0.953989515482       -0.000149505514098    -3.26990185208e-08    -0.0183152117613     
  6900000000            -0.371073320207       -0.883997516988       0.241950832982        -0.0340961210995      0.145456764609        0.0099908877435       0.123028483881        -0.957925536894       -0.000149505514098    -3.26990185208e-08    -0.0183152117613     
  7100000000            -0.39438701182        -0.873676433004       0.239859366601        -0.0404783549242      0.144813583568        0.00523483980914      0.0962836906822       -0.961046233349       -0.000149505514098    -3.26990185208e-08    -0.0183152117613     
  7300000000            -0.416580815966       -0.863188687672       0.237500653634        -0.0465469483985      0.143943741079        0.000692770474174     0.0701155098724       -0.963402577199       -0.000149505514098    -3.26990185208e-08    -0.0183152117613     
  7500000000            -0.437714472677       -0.852580503677       0.234908253108        -0.0523039364764      0.142872862291        -0.00363512011969     0.0445301917478       -0.965043482379       -0.000149505514098    -3.26990185208e-08    -0.0183152117613     
  7700000000            -0.457844995946       -0.84189201264        0.232113049814        -0.0577533604041      0.141624601938        -0.00775025246898     0.0195315075043       -0.966015783154       -0.000149505514098    -3.26990185208e-08    -0.0183152117613     
  7900000000            -0.477026631962       -0.831157984805       0.229143362945        -0.0629008946676      0.14022071902         -0.0116553805419      -0.00487900155237     -0.966364228512       -0.000149505514098    -3.26990185208e-08    -0.0183152117613     
  8100000000            -0.495310865064       -0.820408476507       0.226025070742        -0.0677535228676      0.138681164382        -0.0153543418015      -0.0287017905276      -0.966131490416       -0.000149505514098    -3.26990185208e-08    -0.0183152117613     
  8300000000            -0.512746459507       -0.809669403248       0.222781745261        -0.0723192576517      0.137024176646        -0.0188518407276      -0.0519390929154      -0.965358184202       -0.000149505514098    -3.26990185208e-08    -0.0183152117613     
  8500000000            -0.52937952756        -0.79896304594        0.219434792607        -0.0766069000288      0.135266382905        -0.0221532622948      -0.0745947177025      -0.964082899491       -0.000149505514098    -3.26990185208e-08    -0.0183152117613     
  8700000000            -0.545253616374       -0.788308497394       0.216003595023        -0.0806258336692      0.133422901378        -0.0252645120777      -0.0966738612031      -0.962342240081       -0.000149505514098    -3.26990185208e-08    -0.0183152117613     
  8900000000            -0.560409807672       -0.777722055628       0.212505652047        -0.0843858501139      0.131507443858        -0.0281918798919      -0.118182933165       -0.960170871387       -0.000149505514098    -3.26990185208e-08    -0.0183152117613     
  9100000000            -0.574886825629       -0.767217569992       0.208956718653        -0.0878970011534      0.129532416337        -0.0309419241394      -0.139129396629       -0.957601574092       -0.000149505514098    -3.26990185208e-08    -0.0183152117613     
  9300000000            -0.588721149302       -0.756806745558       0.205370938842        -0.0911694749826      0.127509016605        -0.0335213742899      -0.159521620974       -0.954665302805       -0.000149505514098    -3.26990185208e-08    -0.0183152117613     
  9500000000            -0.601947126893       -0.746499410661       0.201760973599        -0.0942134930729      0.12544732796         -0.0359370491788      -0.179368747532       -0.951391248603       -0.000149505514098    -3.26990185208e-08    -0.0183152117613     
  9700000000            -0.614597089713       -0.736303751966       0.1981381225          -0.0970392250233      0.123356408457        -0.0381957890507      -0.198680567139       -0.947806904469       -0.000149505514098    -3.26990185208e-08    -0.0183152117613     
  9900000000            -0.626701464321       -0.726226520964       0.194512438508        -0.0996567189519      0.121244375322        -0.0403043995018      -0.217467408947       -0.943938132737       -0.000149505514098    -3.26990185208e-08    -0.0183152117613     
  10100000000           -0.638288881697       -0.716273215333       0.190892835758        -0.102075845271       0.119118484339        -0.0422696056869      -0.235740039831       -0.939809233756       -0.000149505514098    -3.26990185208e-08    -0.0183152117613     
  10300000000           -0.649386282646       -0.706448238223       0.18728719026         -0.104306251938       0.116985204156        -0.0440980153489      -0.25350957371        -0.935443015094       -0.000149505514098    -3.26990185208e-08    -0.0183152117613     
  10500000000           -0.660019018905       -0.69675503816        0.183702433611        -0.106357329515       0.11485028552         -0.0457960894025      -0.270787390103       -0.930860860683       -0.000149505514098    -3.26990185208e-08    -0.0183152117613     
  10700000000           -0.670210949612       -0.68719623192        0.180144639886        -0.108238184566       0.112718825582        -0.0473701189646      -0.287585061275       -0.926082799402       -0.000149505514098    -3.26990185208e-08    -0.0183152117613     
  10900000000           -0.679984532948       -0.677773712474       0.176619105944        -0.109957620117       0.110595327411        -0.0488262078592      -0.303914287303       -0.921127572677       -0.000149505514098    -3.26990185208e-08    -0.0183152117613     
  11100000000           -0.689360912911       -0.668488743812       0.173130425455        -0.111524122069       0.108483754939        -0.0501702597578      -0.319786838475       -0.916012700729       -0.000149505514098    -3.26990185208e-08    -0.0183152117613     
  11300000000           -0.698360001223       -0.659342044264       0.16968255696         -0.112945850602       0.106387583541        -0.0514079692195      -0.335214504391       -0.910754547201       -0.000149505514098    -3.26990185208e-08    -0.0183152117613     
  11500000000           -0.707000554479       -0.650333859708       0.166278886305        -0.114230635725       0.104309846525        -0.0525448160003      -0.350209049233       -0.90536838191        -0.000149505514098    -3.26990185208e-08    -0.0183152117613     
  11700000000           -0.715300246667       -0.641464027908       0.162922283814        -0.115385976278       0.102253177745        -0.0535860620828      -0.364782172638       -0.899868441562       -0.000149505514098    -3.26990185208e-08    -0.0183152117613     
  11900000000           -0.723275737233       -0.632732035053       0.159615156528        -0.116419041736       0.100219850626        -0.0545367509577      -0.378945475691       -0.894267988283       -0.000149505514098    -3.26990185208e-08    -0.0183152117613     
  12100000000           -0.730942734887       -0.62413706545        0.156359495872        -0.117336676315       0.0982118138108       -0.0554017087499      -0.392710431546       -0.888579365878       -0.000149505514098    -3.26990185208e-08    -0.0183152117613     
  12300000000           -0.738316057349       -0.615678045182       0.153156921079        -0.118145404912       0.0962307237067       -0.0561855468464      -0.40608836025        -0.882814053752       -0.000149505514098    -3.26990185208e-08    -0.0183152117613     
  12500000000           -0.745409687252       -0.607353680485       0.150008718696        -0.118851440498       0.094277974139        -0.0568926657279      -0.419090407351       -0.876982718461       -0.000149505514098    -3.26990185208e-08    -0.0183152117613     
  12700000000           -0.752236824419       -0.599162491448       0.146915878465        -0.119460692636       0.0923547233461       -0.0575272597536      -0.4317275259         -0.871095262884       -0.000149505514098    -3.26990185208e-08    -0.0183152117613     
  12900000000           -0.758809934717       -0.591102841625       0.143879125891        -0.119978776851       0.090461918524        -0.0580933226869      -0.444010461522       -0.865160873041       -0.000149505514098    -3.26990185208e-08    -0.0183152117613     
  13100000000           -0.765140795702       -0.583172964023       0.140898951753        -0.120411024613       0.088600318118        -0.0585946537789      -0.455949740205       -0.859188062562       -0.000149505514098    -3.26990185208e-08    -0.0183152117613     
  13300000000           -0.771240539254       -0.575370983911       0.13797563882         -0.120762493745       0.0867705120503       -0.059034864261       -0.467555658534       -0.853184714875       -0.000149505514098    -3.26990185208e-08    -0.0183152117613     
  13500000000           -0.777119691394       -0.567694938826       0.135109286009        -0.12103797909        0.0849729400548       -0.0594173841167      -0.47883827608        -0.847158123164       -0.000149505514098    -3.26990185208e-08    -0.0183152117613     
  13700000000           -0.782788209468       -0.560142796105       0.132299830211        -0.121242023298       0.0832079082828       -0.0597454690289      -0.489807409717       -0.841115028145       -0.000149505514098    -3.26990185208e-08    -0.0183152117613     
  13900000000           -0.788255516867       -0.552712468228       0.129547065981        -0.121378927635       0.0814756043281       -0.0600222074119      -0.500472629625       -0.835061653758       -0.000149505514098    -3.26990185208e-08    -0.0183152117613     
  14100000000           -0.793530535454       -0.545401826252       0.126850663293        -0.121452762705       0.0797761108115       -0.0602505274588      -0.510843256792       -0.829003740826       -0.000149505514098    -3.26990185208e-08    -0.0183152117613     
