! VERSION = 6.00
BEGIN_HEADER
 ICCAP_INPUTS
  vg         V  P1 GROUND SMU_B 0.1 LIN        2    -2.8       0.8        10   0.4       
  freq       F  CON        100000000
  vd         V  P2 GROUND SMU_C 0.1 LIN        1    5          60         12   5         
 ICCAP_OUTPUTS
  S_deemb    S  P1 P2 GROUND n/a B
  id         I  P2 GROUND SMU_C B
  ig         I  P1 GROUND SMU_B B
  T          V  T GROUND n/a B
 ICCAP_VALUES
  MAIN.NF "8.000"
  MAIN.L "150.0n"
  MAIN.W "100.0u"
  TEMP "25.00"
  MAIN.TNOM "25.00"
END_HEADER

BEGIN_DB
 ICCAP_VAR vg         -2.8           
 ICCAP_VAR freq       1e+08          

 #vd                    R:S_deemb(1,1)        I:S_deemb(1,1)        R:S_deemb(1,2)        I:S_deemb(1,2)        R:S_deemb(2,1)        I:S_deemb(2,1)        R:S_deemb(2,2)        I:S_deemb(2,2)        id                    ig                    T                    
  5                     0.999022              -0.0431663            0.000314477           0.00895627            -0.161134             0.0096837             0.996102              -0.0266585            -0.000626138          -2.4369e-08           -0.0767157           
  10                    0.998842              -0.0465623            0.000231576           0.00654688            -0.325875             0.0182827             0.973975              -0.0236527            0.000417824           -8.47024e-08          0.102361             
  15                    0.998567              -0.0514745            0.000172638           0.00469172            -0.60394              0.0299943             0.963967              -0.0216594            -0.000144559          -1.67482e-07          -0.0531261           
  20                    0.998467              -0.0528288            0.000138617           0.00378081            -0.78874              0.0368553             0.969082              -0.0202785            -2.83247e-05          -2.42903e-07          -0.0138791           
  25                    0.99847               -0.0524053            0.000116534           0.00326709            -0.875895             0.0389982             0.974844              -0.0190115            7.67916e-05           -2.92787e-07          0.0470346            
  30                    0.998507              -0.0515566            0.000100847           0.00292117            -0.915512             0.039021              0.980317              -0.0178803            0.000167485           -3.15174e-07          0.1231               
  35                    0.998547              -0.050813             8.8891e-05            0.00265449            -0.926219             0.0380194             0.985341              -0.0168566            0.000160043           -3.12698e-07          0.137236             
  40                    0.998582              -0.0503428            7.96769e-05           0.00243766            -0.918058             0.0366144             0.989597              -0.0158918            6.31691e-05           -2.91285e-07          0.0619055            
  45                    0.998603              -0.050174             7.27718e-05           0.00225947            -0.903101             0.0355052             0.992806              -0.0149628            -6.65688e-05          -2.67427e-07          -0.0733922           
  50                    0.998602              -0.0503205            6.74014e-05           0.0021117             -0.898758             0.0356189             0.994771              -0.014078             -0.000167376          -2.52852e-07          -0.205037            
  55                    0.998579              -0.0508654            6.29529e-05           0.00198541            -0.927658             0.0381071             0.995373              -0.0132739            -0.000179587          -2.38962e-07          -0.241994            
  60                    0.99854               -0.0519873            5.87401e-05           0.00187116            -1.0156               0.0443071             0.994665              -0.0126227            -4.43972e-05          -1.9824e-07           -0.0652639           
END_DB

BEGIN_DB
 ICCAP_VAR vg         -2.4           
 ICCAP_VAR freq       1e+08          

 #vd                    R:S_deemb(1,1)        I:S_deemb(1,1)        R:S_deemb(1,2)        I:S_deemb(1,2)        R:S_deemb(2,1)        I:S_deemb(2,1)        R:S_deemb(2,2)        I:S_deemb(2,2)        id                    ig                    T                    
  5                     0.995209              -0.0924769            0.000421167           0.00731655            -7.86621              0.4664                0.666201              -0.0466894            0.00879047            -1.13155e-08          1.0741               
  10                    0.993283              -0.110621             0.000302318           0.00464731            -14.4241              0.965886              0.588228              -0.0481023            0.0318774             -3.15429e-08          7.77402              
  15                    0.993378              -0.11035              0.000233811           0.00362842            -16.4613              1.09619               0.676565              -0.044513             0.0378477             -5.54556e-08          13.8583              
  20                    0.9938                -0.107055             0.000192559           0.00309593            -16.9213              1.09263               0.726786              -0.0403791            0.0404407             -7.65535e-08          19.7581              
  25                    0.994234              -0.10343              0.000161861           0.00270998            -17.0482              1.06268               0.756861              -0.0365338            0.0420415             -9.28822e-08          25.6879              
  30                    0.994565              -0.100564             0.000139058           0.00241006            -17.1039              1.03587               0.780831              -0.0333166            0.0432563             -1.05034e-07          31.7272              
  35                    0.994796              -0.0985183            0.000122622           0.00218304            -17.0747              1.01288               0.800823              -0.0307083            0.044114              -1.13722e-07          37.7589              
  40                    0.994981              -0.0968456            0.000110493           0.00201301            -16.9282              0.98764               0.816188              -0.028511             0.044664              -1.19945e-07          43.7001              
  45                    0.995159              -0.0951762            0.000100644           0.00187566            -16.6772              0.957361              0.826636              -0.0265013            0.045013              -1.26089e-07          49.5552              
  50                    0.995331              -0.0935071            9.1562e-05            0.00174651            -16.369               0.924706              0.832623              -0.0245311            0.0453155             -1.35384e-07          55.4389              
  55                    0.995471              -0.0921593            8.27222e-05           0.00161096            -16.0583              0.895664              0.834999              -0.0226021            0.045756              -1.44199e-07          61.5821              
  60                    0.995541              -0.0915434            7.46416e-05           0.001468              -15.7919              0.876979              0.834998              -0.0209224            0.0465007             -1.55533e-07          68.2795              
END_DB

BEGIN_DB
 ICCAP_VAR vg         -2             
 ICCAP_VAR freq       1e+08          

 #vd                    R:S_deemb(1,1)        I:S_deemb(1,1)        R:S_deemb(1,2)        I:S_deemb(1,2)        R:S_deemb(2,1)        I:S_deemb(2,1)        R:S_deemb(2,2)        I:S_deemb(2,2)        id                    ig                    T                    
  5                     0.989435              -0.13962              0.000415999           0.0053067             -15.7359              1.26127               0.265754              -0.0518736            0.0850078             -4.70106e-09          10.1578              
  10                    0.991237              -0.127358             0.000276476           0.00383468            -18.4312              1.36993               0.452695              -0.0469199            0.129946              -1.96369e-08          31.2393              
  15                    0.992588              -0.117418             0.000200723           0.00300859            -19.2882              1.33517               0.58174               -0.0411538            0.132193              -4.13659e-08          47.9626              
  20                    0.993423              -0.110889             0.000156629           0.00249443            -19.3518              1.26903               0.651421              -0.0359116            0.132734              -6.66861e-08          64.4163              
  25                    0.994037              -0.105848             0.000124904           0.00209935            -19.1873              1.20093               0.700078              -0.0311561            0.132751              -9.3687e-08           80.6863              
  30                    0.994521              -0.101645             0.000101646           0.00179237            -19.0382              1.14411               0.74283               -0.0273594            0.132274              -1.22098e-07          96.6023              
  35                    0.994853              -0.0986234            8.58484e-05           0.00156953            -18.9134              1.10328               0.781421              -0.0246339            0.131238              -1.51841e-07          111.927              
  40                    0.99501               -0.0971987            7.60025e-05           0.00141685            -18.7248              1.07614               0.814225              -0.022698             0.129766              -1.83546e-07          126.575              
  45                    0.99502               -0.0971882            6.96609e-05           0.00130402            -18.376               1.05398               0.840685              -0.0211148            0.128066              -2.19094e-07          140.613              
  50                    0.994961              -0.0978875            6.40464e-05           0.00119523            -17.8109              1.02599               0.862089              -0.0195353            0.126346              -2.63149e-07          154.21               
  55                    0.9949                -0.0986283            5.73821e-05           0.0010679             -17.0263              0.985868              0.880158              -0.017927             0.124816              -3.07111e-07          167.638              
  60                    0.994845              -0.0992711            5.04347e-05           0.000925076           -16.0735              0.937042              0.896158              -0.0167672            0.12367               -3.61558e-07          181.253              
END_DB

BEGIN_DB
 ICCAP_VAR vg         -1.6           
 ICCAP_VAR freq       1e+08          

 #vd                    R:S_deemb(1,1)        I:S_deemb(1,1)        R:S_deemb(1,2)        I:S_deemb(1,2)        R:S_deemb(2,1)        I:S_deemb(2,1)        R:S_deemb(2,2)        I:S_deemb(2,2)        id                    ig                    T                    
  5                     0.98823               -0.147795             0.000435787           0.00530591            -16.2747              1.36556               0.239941              -0.0526587            0.18824               -3.33542e-09          21.8058              
  10                    0.991339              -0.126896             0.000266102           0.00372589            -18.1524              1.33738               0.444044              -0.0447942            0.230019              -2.03451e-08          54.4829              
  15                    0.993082              -0.113749             0.000178913           0.00278768            -18.7183              1.24852               0.565811              -0.0372263            0.227821              -5.13597e-08          81.8879              
  20                    0.994402              -0.102516             0.000128997           0.00223414            -18.6332              1.12752               0.645018              -0.03144              0.222739              -9.21073e-08          107.387              
  25                    0.995715              -0.0896935            9.28679e-05           0.00184187            -18.2487              0.975108              0.704148              -0.0265671            0.217246              -1.38976e-07          131.393              
  30                    0.996915              -0.0759682            6.3789e-05            0.00149115            -17.9037              0.822797              0.755135              -0.022346             0.211309              -1.90724e-07          153.732              
  35                    0.997819              -0.0637025            4.14302e-05           0.00114861            -17.6719              0.695492              0.801709              -0.0187141            0.204501              -2.46256e-07          173.88               
  40                    0.998392              -0.0546149            2.528e-05             0.000813994           -17.4705              0.602212              0.844836              -0.0155194            0.196797              -3.03634e-07          191.491              
  45                    0.998681              -0.0495281            1.36361e-05           0.000485993           -17.1577              0.543382              0.885574              -0.012597             0.188649              -3.63712e-07          206.726              
  50                    0.998723              -0.0490022            4.3358e-06            0.000167501           -16.6068              0.518562              0.925178              -0.0100148            0.180588              -4.32934e-07          220.067              
  55                    0.9985                -0.0535558            -4.62468e-06          -0.000123839          -15.729               0.525951              0.963115              -0.00820873           0.173                 -4.96185e-07          232.059              
  60                    0.997924              -0.0633353            -1.35173e-05          -0.000355681          -14.4923              0.557889              0.996674              -0.00806196           0.166129              -5.68314e-07          243.233              
END_DB

BEGIN_DB
 ICCAP_VAR vg         -1.2           
 ICCAP_VAR freq       1e+08          

 #vd                    R:S_deemb(1,1)        I:S_deemb(1,1)        R:S_deemb(1,2)        I:S_deemb(1,2)        R:S_deemb(2,1)        I:S_deemb(2,1)        R:S_deemb(2,2)        I:S_deemb(2,2)        id                    ig                    T                    
  5                     0.988227              -0.148112             0.000443607           0.00541476            -14.7392              1.23476               0.186205              -0.0485699            0.29892               -3.35807e-09          33.4566              
  10                    0.991712              -0.12422              0.000266892           0.00382087            -16.6591              1.20258               0.426797              -0.0424141            0.320436              -2.39432e-08          74.8742              
  15                    0.993627              -0.109126             0.000182762           0.00296798            -17.0303              1.09203               0.552414              -0.0359214            0.311404              -6.72438e-08          111.01               
  20                    0.995265              -0.093828             0.000146985           0.00276903            -16.783               0.934222              0.630225              -0.0332006            0.296515              -1.25331e-07          142.182              
  25                    0.997223              -0.071027             0.000108552           0.00266312            -16.2271              0.703419              0.684395              -0.030577             0.283715              -1.9323e-07           170.927              
  30                    0.998916              -0.0425616            6.00555e-05           0.00233056            -15.7505              0.445508              0.731091              -0.0265215            0.271762              -2.69421e-07          197.132              
  35                    0.999787              -0.0137064            1.9604e-05            0.00180191            -15.5082              0.204814              0.776578              -0.02177              0.258689              -3.51954e-07          219.458              
  40                    0.999849              0.0122814             -2.8324e-06           0.00118224            -15.4465              -0.00448139           0.824471              -0.0169287            0.24419               -4.33521e-07          237.196              
  45                    0.999361              0.034401              -6.98816e-06          0.00051894            -15.3766              -0.180588             0.877356              -0.0120501            0.229293              -5.10278e-07          250.936              
  50                    0.998599              0.0524006             4.17415e-06           -0.00018292           -15.0737              -0.316979             0.935258              -0.0072213            0.215146              -5.93536e-07          261.916              
  55                    0.997837              0.0656267             2.61113e-05           -0.000916047          -14.3512              -0.398319             0.993401              -0.00310025           0.202252              -6.65894e-07          271.087              
  60                    0.997363              0.0726801             5.149e-05             -0.00163911           -13.1282              -0.407999             1.04332               -0.00126517           0.190627              -7.4619e-07           278.937              
END_DB

BEGIN_DB
 ICCAP_VAR vg         -0.8           
 ICCAP_VAR freq       1e+08          

 #vd                    R:S_deemb(1,1)        I:S_deemb(1,1)        R:S_deemb(1,2)        I:S_deemb(1,2)        R:S_deemb(2,1)        I:S_deemb(2,1)        R:S_deemb(2,2)        I:S_deemb(2,2)        id                    ig                    T                    
  5                     0.988479              -0.14664              0.000460327           0.00568116            -12.762               1.06056               0.143837              -0.0444254            0.398147              -2.71012e-09          43.1648              
  10                    0.99203               -0.121808             0.000277939           0.00405695            -14.6674              1.04235               0.390559              -0.039912             0.401195              -2.26901e-08          92.5985              
  15                    0.993796              -0.107579             0.000207084           0.00341197            -14.7374              0.932387              0.507908              -0.0352536            0.384651              -7.46251e-08          136.125              
  20                    0.994951              -0.0966829            0.000204204           0.00375039            -14.7881              0.83905               0.582252              -0.0371002            0.356748              -1.48139e-07          170.304              
  25                    0.996683              -0.0774721            0.000177642           0.00404178            -14.7712              0.679029              0.631692              -0.0382511            0.332012              -2.3143e-07           199.458              
