! VERSION = 6.00
BEGIN_HEADER
 ICCAP_INPUTS
  vg         V  P1 GROUND SMU_B 0.1 LIN        3    -3         -2         6    0.2       
  vd         V  P2 GROUND SMU_C 0.1 LIN        2    10         30         5    5         
  freq       F  LIN        1    1e+08      2.51e+10   26   1e+09     
 ICCAP_OUTPUTS
  id         I  P2 GROUND SMU_C B
  ig         I  P1 GROUND SMU_B B
  S_deemb    S  P1 P2 GROUND n/a B
  T          V  T GROUND n/a B
 ICCAP_VALUES
  MAIN.NF "8.000"
  MAIN.L "150.0n"
  MAIN.W "100.0u"
  TEMP "25.00"
  MAIN.TNOM "25.00"
END_HEADER

BEGIN_DB
 ICCAP_VAR vg         -3             
 ICCAP_VAR vd         10             

 #freq                  id                    ig                    R:S_deemb(1,1)        I:S_deemb(1,1)        R:S_deemb(1,2)        I:S_deemb(1,2)        R:S_deemb(2,1)        I:S_deemb(2,1)        R:S_deemb(2,2)        I:S_deemb(2,2)        T                    
  100000000             0.000239707541089     -1.32554710741e-07    0.998987623858        -0.0436025952788      0.000230508458968     0.00675419294076      -0.0749249386358      0.00816857501281      0.985547392005        -0.0231373332111      0.0587263004055      
  1100000000            0.000239707541088     -1.32554710741e-07    0.88751100605         -0.451778350072       0.0255755370943       0.0668670746354       -0.0463177264763      0.0816198668153       0.950978418421        -0.248996901287       0.0587263004054      
  2100000000            0.000239707541088     -1.32554710741e-07    0.645344180805        -0.747201104691       0.0776001618155       0.0975830666385       0.0129070891597       0.122518230331        0.867160085995        -0.450715035238       0.0587263004054      
  3100000000            0.000239707541088     -1.32554710741e-07    0.365551249373        -0.907115388458       0.130776945554        0.0952492415807       0.0746622960047       0.126485686495        0.750389855259        -0.616867297468       0.0587263004054      
  4100000000            0.000239707541088     -1.32554710741e-07    0.109707694544        -0.964153115468       0.169809571995        0.0715087434938       0.121898362581        0.10596228684         0.616029316163        -0.74543432472        0.0587263004054      
  5100000000            0.000239707541088     -1.32554710741e-07    -0.100961547912       -0.959801315388       0.19157223063         0.0392902275035       0.150804937422        0.0749599276762       0.475540554345        -0.839232220329       0.0587263004054      
  6100000000            0.000239707541088     -1.32554710741e-07    -0.267098938452       -0.924068814804       0.199026058148        0.00700953972163      0.164256774923        0.0427129672788       0.336811110897        -0.902986296608       0.0587263004054      
  7100000000            0.000239707541088     -1.32554710741e-07    -0.396464309893       -0.874568409698       0.196547480575        -0.0212716922728      0.16675975005         0.0137962331056       0.204939509209        -0.941991548389       0.0587263004054      
  8100000000            0.000239707541088     -1.32554710741e-07    -0.497387085901       -0.820648432943       0.18795682455         -0.0442186642848      0.162305920647        -0.0101524052522      0.0828782315279       -0.961416778126       0.0587263004054      
  9100000000            0.000239707541088     -1.32554710741e-07    -0.576784294668       -0.766965583036       0.176047760618        -0.0618853031443      0.153845723881        -0.0290090503459      -0.0280092003503      -0.965901672628       0.0587263004054      
  10100000000           0.000239707541088     -1.32554710741e-07    -0.639930855486       -0.715685501368       0.162682241495        -0.0749094992517      0.14337069463         -0.0433059972718      -0.127454267594       -0.959364336927       0.0587263004054      
  11100000000           0.000239707541088     -1.32554710741e-07    -0.690731583839       -0.667692380562       0.149023189746        -0.0840949111055      0.132147728508        -0.0537834956139      -0.215876989763       -0.944964923924       0.0587263004054      
  12100000000           0.000239707541088     -1.32554710741e-07    -0.732058192305       -0.62322605132        0.135753440048        -0.0902180221872      0.120942566944        -0.0611799626365      -0.294081542382       -0.925164946664       0.0587263004054      
  13100000000           0.000239707541088     -1.32554710741e-07    -0.766031000108       -0.582212676349       0.123242977797        -0.0939533357323      0.110191422911        -0.0661474879511      -0.363047150456       -0.901830876074       0.0587263004054      
  14100000000           0.000239707541088     -1.32554710741e-07    -0.79422924           -0.544435580683       0.111665653544        -0.0958556838801      0.100121274509        -0.0692283540978      -0.423795352992       -0.876347845646       0.0587263004054      
  15100000000           0.000239707541088     -1.32554710741e-07    -0.817841765096       -0.509623003465       0.101076700679        -0.0963674875558      0.0908301761518       -0.0708587121787      -0.477312465906       -0.849725018935       0.0587263004054      
  16100000000           0.000239707541088     -1.32554710741e-07    -0.837773678929       -0.477492487732       0.0914626018098       -0.0958349895792      0.0823392875062       -0.0713825325454      -0.524509027545       -0.82268497264        0.0587263004054      
  17100000000           0.000239707541088     -1.32554710741e-07    -0.854721785325       -0.44777251232        0.0827723974634       -0.0945260393498      0.0746258609505       -0.0710679082957      -0.566202524639       -0.795735619027       0.0587263004054      
  18100000000           0.000239707541088     -1.32554710741e-07    -0.869228308427       -0.420212157891       0.0749369074385       -0.0926463307388      0.0676437729133       -0.0701223215316      -0.603113913179       -0.769226160798       0.0587263004054      
  19100000000           0.000239707541088     -1.32554710741e-07    -0.881719491293       -0.394584522918       0.0678802362954       -0.0903530770992      0.061336056741        -0.0687056784593      -0.635871740998       -0.743389664389       0.0587263004054      
  20100000000           0.000239707541088     -1.32554710741e-07    -0.892533617988       -0.370686945587       0.0615264295579       -0.0877660444339      0.0556423681545       -0.0669409219447      -0.665020014549       -0.718374968032       0.0587263004054      
  21100000000           0.000239707541088     -1.32554710741e-07    -0.901941576219       -0.348339673863       0.0558031255049       -0.0849762364223      0.0505032769252       -0.06492244225        -0.691027512181       -0.694270349883       0.0587263004054      
  22100000000           0.000239707541088     -1.32554710741e-07    -0.910162107041       -0.327383864589       0.0506433747809       -0.0820526321648      0.0458625942404       -0.0627226385767      -0.71429724382        -0.671120956111       0.0587263004054      
  23100000000           0.000239707541088     -1.32554710741e-07    -0.917373231104       -0.307679378042       0.0459863653204       -0.0790473688514      0.0416685019311       -0.0603969913581      -0.735175372977       -0.648941564809       0.0587263004054      
  24100000000           0.000239707541088     -1.32554710741e-07    -0.923720894549       -0.289102607299       0.0417775123847       -0.0759997095031      0.0378739655647       -0.0579879637037      -0.753959284832       -0.62772589338        0.0587263004054      
  25100000000           0.000239707541088     -1.32554710741e-07    -0.929325572418       -0.271544457247       0.0379681975339       -0.072939073803       0.0344367324763       -0.0555279952901      -0.770904695732       -0.607453358643       0.0587263004054      
END_DB

BEGIN_DB
 ICCAP_VAR vg         -3             
 ICCAP_VAR vd         15             

 #freq                  id                    ig                    R:S_deemb(1,1)        I:S_deemb(1,1)        R:S_deemb(1,2)        I:S_deemb(1,2)        R:S_deemb(2,1)        I:S_deemb(2,1)        R:S_deemb(2,2)        I:S_deemb(2,2)        T                    
  100000000             -0.000109718341186    -2.85010862342e-07    0.99885543878         -0.0458684741191      0.000166458619049     0.00483804833512      -0.0372150478941      0.00708676955057      0.988324653585        -0.0208335643833      -0.040321906429      
  1100000000            -0.000109718341186    -2.85010862342e-07    0.87708463194         -0.472970217148       0.0182874664837       0.0478426075602       -0.011573127327       0.0705931184805       0.960640698868        -0.225285087449       -0.0403219064289     
  2100000000            -0.000109718341186    -2.85010862342e-07    0.6162326004          -0.773908751092       0.0552453036609       0.0697595892753       0.040978225859        0.104563937754        0.892260049479        -0.412348407951       -0.0403219064289     
  3100000000            -0.000109718341186    -2.85010862342e-07    0.321205207684        -0.927429743113       0.0927753896866       0.0683403929355       0.0949570105446       0.105703799265        0.794082814731        -0.572737924965       -0.0403219064289     
  4100000000            -0.000109718341186    -2.85010862342e-07    0.0576077901549       -0.973322112178       0.120317378681        0.0520253412818       0.135528920648        0.0856113909042       0.677126478384        -0.703213521009       -0.0403219064289     
  5100000000            -0.000109718341186    -2.85010862342e-07    -0.154725912624       -0.958018064334       0.13588294688         0.0298121148817       0.1597483628          0.0567329667175       0.55059179619         -0.804146356835       -0.0403219064289     
  6100000000            -0.000109718341186    -2.85010862342e-07    -0.318896905662       -0.913410558139       0.141555830702        0.00744345738646      0.170341661226        0.0270583340401       0.421681676253        -0.877923897761       -0.0403219064289     
  7100000000            -0.000109718341186    -2.85010862342e-07    -0.444524293999       -0.857363383825       0.140303486659        -0.0123082159947      0.171297481358        0.000495023282909     0.295697784534        -0.928048518152       -0.0403219064289     
  8100000000            -0.000109718341186    -2.85010862342e-07    -0.541055422856       -0.798891584627       0.134703469096        -0.0284930975955      0.166102677242        -0.0215592385766      0.176204895434        -0.958477731049       -0.0403219064289     
  9100000000            -0.000109718341186    -2.85010862342e-07    -0.616008397763       -0.742202483147       0.126655707311        -0.0410920159879      0.157338733362        -0.0389941507476      0.0653025160526       -0.973125697283       -0.0403219064289     
  10100000000           -0.000109718341186    -2.85010862342e-07    -0.674952584831       -0.689057920278       0.117448144033        -0.05048945622        0.14676525531         -0.0522651684953      -0.0360365982073      -0.975544698371       -0.0403219064289     
  11100000000           -0.000109718341186    -2.85010862342e-07    -0.721917622999       -0.640022073432       0.107905343989        -0.0571981401531      0.135518237319        -0.062016061326       -0.12763168226        -0.968771256956       -0.0403219064289     
  12100000000           -0.000109718341186    -2.85010862342e-07    -0.759810447073       -0.59509453607        0.0985281215622       -0.0617282112575      0.124297015207        -0.0688988166557      -0.209810606179       -0.955291538653       -0.0403219064289     
  13100000000           -0.000109718341186    -2.85010862342e-07    -0.79074169915        -0.554025850115       0.089601487759        -0.0645329665519      0.113508882558        -0.0734978489074      -0.283194629838       -0.937077390839       -0.0403219064289     
  14100000000           -0.000109718341186    -2.85010862342e-07    -0.816260383611       -0.516472724398       0.0812714210217       -0.0659926944969      0.103371991578        -0.0763061785131      -0.348547717665       -0.915655415587       -0.0403219064289     
  15100000000           -0.000109718341186    -2.85010862342e-07    -0.83751751687        -0.482072801195       0.073597039197        -0.0664160932256      0.0939853678367       -0.0777257197977      -0.406678120043       -0.892185100677       -0.0403219064289     
  16100000000           -0.000109718341186    -2.85010862342e-07    -0.855379397158       -0.450479089847       0.0665850353249       -0.066048759156       0.0853752302023       -0.0780774275378      -0.458378417143       -0.867532994987       -0.0403219064289     
  17100000000           -0.000109718341186    -2.85010862342e-07    -0.870506251025       -0.421374250658       0.060211915256        -0.0650836193073      0.0775250150496       -0.0776143385426      -0.504392040178       -0.842337164667       -0.0403219064289     
  18100000000           -0.000109718341186    -2.85010862342e-07    -0.883407299109       -0.394474940703       0.0544380814626       -0.0636709884254      0.0703944987591       -0.0765343363866      -0.545397075124       -0.81706035407        -0.0403219064289     
  19100000000           -0.000109718341186    -2.85010862342e-07    -0.894479731668       -0.369531414005       0.0492165699862       -0.0619273481275      0.0639317586276       -0.0749913796147      -0.582000802008       -0.792032397038       -0.0403219064289     
  20100000000           -0.000109718341186    -2.85010862342e-07    -0.904036624021       -0.346325017607       0.0444983317088       -0.0599426262406      0.0580804917651       -0.0731048560486      -0.614740543033       -0.767483313434       -0.0403219064289     
  21100000000           -0.000109718341186    -2.85010862342e-07    -0.912327172756       -0.32466491605        0.0402353083809       -0.0577860565902      0.0527843590204       -0.0709671385954      -0.644087944902       -0.7435687514         -0.0403219064289     
  22100000000           -0.000109718341186    -2.85010862342e-07    -0.919551539638       -0.30438470032        0.036382119605        -0.0555108126181      0.047989443699        -0.0686495763219      -0.670454895392       -0.720389342848       -0.0403219064289     
  23100000000           -0.000109718341186    -2.85010862342e-07    -0.925871864707       -0.285339186992       0.0328968884111       -0.0531576316941      0.0436455312551       -0.0662071917229      -0.694199989665       -0.698005320459       -0.0403219064289     
  24100000000           -0.000109718341186    -2.85010862342e-07    -0.931420526135       -0.267401532899       0.0297415437092       -0.0507576315473      0.039706664269        -0.0636823390549      -0.71563492388        -0.676447497391       -0.0403219064289     
  25100000000           -0.000109718341186    -2.85010862342e-07    -0.936306398907       -0.250460699531       0.026881814717        -0.0483344909186      0.0361312629511       -0.0611075429919      -0.735030483998       -0.655725481148       -0.0403219064289     
END_DB

BEGIN_DB
 ICCAP_VAR vg         -3             
 ICCAP_VAR vd         20             

 #freq                  id                    ig                    R:S_deemb(1,1)        I:S_deemb(1,1)        R:S_deemb(1,2)        I:S_deemb(1,2)        R:S_deemb(2,1)        I:S_deemb(2,1)        R:S_deemb(2,2)        I:S_deemb(2,2)        T                    
  100000000             -5.56474561673e-05    -4.33591101345e-07    0.99877831502         -0.0467638910263      0.000130554817483     0.0038341211367       -0.041019066809       0.00702775076811      0.991813722964        -0.0192764994025      -0.0272673564234     
  1100000000            -5.56474561684e-05    -4.33591101345e-07    0.872879356044        -0.481291968685       0.0143305579646       0.0379698536738       -0.0159037667954      0.0701649776915       0.968234998597        -0.208999941986       -0.0272673564239     
  2100000000            -5.56474561684e-05    -4.33591101345e-07    0.60464117257         -0.784236943749       0.0433018433954       0.0556425105853       0.0356093272406       0.104512066442        0.909399655916        -0.384959420176       -0.0272673564239     
  3100000000            -5.56474561684e-05    -4.33591101345e-07    0.30373489553         -0.935087933856       0.072833797754        0.0551322480319       0.0887764200793       0.106916035736        0.823506533158        -0.539345354187       -0.0272673564239     
  4100000000            -5.56474561684e-05    -4.33591101345e-07    0.0372574624821       -0.976552304983       0.0947636908414       0.0429579785698       0.1292860708          0.0885457944876       0.719127539719        -0.668757829838       -0.0272673564239     
  5100000000            -5.56474561684e-05    -4.33591101345e-07    -0.17559270272        -0.956981804732       0.107519931862        0.0260149300046       0.15423225801         0.0612909199174       0.603828261617        -0.77259499742        -0.0272673564239     
  6100000000            -5.56474561684e-05    -4.33591101345e-07    -0.3389046357         -0.908958645842       0.112623433222        0.0087126393301       0.166079798807        0.0327946738696       0.483935504399        -0.852036450007       -0.0272673564239     
  7100000000            -5.56474561684e-05    -4.33591101345e-07    -0.463017812135       -0.850414282561       0.11227655542         -0.00677697438481     0.168503833952        0.00686690628819      0.364449174151        -0.909436842306       -0.0272673564239     
  8100000000            -5.56474561684e-05    -4.33591101345e-07    -0.55780402213        -0.790220982812       0.108414211632        -0.0196552390211      0.164752102147        -0.0150367576906      0.249019872451        -0.947808039494       -0.0272673564239     
  9100000000            -5.56474561684e-05    -4.33591101345e-07    -0.631006712029       -0.732407167791       0.102486067813        -0.0298363178168      0.157266187669        -0.0326861306494      0.140055507824        -0.97036993169        -0.0272673564239     
  10100000000           -5.56474561684e-05    -4.33591101345e-07    -0.688304438316       -0.678576995257       0.0954968136896       -0.0375574020614      0.147745709493        -0.046411841114       0.0389310307646       -0.980220766498       -0.0272673564239     
  11100000000           -5.56474561684e-05    -4.33591101345e-07    -0.733772242927       -0.629170537082       0.0881082226143       -0.0431719129826      0.137318205371        -0.0567533049222      -0.0537631292293      -0.980140173475       -0.0272673564239     
  12100000000           -5.56474561684e-05    -4.33591101345e-07    -0.770328851936       -0.584094439383       0.0807372087369       -0.0470477383783      0.126702447182        -0.0642852425686      -0.137986060542       -0.972502160904       -0.0272673564239     
  13100000000           -5.56474561684e-05    -4.33591101345e-07    -0.800079886399       -0.543031354489       0.0736332247528       -0.0495218787358      0.116337113518        -0.0695396813607      -0.214051677412       -0.959263052023       -0.0272673564239     
  14100000000           -5.56474561684e-05    -4.33591101345e-07    -0.824561685925       -0.505589085635       0.0669346045619       -0.0508840842167      0.106474314098        -0.0729769154618      -0.282481320194       -0.941992459701       -0.0272673564239     
  15100000000           -5.56474561684e-05    -4.33591101345e-07    -0.844909851774       -0.471370336918       0.0607078540758       -0.0513746262738      0.097244773763        -0.0749803654636      -0.343899563599       -0.921924071188       -0.0272673564239     
  16100000000           -5.56474561684e-05    -4.33591101345e-07    -0.861975034971       -0.440003298607       0.0549743186414       -0.0511883619572      0.0887021075343       -0.0758621695193      -0.3989648134         -0.900011655663       -0.0272673564239     
