! VERSION = 6.00
BEGIN_HEADER
 ICCAP_INPUTS
  vd         V  D GROUND SMU_C 0.1 LIN        2    1          21         21   1         
  vg         V  G GROUND SMU_B 0.1 LIN        1    -9         0          91   0.1       
 ICCAP_OUTPUTS
  id         I  D GROUND SMU_C B
  ig         I  G GROUND SMU_B B
  T          V  T GROUND n/a B
 ICCAP_VALUES
  MAIN.NF "8.000"
  MAIN.L "150.0n"
  MAIN.W "100.0u"
  TEMP "25.00"
  MAIN.TNOM "25.00"
END_HEADER

BEGIN_DB
 ICCAP_VAR vd         1              

 #vg                    id                    ig                    T                    
  -9                    0.000114458           -4.27969e-07          0.00280376           
  -8.9                  0.000113213           -4.09915e-07          0.00277326           
  -8.8                  0.000111748           -3.92341e-07          0.00273738           
  -8.7                  0.00011012            -3.75248e-07          0.0026975            
  -8.6                  0.000108384           -3.58637e-07          0.00265498           
  -8.5                  0.000106594           -3.42506e-07          0.00261115           
  -8.4                  0.000104801           -3.26854e-07          0.00256723           
  -8.3                  0.000103049           -3.11678e-07          0.00252431           
  -8.2                  0.000101374           -2.96975e-07          0.00248331           
  -8.1                  9.98047e-05           -2.82739e-07          0.00244486           
  -8                    9.83555e-05           -2.68966e-07          0.00240937           
  -7.9                  9.70294e-05           -2.55651e-07          0.00237689           
  -7.8                  9.58157e-05           -2.42786e-07          0.00234716           
  -7.7                  9.4689e-05            -2.30365e-07          0.00231956           
  -7.6                  9.361e-05             -2.18382e-07          0.00229313           
  -7.5                  9.25254e-05           -2.06828e-07          0.00226657           
  -7.4                  9.13687e-05           -1.95696e-07          0.00223824           
  -7.3                  9.00619e-05           -1.84978e-07          0.00220623           
  -7.2                  8.85163e-05           -1.74667e-07          0.00216837           
  -7.1                  8.66347e-05           -1.64754e-07          0.00212228           
  -7                    8.43126e-05           -1.5523e-07           0.00206541           
  -6.9                  8.14403e-05           -1.46089e-07          0.00199505           
  -6.8                  7.79039e-05           -1.37322e-07          0.00190843           
  -6.7                  7.35876e-05           -1.2892e-07           0.0018027            
  -6.6                  6.83747e-05           -1.20875e-07          0.00167501           
  -6.5                  6.21492e-05           -1.1318e-07           0.00152252           
  -6.4                  5.47976e-05           -1.05825e-07          0.00134243           
  -6.3                  4.62101e-05           -9.88028e-08          0.00113207           
  -6.2                  3.62828e-05           -9.21053e-08          0.000888882          
  -6.1                  2.49197e-05           -8.5724e-08           0.000610511          
  -6                    1.20355e-05           -7.96507e-08          0.000294865          
  -5.9                  -2.44089e-06          -7.38772e-08          -5.98019e-05         
  -5.8                  -1.85613e-05          -6.83954e-08          -0.000454764         
  -5.7                  -3.63517e-05          -6.31971e-08          -0.000890663         
  -5.6                  -5.58028e-05          -5.82739e-08          -0.00136728          
  -5.5                  -7.68579e-05          -5.36179e-08          -0.00188323          
  -5.4                  -9.93968e-05          -4.92209e-08          -0.00243557          
  -5.3                  -0.000123216          -4.50748e-08          -0.00301933          
  -5.2                  -0.000148006          -4.11715e-08          -0.00362693          
  -5.1                  -0.000173325          -3.7503e-08           -0.00424752          
  -5                    -0.000198572          -3.40615e-08          -0.0048664           
  -4.9                  -0.000222966          -3.08392e-08          -0.00546442          
  -4.8                  -0.00024553           -2.78285e-08          -0.00601762          
  -4.7                  -0.000265094          -2.50218e-08          -0.00649729          
  -4.6                  -0.000280312          -2.2412e-08           -0.00687042          
  -4.5                  -0.000289719          -1.9992e-08           -0.00710108          
  -4.4                  -0.000291818          -1.77553e-08          -0.00715256          
  -4.3                  -0.000285214          -1.56955e-08          -0.00699061          
  -4.2                  -0.000268776          -1.38071e-08          -0.00658756          
  -4.1                  -0.000241843          -1.20849e-08          -0.00592722          
  -4                    -0.000204437          -1.05242e-08          -0.00501017          
  -3.9                  -0.000157487          -9.12135e-09          -0.00385931          
  -3.8                  -0.000103066          -7.87289e-09          -0.00252549          
  -3.7                  -4.46265e-05          -6.77594e-09          -0.00109342          
  -3.6                  1.27473e-05           -5.82762e-09          0.000312304          
  -3.5                  6.21291e-05           -5.02468e-09          0.00152203           
  -3.4                  9.47057e-05           -4.36311e-09          0.00231997           
  -3.3                  0.000100207           -3.83833e-09          0.00245472           
  -3.2                  6.84077e-05           -3.44618e-09          0.00167582           
  -3.1                  -7.3084e-06           -3.18475e-09          -0.000179058         
  -3                    -0.00012308           -3.05544e-09          -0.00301599          
  -2.9                  -0.000254248          -3.05917e-09          -0.00623136          
  -2.8                  -0.000348157          -3.18138e-09          -0.00853414          
  -2.7                  -0.000348831          -3.36312e-09          -0.00855066          
  -2.6                  -0.000287429          -3.47682e-09          -0.00704492          
  -2.5                  -0.000239824          -3.36112e-09          -0.00587771          
  -2.4                  0.000217474           -2.93893e-09          0.00532645           
  -2.3                  0.00232947            -2.30356e-09          0.0568799            
  -2.2                  0.00760125            -1.64312e-09          0.184187             
  -2.1                  0.0169874             -1.09749e-09          0.405981             
  -2                    0.0304184             -7.07323e-10          0.712517             
  -1.9                  0.0472175             -4.50747e-10          1.07795              
  -1.8                  0.0667272             -2.88654e-10          1.47729              
  -1.7                  0.0884341             -1.87078e-10          1.88996              
  -1.6                  0.11178               -1.22458e-10          2.29658              
  -1.5                  0.135688              -8.01566e-11          2.673                
  -1.4                  0.158076              -5.16921e-11          2.98884              
  -1.3                  0.177277              -3.22836e-11          3.23146              
  -1.2                  0.192936              -1.90941e-11          3.41001              
  -1.1                  0.205359              -1.03352e-11          3.53933              
  -1                    0.215118              -4.82084e-12          3.63325              
  -0.9                  0.222846              -1.71015e-12          3.70284              
  -0.8                  0.229099              -3.27201e-13          3.75606              
  -0.7                  0.234298              -4.29048e-15          3.79821              
  -0.6                  0.238731              5.76415e-14           3.83263              
  -0.5                  0.242586              8.64481e-13           3.86143              
  -0.4                  0.245982              3.51599e-12           3.88594              
  -0.3                  0.248997              8.70804e-12           3.90701              
  -0.2                  0.251687              1.57278e-11           3.92527              
  -0.1                  0.254097              2.13529e-11           3.94118              
  0                     0.256263              2.04044e-11           3.95515              
END_DB

BEGIN_DB
 ICCAP_VAR vd         2              

 #vg                    id                    ig                    T                    
  -9                    4.64698e-05           -5.07696e-07          0.00227694           
  -8.9                  4.81773e-05           -4.88189e-07          0.00236061           
  -8.8                  4.97241e-05           -4.69128e-07          0.00243639           
  -8.7                  5.1164e-05            -4.50515e-07          0.00250694           
  -8.6                  5.25521e-05           -4.32356e-07          0.00257495           
  -8.5                  5.39426e-05           -4.14652e-07          0.00264308           
  -8.4                  5.53874e-05           -3.97405e-07          0.00271387           
  -8.3                  5.69343e-05           -3.80616e-07          0.00278966           
  -8.2                  5.86246e-05           -3.64284e-07          0.00287248           
  -8.1                  6.04912e-05           -3.48409e-07          0.00296394           
  -8                    6.2557e-05            -3.32987e-07          0.00306516           
  -7.9                  6.48328e-05           -3.18017e-07          0.00317666           
  -7.8                  6.73156e-05           -3.03495e-07          0.0032983            
  -7.7                  6.99884e-05           -2.89416e-07          0.00342926           
  -7.6                  7.28187e-05           -2.75775e-07          0.00356793           
  -7.5                  7.57589e-05           -2.62567e-07          0.00371198           
  -7.4                  7.87466e-05           -2.49786e-07          0.00385836           
  -7.3                  8.17057e-05           -2.37426e-07          0.00400334           
  -7.2                  8.45474e-05           -2.25481e-07          0.00414257           
  -7.1                  8.7172e-05            -2.13944e-07          0.00427116           
  -7                    8.9471e-05            -2.02808e-07          0.0043838            
  -6.9                  9.1329e-05            -1.92067e-07          0.00447482           
  -6.8                  9.26254e-05           -1.81714e-07          0.00453834           
  -6.7                  9.3237e-05            -1.71741e-07          0.00456831           
  -6.6                  9.30399e-05           -1.62143e-07          0.00455865           
  -6.5                  9.19109e-05           -1.5291e-07           0.00450333           
  -6.4                  8.97302e-05           -1.44038e-07          0.00439649           
  -6.3                  8.63829e-05           -1.35518e-07          0.0042325            
  -6.2                  8.17616e-05           -1.27343e-07          0.00400608           
  -6.1                  7.57684e-05           -1.19506e-07          0.00371245           
  -6                    6.83186e-05           -1.12001e-07          0.00334744           
  -5.9                  5.93442e-05           -1.0482e-07           0.00290774           
  -5.8                  4.87992e-05           -9.7955e-08           0.00239107           
  -5.7                  3.66655e-05           -9.13997e-08          0.00179656           
  -5.6                  2.29622e-05           -8.51467e-08          0.00112513           
  -5.5                  7.75564e-06           -7.91887e-08          0.000380024          
  -5.4                  -8.82698e-06          -7.35182e-08          -0.000432525         
  -5.3                  -2.6582e-05           -6.8128e-08           -0.00130255          
  -5.2                  -4.52121e-05          -6.30106e-08          -0.00221547          
  -5.1                  -6.4308e-05           -5.81589e-08          -0.00315124          
  -5                    -8.33325e-05          -5.35653e-08          -0.00408354          
  -4.9                  -0.000101609          -4.92227e-08          -0.00497919          
  -4.8                  -0.000118316          -4.51239e-08          -0.00579798          
  -4.7                  -0.0001325            -4.12619e-08          -0.00649313          
  -4.6                  -0.000143096          -3.76297e-08          -0.00701241          
  -4.5                  -0.00014897           -3.42209e-08          -0.00730031          
  -4.4                  -0.000148986          -3.10292e-08          -0.00730108          
  -4.3                  -0.00014208           -2.80489e-08          -0.00696264          
  -4.2                  -0.000127359          -2.5275e-08           -0.00624117          
  -4.1                  -0.000104201          -2.27032e-08          -0.00510624          
  -4                    -7.2374e-05           -2.03301e-08          -0.00354651          
  -3.9                  -3.2168e-05           -1.81533e-08          -0.00157627          
  -3.8                  1.54393e-05           -1.61713e-08          0.000756518          
  -3.7                  6.85786e-05           -1.43829e-08          0.00336018           
  -3.6                  0.000124253           -1.27872e-08          0.00608783           
  -3.5                  0.000178121           -1.13818e-08          0.00872681           
  -3.4                  0.000224446           -1.01621e-08          0.0109961            
  -3.3                  0.000256487           -9.12174e-09          0.0125655            
  -3.2                  0.000267868           -8.25336e-09          0.013123             
  -3.1                  0.000255739           -7.55235e-09          0.0125289            
  -3                    0.000226637           -7.01766e-09          0.0111034            
  -2.9                  0.000204868           -6.64451e-09          0.0100371            
  -2.8                  0.000236796           -6.40315e-09          0.011601             
  -2.7                  0.000360469           -6.20865e-09          0.0176584            
  -2.6                  0.000518908           -5.91033e-09          0.025417             
  -2.5                  0.000750089           -5.35163e-09          0.0367344            
  -2.4                  0.00201976            -4.49945e-09          0.098824             
  -2.3                  0.0062046             -3.50048e-09          0.302663             
  -2.2                  0.0147529             -2.56513e-09          0.715191             
  -2.1                  0.0279044             -1.82288e-09          1.33977              
  -2                    0.0448442             -1.29334e-09          2.12622              
  -1.9                  0.0644962             -9.3715e-10           3.01315              
  -1.8                  0.0861831             -7.03653e-10          3.9602               
  -1.7                  0.109633              -5.50971e-10          4.94681              
  -1.6                  0.134636              -4.49445e-10          5.95586              
  -1.5                  0.16082               -3.7945e-10           6.96521              
  -1.4                  0.187689              -3.28396e-10          7.95049              
  -1.3                  0.214739              -2.88292e-10          8.89084              
  -1.2                  0.241559              -2.54046e-10          9.77206              
  -1.1                  0.267855              -2.22388e-10          10.5866              
  -1                    0.293352              -1.91229e-10          11.3298              
  -0.9                  0.317433              -1.59358e-10          11.9894              
  -0.8                  0.339074              -1.26542e-10          12.5472              
  -0.7                  0.357642              -9.3677e-11           12.9993              
  -0.6                  0.373199              -6.26305e-11          13.3594              
  -0.5                  0.386128              -3.59014e-11          13.6456              
  -0.4                  0.396875              -1.60116e-11          13.8745              
  -0.3                  0.405864              -4.42977e-12          14.0597              
  -0.2                  0.413453              -3.22287e-13          14.2116              
  -0.1                  0.419931              3.00252e-14           14.338               
  0                     0.425519              2.13548e-12           14.4447              
END_DB

BEGIN_DB
 ICCAP_VAR vd         3              

 #vg                    id                    ig                    T                    
  -9                    3.50976e-05           -5.91359e-07          0.00257963           
  -8.9                  3.90577e-05           -5.70661e-07          0.00287068           
  -8.8                  4.28142e-05           -5.50365e-07          0.00314678           
  -8.7                  4.64156e-05           -5.30476e-07          0.00341147           
  -8.6                  4.99124e-05           -5.11e-07             0.00366847           
  -8.5                  5.3356e-05            -4.91944e-07          0.00392156           
  -8.4                  5.67974e-05           -4.73311e-07          0.00417449           
  -8.3                  6.02852e-05           -4.55105e-07          0.00443083           
  -8.2                  6.38641e-05           -4.3733e-07           0.00469387           
  -8.1                  6.75726e-05           -4.19987e-07          0.00496642           
  -8                    7.14409e-05           -4.03076e-07          0.00525072           
  -7.9                  7.54891e-05           -3.86599e-07          0.00554824           
  -7.8                  7.97253e-05           -3.70555e-07          0.00585958           
  -7.7                  8.4144e-05            -3.54941e-07          0.00618433           
  -7.6                  8.87245e-05           -3.39755e-07          0.00652097           
  -7.5                  9.34308e-05           -3.24995e-07          0.00686686           
  -7.4                  9.82106e-05           -3.10656e-07          0.00721813           
  -7.3                  0.000102996           -2.96734e-07          0.0075698            
  -7.2                  0.000107703           -2.83225e-07          0.00791576           
  -7.1                  0.000112236           -2.70124e-07          0.00824888           
  -7                    0.000116485           -2.57426e-07          0.00856116           
  -6.9                  0.000120332           -2.45125e-07          0.00884388           
  -6.8                  0.00012365            -2.33215e-07          0.00908772           
  -6.7                  0.000126307           -2.21692e-07          0.00928303           
  -6.6                  0.00012817            -2.10549e-07          0.00941992           
  -6.5                  0.000129104           -1.9978e-07           0.00948853           
  -6.4                  0.000128976           -1.8938e-07           0.00947917           
  -6.3                  0.000127662           -1.79343e-07          0.00938258           
  -6.2                  0.000125043           -1.69663e-07          0.00919008           
  -6.1                  0.000121012           -1.60333e-07          0.00889386           
