! VERSION = 6.00
BEGIN_HEADER
 ICCAP_INPUTS
  vg         V  P1 GROUND SMU_B 0.1 CON        -2.4
  freq       F  CON        100000000
  vd         V  P2 GROUND SMU_C 0.1 LIN        1    0          60         61   1         
 ICCAP_OUTPUTS
  S_deemb    S  P1 P2 GROUND n/a B
  id         I  P2 GROUND SMU_C B
  ig         I  P1 GROUND SMU_B B
  T          V  T GROUND n/a B
 ICCAP_VALUES
  MAIN.NF "8.000"
  MAIN.L "150.0n"
  MAIN.W "100.0u"
  TEMP "25.00"
  MAIN.TNOM "25.00"
END_HEADER

BEGIN_DB
 ICCAP_VAR vg         -2.4           
 ICCAP_VAR freq       1e+08          

 #vd                    R:S_deemb(1,1)        I:S_deemb(1,1)        R:S_deemb(1,2)        I:S_deemb(1,2)        R:S_deemb(2,1)        I:S_deemb(2,1)        R:S_deemb(2,2)        I:S_deemb(2,2)        id                    ig                    T                    
  0                     0.998244              -0.0593099            0.000600039           0.0139067             0.305708              -0.01249              0.556058              -0.0178263            0.00114141            -1.64699e-09          -4.60911e-05         
  1                     0.997654              -0.0659378            0.000631704           0.0132734             -1.14192              0.0571874             0.87309               -0.0337793            0.000217474           -2.93893e-09          0.00532645           
  2                     0.997267              -0.0702654            0.000539373           0.0110429             -2.35806              0.120708              0.849262              -0.0372594            0.00201976            -4.49945e-09          0.098824             
  3                     0.996602              -0.0777963            0.000499668           0.00963192            -4.12615              0.222212              0.820328              -0.0424187            0.0035067             -6.38459e-09          0.257307             
  4                     0.995905              -0.0853338            0.000458873           0.00837675            -5.98762              0.338791              0.745698              -0.0452059            0.00535699            -8.63465e-09          0.52397              
  5                     0.995209              -0.0924769            0.000421167           0.00731655            -7.86621              0.4664                0.666201              -0.0466894            0.00879047            -1.13155e-08          1.0741               
  6                     0.994553              -0.0988514            0.000391094           0.00650047            -9.66864              0.598331              0.609994              -0.0477976            0.0142287             -1.45174e-08          2.08446              
  7                     0.994013              -0.103884             0.000366104           0.00587839            -11.2596              0.720963              0.580171              -0.0485351            0.0205247             -1.82685e-08          3.50508              
  8                     0.993634              -0.107346             0.000343289           0.00538569            -12.5662              0.823612              0.570667              -0.0487669            0.0258045             -2.24514e-08          5.03412              
  9                     0.993403              -0.109464             0.000321908           0.0049822             -13.6042              0.90424               0.57506               -0.0485663            0.0294106             -2.69045e-08          6.45443              
  10                    0.993283              -0.110621             0.000302318           0.00464731            -14.4241              0.965886              0.588228              -0.0481023            0.0318774             -3.15429e-08          7.77402              
  11                    0.993236              -0.111143             0.000284848           0.00436838            -15.0693              1.01222               0.606071              -0.0474985            0.0336911             -3.63093e-08          9.0396               
  12                    0.993236              -0.111261             0.000269518           0.00413536            -15.572               1.04626               0.62545               -0.0468166            0.0350741             -4.11381e-08          10.2682              
  13                    0.993265              -0.111118             0.000256115           0.00393939            -15.9572              1.07035               0.644285              -0.0460833            0.0361688             -4.59704e-08          11.4735              
  14                    0.993315              -0.110798             0.000244322           0.00377263            -16.247               1.08643               0.661459              -0.0453122            0.037075              -5.07573e-08          12.6681              
  15                    0.993378              -0.11035              0.000233811           0.00362842            -16.4613              1.09619               0.676565              -0.044513             0.0378477             -5.54556e-08          13.8583              
  16                    0.993452              -0.109805             0.000224296           0.00350134            -16.6178              1.10105               0.689626              -0.0436947            0.0385146             -6.00269e-08          15.0452              
  17                    0.993533              -0.109186             0.000215552           0.00338722            -16.7316              1.10224               0.700878              -0.0428653            0.0390928             -6.44401e-08          16.2281              
  18                    0.993619              -0.10851              0.000207415           0.00328297            -16.8144              1.10073               0.710627              -0.0420321            0.0395972             -6.86732e-08          17.4069              
  19                    0.993709              -0.107795             0.000199774           0.00318637            -16.8754              1.09733               0.719175              -0.0412015            0.0400421             -7.27129e-08          18.5829              
  20                    0.9938                -0.107055             0.000192559           0.00309593            -16.9213              1.09263               0.726786              -0.0403791            0.0404407             -7.65535e-08          19.7581              
  21                    0.993892              -0.106306             0.000185728           0.0030106             -16.957               1.08711               0.733676              -0.0395698            0.040804              -8.01951e-08          20.9347              
  22                    0.993982              -0.105558             0.000179255           0.00292972            -16.9857              1.08112               0.740016              -0.0387776            0.0411407             -8.36418e-08          22.1149              
  23                    0.994069              -0.104824             0.000173126           0.00285284            -17.0096              1.07494               0.745934              -0.0380059            0.0414569             -8.69001e-08          23.3002              
  24                    0.994154              -0.104113             0.000167331           0.00277966            -17.0302              1.06875               0.751527              -0.0372573            0.0417565             -8.99777e-08          24.4911              
  25                    0.994234              -0.10343              0.000161861           0.00270998            -17.0482              1.06268               0.756861              -0.0365338            0.0420415             -9.28822e-08          25.6879              
  26                    0.99431               -0.102782             0.000156708           0.00264365            -17.0641              1.05682               0.761986              -0.0358366            0.0423126             -9.56208e-08          26.8898              
  27                    0.99438               -0.10217              0.000151862           0.00258058            -17.0778              1.0512                0.766932              -0.0351664            0.04257               -9.81999e-08          28.0959              
  28                    0.994447              -0.101597             0.000147314           0.00252067            -17.0892              1.04585               0.771716              -0.0345233            0.0428132             -1.00625e-07          29.305               
  29                    0.994508              -0.101062             0.00014305            0.00246386            -17.098               1.04075               0.776349              -0.033907             0.0430421             -1.02902e-07          30.5158              
  30                    0.994565              -0.100564             0.000139058           0.00241006            -17.1039              1.03587               0.780831              -0.0333166            0.0432563             -1.05034e-07          31.7272              
  31                    0.994618              -0.100101             0.000135322           0.0023592             -17.1064              1.03115               0.785161              -0.0327512            0.0434559             -1.07026e-07          32.938               
  32                    0.994667              -0.0996684            0.000131827           0.00231118            -17.105               1.02655               0.789333              -0.0322093            0.0436411             -1.08884e-07          34.1472              
  33                    0.994713              -0.0992633            0.000128557           0.0022659             -17.0995              1.02201               0.793339              -0.0316893            0.0438122             -1.10615e-07          35.3542              
  34                    0.994756              -0.0988814            0.000125495           0.00222324            -17.0895              1.01747               0.797171              -0.0311896            0.0439696             -1.12224e-07          36.5583              
  35                    0.994796              -0.0985183            0.000122622           0.00218304            -17.0747              1.01288               0.800823              -0.0307083            0.044114              -1.13722e-07          37.7589              
  36                    0.994835              -0.0981697            0.000119921           0.00214516            -17.0551              1.00818               0.804288              -0.0302435            0.0442458             -1.15119e-07          38.9556              
  37                    0.994873              -0.0978317            0.000117375           0.00210941            -17.0306              1.00334               0.80756               -0.0297933            0.044366              -1.16424e-07          40.1481              
  38                    0.994909              -0.0975003            0.000114966           0.00207561            -17.0012              0.998313              0.810635              -0.0293557            0.0444751             -1.17652e-07          41.3364              
  39                    0.994945              -0.0971725            0.000112677           0.00204355            -16.967               0.993085              0.813512              -0.0289289            0.0445742             -1.18819e-07          42.5203              
  40                    0.994981              -0.0968456            0.000110493           0.00201301            -16.9282              0.98764               0.816188              -0.028511             0.044664              -1.19945e-07          43.7001              
  41                    0.995016              -0.0965174            0.000108397           0.00198378            -16.8852              0.981974              0.818665              -0.0281005            0.0447456             -1.21056e-07          44.8761              
  42                    0.995052              -0.0961867            0.000106377           0.00195564            -16.8381              0.976093              0.820944              -0.0276955            0.0448201             -1.22183e-07          46.0488              
  43                    0.995087              -0.0958528            0.000104418           0.00192837            -16.7875              0.970014              0.82303               -0.0272948            0.0448886             -1.23367e-07          47.2189              
  44                    0.995123              -0.0955157            0.000102511           0.00190178            -16.7337              0.963759              0.824925              -0.0268971            0.0449525             -1.24653e-07          48.3873              
  45                    0.995159              -0.0951762            0.000100644           0.00187566            -16.6772              0.957361              0.826636              -0.0265013            0.045013              -1.26089e-07          49.5552              
  46                    0.995194              -0.0948355            9.88061e-05           0.00184983            -16.6183              0.950857              0.828166              -0.0261066            0.0450716             -1.27709e-07          50.7238              
  47                    0.995229              -0.0944957            9.69863e-05           0.00182413            -16.5577              0.94429               0.829524              -0.0257124            0.0451296             -1.29512e-07          51.8946              
  48                    0.995264              -0.0941591            9.51749e-05           0.00179842            -16.4956              0.937709              0.830714              -0.0253184            0.0451885             -1.31448e-07          53.0695              
  49                    0.995298              -0.0938285            9.33668e-05           0.00177258            -16.4326              0.931163              0.831745              -0.0249245            0.04525               -1.33433e-07          54.2502              
  50                    0.995331              -0.0935071            9.1562e-05            0.00174651            -16.369               0.924706              0.832623              -0.0245311            0.0453155             -1.35384e-07          55.4389              
  51                    0.995363              -0.0931983            8.9764e-05            0.00172013            -16.3055              0.918392              0.833355              -0.0241387            0.0453866             -1.37252e-07          56.6377              
  52                    0.995393              -0.0929055            8.79772e-05           0.0016934             -16.2422              0.912276              0.83395               -0.0237482            0.0454647             -1.39035e-07          57.8489              
  53                    0.995422              -0.0926324            8.62055e-05           0.0016663             -16.1797              0.906413              0.834416              -0.0233608            0.0455514             -1.40759e-07          59.0751              
  54                    0.995448              -0.0923826            8.44525e-05           0.00163881            -16.1183              0.900858              0.834762              -0.0229781            0.0456481             -1.42466e-07          60.3187              
  55                    0.995471              -0.0921593            8.27222e-05           0.00161096            -16.0583              0.895664              0.834999              -0.0226021            0.045756              -1.44199e-07          61.5821              
  56                    0.995492              -0.0919659            8.10195e-05           0.00158277            -16.0001              0.890886              0.835137              -0.0222352            0.0458763             -1.46006e-07          62.8679              
  57                    0.995509              -0.0918052            7.93509e-05           0.00155432            -15.9441              0.886577              0.83519               -0.0218802            0.0460102             -1.47943e-07          64.1783              
  58                    0.995523              -0.0916798            7.77248e-05           0.00152565            -15.8905              0.882787              0.835173              -0.0215405            0.0461585             -1.50089e-07          65.5158              
  59                    0.995534              -0.091592             7.61515e-05           0.00149685            -15.8397              0.87957               0.835102              -0.0212197            0.0463218             -1.52561e-07          66.8822              
  60                    0.995541              -0.0915434            7.46416e-05           0.001468              -15.7919              0.876979              0.834998              -0.0209224            0.0465007             -1.55533e-07          68.2795              
END_DB

