! VERSION = 6.00
BEGIN_HEADER
 ICCAP_INPUTS
  vg         V  P1 GROUND SMU_B 0.1 LIN        1    -9         0          46   0.2       
  freq       F  CON        100000000
  vd         V  P2 GROUND SMU_C 0.1 LIN        2    0          0.4        3    0.2       
 ICCAP_OUTPUTS
  S_deemb    S  P1 P2 GROUND n/a B
  id         I  P2 GROUND SMU_C B
  ig         I  P1 GROUND SMU_B B
  T          V  T GROUND n/a B
 ICCAP_VALUES
  MAIN.NF "8.000"
  MAIN.L "150.0n"
  MAIN.W "100.0u"
  TEMP "25.00"
  MAIN.TNOM "25.00"
END_HEADER

BEGIN_DB
 ICCAP_VAR freq       1e+08          
 ICCAP_VAR vd         0              

 #vg                    R:S_deemb(1,1)        I:S_deemb(1,1)        R:S_deemb(1,2)        I:S_deemb(1,2)        R:S_deemb(2,1)        I:S_deemb(2,1)        R:S_deemb(2,2)        I:S_deemb(2,2)        id                    ig                    T                    
  -9                    0.999013              -0.0425746            0.000321826           0.00904868            0.0191482             0.0105345             0.995198              -0.0259406            0.000274057           -3.53496e-07          1.11666e-44          
  -8.8                  0.999008              -0.0426907            0.00032532            0.00913137            0.0216535             0.01055               0.994842              -0.0260163            0.000261964           -3.21243e-07          1.12542e-44          
  -8.6                  0.999003              -0.0428122            0.000328751           0.00921132            0.0240727             0.0105629             0.994352              -0.0260891            0.000248462           -2.90988e-07          1.12542e-44          
  -8.4                  0.998998              -0.0429401            0.000332124           0.0092885             0.0263228             0.0105755             0.993744              -0.0261597            0.00023402            -2.62698e-07          1.12542e-44          
  -8.2                  0.998992              -0.0430755            0.000335454           0.00936305            0.0283221             0.0105899             0.993043              -0.026229             0.00021904            -2.3633e-07           1.11228e-44          
  -8                    0.998986              -0.0432198            0.000338761           0.00943529            0.0299982             0.010608              0.992276              -0.026298             0.000203789           -2.11827e-07          1.1298e-44           
  -7.8                  0.99898               -0.0433741            0.000342071           0.00950572            0.0312963             0.0106313             0.991471              -0.0263675            0.000188342           -1.89126e-07          1.12542e-44          
  -7.6                  0.998972              -0.0435398            0.000345417           0.00957498            0.0321863             0.0106601             0.990655              -0.0264383            0.000172553           -1.68157e-07          1.12542e-44          
  -7.4                  0.998965              -0.0437181            0.000348836           0.00964386            0.0326679             0.010694              0.98985               -0.0265109            0.00015605            -1.48849e-07          1.12542e-44          
  -7.2                  0.998956              -0.0439102            0.00035237            0.00971326            0.0327716             0.0107313             0.98907               -0.0265856            0.000138256           -1.31128e-07          1.11228e-44          
  -7                    0.998947              -0.0441174            0.000356062           0.00978411            0.0325555             0.0107697             0.988323              -0.0266624            0.000118429           -1.14919e-07          1.12542e-44          
  -6.8                  0.998937              -0.0443406            0.000359956           0.00985739            0.032099              0.0108061             0.987606              -0.026741             9.57047e-05           -1.00148e-07          1.1298e-44           
  -6.6                  0.998926              -0.0445809            0.000364094           0.00993397            0.031494              0.0108373             0.986912              -0.026821             6.91493e-05           -8.67403e-08          1.12542e-44          
  -6.4                  0.998915              -0.0448395            0.000368517           0.0100147             0.0308359             0.0108603             0.986225              -0.0269021            3.78052e-05           -7.4623e-08           1.12542e-44          
  -6.2                  0.998902              -0.0451172            0.00037326            0.0101                0.0302152             0.010873              0.985527              -0.0269843            7.40097e-07           -6.37227e-08          1.12542e-44          
  -6                    0.998888              -0.0454145            0.000378351           0.0101905             0.0297088             0.0108738             0.984798              -0.0270678            -4.29059e-05          -5.39674e-08          1.12542e-44          
  -5.8                  0.998874              -0.0457315            0.00038381            0.0102863             0.0293652             0.0108631             0.984017              -0.0271535            -9.38572e-05          -4.52858e-08          1.1298e-44           
  -5.6                  0.998858              -0.0460678            0.000389649           0.0103872             0.0291731             0.0108438             0.983171              -0.0272433            -0.000152583          -3.76076e-08          1.1298e-44           
  -5.4                  0.998841              -0.0464221            0.000395879           0.010493              0.0289974             0.0108233             0.982265              -0.027341             -0.000219037          -3.08637e-08          1.1298e-44           
  -5.2                  0.998824              -0.0467933            0.000402522           0.0106038             0.0284775             0.010817              0.981345              -0.0274534            -0.00029213           -2.49867e-08          1.12542e-44          
  -5                    0.998805              -0.0471805            0.000409646           0.0107202             0.0269076             0.0108519             0.980547              -0.0275927            -0.000368836          -1.99109e-08          1.12542e-44          
  -4.8                  0.998785              -0.0475847            0.000417403           0.0108444             0.023186              0.0109673             0.980165              -0.0277782            -0.000442927          -1.55728e-08          1.12542e-44          
  -4.6                  0.998763              -0.0480072            0.000426075           0.0109814             0.0160319             0.0112057             0.980713              -0.0280379            -0.000503698          -1.19119e-08          1.11228e-44          
  -4.4                  0.998741              -0.0484439            0.000436069           0.0111391             0.00481917            0.0115786             0.982917              -0.028403             -0.000535685          -8.87126e-09          1.11228e-44          
  -4.2                  0.998718              -0.0488709            0.000447801           0.0113282             -0.00872757           0.0119978             0.987437              -0.0288907            -0.000521201          -6.39813e-09          1.13856e-44          
  -4                    0.9987                -0.049231             0.000461462           0.0115599             -0.0187234            0.0121999             0.994284              -0.0294743            -0.000447458          -4.44449e-09          6.78929e-43          
  -3.8                  0.998689              -0.0494608            0.000477005           0.0118437             -0.0156451            0.0117704             1.00217               -0.0300623            -0.000317521          -2.96596e-09          3.27136e-40          
  -3.6                  0.998685              -0.0496183            0.000495049           0.0121911             0.00794525            0.0103947             1.00856               -0.0305257            -0.000160079          -1.91793e-09          1.57453e-37          
  -3.4                  0.998665              -0.0501021            0.00051914            0.0126317             0.0446596             0.00837872            1.01106               -0.0308193            -2.97951e-05          -1.24919e-09          6.77726e-35          
  -3.2                  0.998585              -0.0516908            0.000558025           0.013239              0.0512483             0.00743456            1.01058               -0.0312392            1.7104e-05            -9.02819e-10          3.74835e-24          
  -3                    0.998397              -0.0549631            0.000623645           0.0141386             -0.0704914            0.011623              1.01331               -0.032714             7.63091e-06           -8.47076e-10          8.24637e-23          
  -2.8                  0.998128              -0.0591307            0.000714126           0.0153452             -0.378509             0.023842              1.01476               -0.0357809            0.000209113           -1.12532e-09          1.8517e-21           
  -2.6                  0.998129              -0.059676             0.000749553           0.016129              -0.296378             0.0164715             0.94145               -0.0333931            0.00086274            -1.65207e-09          4.01231e-20          
  -2.4                  0.998244              -0.0593099            0.000600039           0.0139067             0.305708              -0.01249              0.556058              -0.0178263            0.00114141            -1.64699e-09          7.76118e-19          
  -2.2                  0.997436              -0.0709609            0.000264004           0.00637689            0.137215              -0.00439099           -0.313666             -0.00325808           0.000704181           -8.83428e-10          7.34627e-18          
  -2                    0.996448              -0.0833581            0.000135725           0.00308396            -0.136697             0.00770587            -0.673022             -0.000936534          -0.000397626          -2.80644e-10          1.80421e-17          
  -1.8                  0.995953              -0.089029             9.1528e-05            0.00202232            -0.0441682            0.00353152            -0.788633             -0.000290216          -0.000979697          -5.69652e-11          2.21288e-17          
  -1.6                  0.995696              -0.0918261            7.67782e-05           0.00167014            0.0301222             -1.27794e-05          -0.829349             -0.000114072          -0.00118293           -5.12788e-12          2.25343e-17          
  -1.4                  0.995582              -0.0930121            7.32842e-05           0.00157836            0.0206766             0.000485006           -0.843008             -0.000103976          -0.000970883          1.61985e-17           2.2053e-17           
  -1.2                  0.995567              -0.093152             7.31137e-05           0.00156866            -0.00349642           0.00170249            -0.847231             -0.000130686          -0.000577262          4.43602e-12           2.14662e-17          
  -1                    0.995569              -0.0931347            7.34133e-05           0.00157035            -0.0146053            0.00221815            -0.848707             -0.000153614          -0.000262139          3.57467e-11           2.09452e-17          
  -0.8                  0.995547              -0.0933708            7.34534e-05           0.0015634             -0.0160567            0.00220384            -0.849521             -0.00016812           -2.08142e-05          1.29324e-10           2.05112e-17          
  -0.6                  0.995515              -0.0937232            7.29392e-05           0.00154434            -0.0138358            0.00198526            -0.850239             -0.000176908          0.000220016           3.28738e-10           2.01358e-17          
  -0.4                  0.995501              -0.0938957            7.15899e-05           0.00151213            -0.00881694           0.00163706            -0.851171             -0.000180193          0.000425667           6.36619e-10           1.95963e-17          
  -0.2                  0.995517              -0.0937369            6.92796e-05           0.00146641            -0.000371183          0.00115195            -0.852658             -0.000176958          0.000460648           8.79228e-10           1.6516e-17           
  0                     0.995556              -0.0933444            6.62191e-05           0.00140966            0.00937631            0.000649288           -0.854962             -0.000168217          0.000212674           7.67351e-10           0                    
END_DB

BEGIN_DB
 ICCAP_VAR freq       1e+08          
 ICCAP_VAR vd         0.2            

 #vg                    R:S_deemb(1,1)        I:S_deemb(1,1)        R:S_deemb(1,2)        I:S_deemb(1,2)        R:S_deemb(2,1)        I:S_deemb(2,1)        R:S_deemb(2,2)        I:S_deemb(2,2)        id                    ig                    T                    
  -9                    0.999017              -0.042504             0.000316308           0.00891102            0.016879              0.0105155             0.994851              -0.0258314            0.000232047           -3.67912e-07          2.27881e-15          
  -8.8                  0.999012              -0.0426231            0.000319609           0.00898795            0.0192005             0.010538              0.994622              -0.0259118            0.000222344           -3.34954e-07          2.27881e-15          
  -8.6                  0.999007              -0.0427475            0.000322859           0.00906258            0.0214706             0.0105568             0.994266              -0.0259895            0.000211418           -3.03984e-07          2.27881e-15          
  -8.4                  0.999002              -0.0428782            0.000326069           0.00913498            0.0236152             0.0105739             0.993795              -0.0260649            0.000199722           -2.74976e-07          2.27881e-15          
  -8.2                  0.998996              -0.0430159            0.000329252           0.00920536            0.0255582             0.0105914             0.993231              -0.0261389            0.000187643           -2.4789e-07           2.27881e-15          
  -8                    0.99899               -0.0431619            0.000332433           0.00927415            0.0272287             0.0106109             0.992596              -0.0262122            0.000175438           -2.22675e-07          2.27881e-15          
  -7.8                  0.998983              -0.0433172            0.000335639           0.00934189            0.0285685             0.010634              0.991917              -0.0262857            0.000163174           -1.9927e-07           2.27881e-15          
  -7.6                  0.998976              -0.043483             0.000338904           0.00940933            0.0295396             0.0106613             0.991219              -0.0263601            0.000150701           -1.77611e-07          2.27881e-15          
  -7.4                  0.998968              -0.0436604            0.000342268           0.0094773             0.0301296             0.0106926             0.990525              -0.026436             0.000137648           -1.57627e-07          2.27881e-15          
  -7.2                  0.99896               -0.0438507            0.000345774           0.00954674            0.0303546             0.010727              0.989851              -0.0265137            0.000123443           -1.39247e-07          2.27881e-15          
  -7                    0.998951              -0.0440549            0.000349466           0.00961865            0.030258              0.0107623             0.989209              -0.0265934            0.000107351           -1.22399e-07          2.27881e-15          
  -6.8                  0.998941              -0.0442743            0.000353389           0.00969398            0.0299065             0.010796              0.988599              -0.0266748            8.85204e-05           -1.0701e-07           2.27881e-15          
  -6.6                  0.998931              -0.0445101            0.000357586           0.00977362            0.029382              0.0108251             0.988017              -0.0267577            6.60325e-05           -9.30069e-08          2.27881e-15          
  -6.4                  0.998919              -0.0447634            0.000362097           0.0098583             0.0287732             0.0108465             0.987451              -0.0268419            3.89465e-05           -8.03177e-08          2.27881e-15          
  -6.2                  0.998907              -0.0450354            0.000366955           0.00994857            0.028166              0.0108579             0.986886              -0.0269271            6.34849e-06           -6.88707e-08          2.27881e-15          
  -6                    0.998893              -0.045327             0.000372185           0.0100447             0.0276325             0.0108578             0.986304              -0.0270135            -3.2598e-05           -5.85949e-08          2.27881e-15          
  -5.8                  0.998879              -0.0456386            0.000377802           0.0101467             0.0272139             0.0108463             0.985688              -0.027102             -7.8583e-05           -4.94198e-08          2.27881e-15          
  -5.6                  0.998864              -0.04597              0.000383813           0.0102542             0.0268873             0.010826              0.985029              -0.0271944            -0.000132022          -4.12758e-08          2.27881e-15          
  -5.4                  0.998847              -0.0463202            0.00039022            0.0103669             0.0265049             0.0108044             0.984335              -0.0272943            -0.000192789          -3.40943e-08          2.27881e-15          
  -5.2                  0.99883               -0.046688             0.000397037           0.0104845             0.0257035             0.0107964             0.983658              -0.0274083            -0.000259707          -2.7808e-08           2.27881e-15          
  -5                    0.998811              -0.047072             0.000404311           0.0106075             0.023811              0.0108268             0.983128              -0.0275476            -0.000329695          -2.23513e-08          2.27881e-15          
  -4.8                  0.998791              -0.0474717            0.00041216            0.0107374             0.0198389             0.0109301             0.983011              -0.0277298            -0.000396631          -1.76607e-08          2.27881e-15          
  -4.6                  0.998771              -0.0478856            0.0004208             0.0108782             0.0127403             0.0111388             0.983749              -0.0279787            -0.000450282          -1.36753e-08          2.27881e-15          
  -4.4                  0.998749              -0.0483053            0.000430533           0.0110362             0.00221973            0.0114504             0.985927              -0.0283189            -0.000476272          -1.03381e-08          2.27881e-15          
