! VERSION = 6.00
BEGIN_HEADER
 ICCAP_INPUTS
  vg         V  P1 GROUND SMU_B 0.1 LIN        1    -9         0.2        47   0.2       
  freq       F  CON        100000000
  vd         V  P2 GROUND SMU_C 0.1 CON        25
 ICCAP_OUTPUTS
  S_deemb    S  P1 P2 GROUND n/a B
  id         I  P2 GROUND SMU_C B
  ig         I  P1 GROUND SMU_B B
  T          V  T GROUND n/a B
 ICCAP_VALUES
  MAIN.NF "8.000"
  MAIN.L "150.0n"
  MAIN.W "100.0u"
  TEMP "25.00"
  MAIN.TNOM "25.00"
END_HEADER

BEGIN_DB
 ICCAP_VAR freq       1e+08          
 ICCAP_VAR vd         25             

 #vg                    R:S_deemb(1,1)        I:S_deemb(1,1)        R:S_deemb(1,2)        I:S_deemb(1,2)        R:S_deemb(2,1)        I:S_deemb(2,1)        R:S_deemb(2,2)        I:S_deemb(2,2)        id                    ig                    T                    
  -9                    0.99921               -0.0387843            9.21506e-05           0.00308812            -0.0053589            0.00342426            0.999166              -0.0171702            -1.25741e-06          -2.0616e-06           -0.000770161         
  -8.8                  0.999208              -0.0388684            9.2456e-05            0.00309384            -0.0056941            0.00345179            0.999082              -0.0171969            5.57391e-07           -2.01988e-06          0.000341402          
  -8.6                  0.999205              -0.0389567            9.27831e-05           0.00309967            -0.00605676           0.00348077            0.998996              -0.0172239            2.45133e-06           -1.97984e-06          0.00150144           
  -8.4                  0.999202              -0.0390497            9.31325e-05           0.00310562            -0.00645247           0.00351135            0.998909              -0.0172511            4.50046e-06           -1.9413e-06           0.00275653           
  -8.2                  0.999199              -0.0391475            9.35048e-05           0.00311169            -0.0068862            0.00354367            0.998821              -0.0172785            6.79499e-06           -1.90407e-06          0.00416193           
  -8                    0.999195              -0.0392505            9.39002e-05           0.00311789            -0.0073606            0.00357777            0.998731              -0.017306             9.43737e-06           -1.86797e-06          0.00578038           
  -7.8                  0.999191              -0.0393587            9.43184e-05           0.00312421            -0.00787259           0.00361353            0.998639              -0.0173337            1.25354e-05           -1.83282e-06          0.0076779            
  -7.6                  0.999187              -0.0394718            9.47585e-05           0.00313066            -0.0084068            0.00365042            0.998543              -0.0173614            1.61857e-05           -1.79845e-06          0.00991371           
  -7.4                  0.999182              -0.0395896            9.52187e-05           0.00313721            -0.00892427           0.00368721            0.998439              -0.0173889            2.04399e-05           -1.76469e-06          0.0125194            
  -7.2                  0.999178              -0.0397116            9.56957e-05           0.00314382            -0.00934453           0.00372136            0.99832               -0.0174159            2.52411e-05           -1.73137e-06          0.0154602            
  -7                    0.999173              -0.039837             9.61848e-05           0.00315044            -0.00952216           0.00374836            0.998171              -0.0174419            3.03175e-05           -1.69832e-06          0.0185695            
  -6.8                  0.999167              -0.0399651            9.66794e-05           0.00315698            -0.00922796           0.00376109            0.997969              -0.017466             3.50292e-05           -1.6654e-06           0.0214553            
  -6.6                  0.999162              -0.0400948            9.71709e-05           0.00316335            -0.00816429           0.00375024            0.997681              -0.0174873            3.82008e-05           -1.63248e-06          0.0233979            
  -6.4                  0.999157              -0.0402254            9.76499e-05           0.00316942            -0.00606948           0.00370734            0.997278              -0.0175046            3.806e-05             -1.59944e-06          0.0233117            
  -6.2                  0.999151              -0.0403564            9.81084e-05           0.00317513            -0.00296142           0.00363191            0.996755              -0.017518             3.25169e-05           -1.56622e-06          0.0199166            
  -6                    0.999146              -0.0404889            9.85435e-05           0.00318051            0.000536092           0.00354122            0.996165              -0.0175293            2.00435e-05           -1.53279e-06          0.0122766            
  -5.8                  0.99914               -0.0406252            9.89599e-05           0.00318568            0.00306164            0.00347442            0.995638              -0.017543             1.09224e-06           -1.49917e-06          0.000668996          
  -5.6                  0.999134              -0.0407686            9.93666e-05           0.00319087            0.00295417            0.00347979            0.995338              -0.0175648            -2.07169e-05          -1.46547e-06          -0.0126891           
  -5.4                  0.999128              -0.040922             9.97697e-05           0.00319618            -0.000760573          0.00358561            0.995366              -0.017598             -3.88853e-05          -1.4318e-06           -0.0238173           
  -5.2                  0.999121              -0.0410864            0.000100166           0.00320154            -0.00754309           0.00377551            0.995679              -0.0176411            -4.63198e-05          -1.39828e-06          -0.028371            
  -5                    0.999113              -0.0412619            0.000100543           0.00320675            -0.0154336            0.00399113            0.996106              -0.0176878            -3.84912e-05          -1.36493e-06          -0.0235759           
  -4.8                  0.999105              -0.0414496            0.000100893           0.00321165            -0.0219646            0.00415999            0.996452              -0.0177309            -1.5552e-05           -1.33159e-06          -0.00952562          
  -4.6                  0.999096              -0.041654             0.000101219           0.00321633            -0.0250641            0.00422473            0.996592              -0.0177649            1.74952e-05           -1.29781e-06          0.0107158            
  -4.4                  0.999086              -0.0418856            0.000101549           0.00322117            -0.0233852            0.00415704            0.996512              -0.0177876            5.19994e-05           -1.26278e-06          0.0318496            
  -4.2                  0.999072              -0.0421638            0.000101948           0.0032268             -0.0163043            0.00396354            0.996276              -0.017799             7.73018e-05           -1.22523e-06          0.0473471            
  -4                    0.999054              -0.0425219            0.000102531           0.00323384            -0.00437749           0.00370511            0.995978              -0.0178018            8.27908e-05           -1.18308e-06          0.0507091            
  -3.8                  0.999026              -0.0430121            0.000103418           0.00324254            0.00884112            0.00354795            0.995702              -0.0178026            6.17313e-05           -1.1318e-06           0.0378103            
  -3.6                  0.998981              -0.0436981            0.000104646           0.00325224            0.0131751             0.00383755            0.995458              -0.017817             1.928e-05             -1.06084e-06          0.011809             
  -3.4                  0.998914              -0.0445982            0.000106067           0.00326105            -0.010247             0.00507226            0.995143              -0.0178734            -1.53314e-05          -9.51009e-07          -0.00939046          
  -3.2                  0.998832              -0.0455676            0.000107277           0.00326776            -0.0634764            0.0070443             0.994689              -0.0179749            2.38795e-06           -7.78424e-07          0.00146262           
  -3                    0.998758              -0.0466254            0.000108477           0.00327756            -0.0320209            0.00614299            0.9942                -0.0179409            -1.98531e-05          -5.38845e-07          -0.01216             
  -2.8                  0.99847               -0.0524053            0.000116534           0.00326708            -0.875895             0.0389985             0.974844              -0.0190115            7.67916e-05           -2.92787e-07          0.0470346            
  -2.6                  0.996639              -0.0784634            0.000146752           0.00305449            -8.91182              0.45051               0.861854              -0.0292041            0.00896839            -1.41542e-07          5.4903               
  -2.4                  0.994233              -0.10343              0.000161851           0.00270998            -17.0482              1.06279               0.756861              -0.0365321            0.0420415             -9.28822e-08          25.6879              
  -2.2                  0.993787              -0.107727             0.000146228           0.00239265            -19.0569              1.21986               0.713906              -0.0348209            0.0867531             -8.53443e-08          52.87                
  -2                    0.994036              -0.105848             0.000124892           0.00209935            -19.1872              1.20107               0.700078              -0.0311538            0.132751              -9.3687e-08           80.6863              
  -1.8                  0.994694              -0.0999804            0.000104824           0.00187274            -18.9438              1.11972               0.700738              -0.0280275            0.176736              -1.12726e-07          107.146              
  -1.6                  0.995714              -0.0896935            9.28578e-05           0.00184187            -18.2487              0.975239              0.704148              -0.0265649            0.217246              -1.38976e-07          131.393              
  -1.4                  0.996701              -0.0781672            9.39644e-05           0.0021146             -17.2009              0.81303               0.700939              -0.0275309            0.253168              -1.67487e-07          152.798              
  -1.2                  0.997223              -0.0710269            0.000108544           0.00266312            -16.2271              0.703524              0.684395              -0.030575             0.283715              -1.9323e-07           170.927              
  -1                    0.997163              -0.0714616            0.000137007           0.00334743            -15.4605              0.668864              0.658249              -0.0345137            0.30941               -2.1406e-07           186.127              
  -0.8                  0.996683              -0.0774721            0.000177631           0.00404178            -14.7712              0.679116              0.631692              -0.038249             0.332012              -2.3143e-07           199.458              
  -0.6                  0.99601               -0.0854305            0.000225154           0.00469143            -14.043               0.697298              0.611178              -0.0412072            0.353313              -2.48175e-07          211.988              
  -0.4                  0.995339              -0.0928242            0.000273857           0.00528834            -13.2475              0.702166              0.598739              -0.0432601            0.374186              -2.66249e-07          224.235              
  -0.2                  0.9948                -0.0984945            0.000319641           0.00584014            -12.3923              0.686618              0.593982              -0.0444631            0.394567              -2.86128e-07          236.165              
  0                     0.994461              -0.102071             0.000360003           0.00635607            -11.4833              0.650541              0.59583               -0.0448842            0.41393               -3.07235e-07          247.47               
  0.2                   0.994343              -0.103546             0.000393509           0.00684338            -10.5233              0.596789              0.603362              -0.0445733            0.431681              -3.2846e-07           257.812              
END_DB

