! VERSION = 6.00
BEGIN_HEADER
 ICCAP_INPUTS
  vd         V  D GROUND SMU_C 0.1 LIN        2    0.05       0.15       3    0.05      
  vg         V  G GROUND SMU_B 0.1 LIN        1    -3         1.8        97   0.05      
 ICCAP_OUTPUTS
  id         I  D GROUND SMU_C B
  ig         I  G GROUND SMU_B B
  T          V  T GROUND n/a B
 ICCAP_VALUES
  MAIN.NF "8.000"
  MAIN.L "150.0n"
  MAIN.W "100.0u"
  TEMP "25.00"
  MAIN.TNOM "25.00"
END_HEADER

BEGIN_DB
 ICCAP_VAR vd         0.05           

 #vg                    id                    ig                    T                    
  -3                    -3.66798e-05          -9.21184e-10          -4.49803e-05         
  -2.95                 -3.65772e-05          -9.5632e-10           -4.48544e-05         
  -2.9                  -1.93512e-05          -1.01453e-09          -2.37185e-05         
  -2.85                 2.32045e-05           -1.09677e-09          2.84065e-05          
  -2.8                  9.84874e-05           -1.20258e-09          0.000120304          
  -2.75                 0.000210377           -1.32876e-09          0.000256146          
  -2.7                  0.000355447           -1.46789e-09          0.000430952          
  -2.65                 0.000519467           -1.60742e-09          0.000626801          
  -2.6                  0.000677597           -1.72991e-09          0.000813812          
  -2.55                 0.000802421           -1.81544e-09          0.000960187          
  -2.5                  0.000879733           -1.84583e-09          0.00105029           
  -2.45                 0.000923096           -1.80977e-09          0.00110065           
  -2.4                  0.000974569           -1.70647e-09          0.00116025           
  -2.35                 0.00108777            -1.54619e-09          0.00129066           
  -2.3                  0.0013024             -1.34732e-09          0.00153543           
  -2.25                 0.00162685            -1.1313e-09           0.00189926           
  -2.2                  0.00204451            -9.17776e-10          0.00235664           
  -2.15                 0.00253757            -7.21429e-10          0.00288071           
  -2.1                  0.00309932            -5.50946e-10          0.00345683           
  -2.05                 0.00372505            -4.0967e-10           0.00407228           
  -2                    0.00440051            -2.9704e-10           0.00470555           
  -1.95                 0.00510095            -2.10134e-10          0.00532814           
  -1.9                  0.00579731            -1.44953e-10          0.00591269           
  -1.85                 0.00646306            -9.72996e-11          0.00643946           
  -1.8                  0.00707869            -6.3299e-11           0.00689868           
  -1.75                 0.00763366            -3.96394e-11          0.00728966           
  -1.7                  0.00812608            -2.3634e-11           0.00761832           
  -1.65                 0.00856082            -1.3181e-11           0.00789423           
  -1.6                  0.00894687            -6.67561e-12          0.00812803           
  -1.55                 0.00929454            -2.90997e-12          0.00832956           
  -1.5                  0.00961338            -9.7694e-13           0.00850686           
  -1.45                 0.0099108             -1.87736e-13          0.00866576           
  -1.4                  0.0101916             -4.4863e-15           0.00881006           
  -1.35                 0.0104584             1.28457e-14           0.00894196           
  -1.3                  0.0107119             2.47533e-13           0.00906264           
  -1.25                 0.010952              1.05764e-12           0.00917272           
  -1.2                  0.0111781             2.80033e-12           0.00927269           
  -1.15                 0.0113901             5.85061e-12           0.00936312           
  -1.1                  0.0115881             1.06158e-11           0.00944471           
  -1.05                 0.0117728             1.75459e-11           0.00951834           
  -1                    0.0119455             2.7141e-11            0.00958498           
  -0.95                 0.0121077             3.99527e-11           0.00964565           
  -0.9                  0.0122611             5.65817e-11           0.00970131           
  -0.85                 0.0124073             7.76656e-11           0.00975282           
  -0.8                  0.0125478             1.03857e-10           0.00980087           
  -0.75                 0.0126836             1.35788e-10           0.00984601           
  -0.7                  0.0128153             1.74014e-10           0.00988855           
  -0.65                 0.0129432             2.18931e-10           0.00992866           
  -0.6                  0.0130667             2.70671e-10           0.00996631           
  -0.55                 0.013185              3.28959e-10           0.0100014            
  -0.5                  0.0132968             3.92935e-10           0.0100336            
  -0.45                 0.0134003             4.60962e-10           0.0100626            
  -0.4                  0.0134938             5.30425e-10           0.0100882            
  -0.35                 0.0135752             5.97581e-10           0.0101099            
  -0.3                  0.0136426             6.57546e-10           0.0101276            
  -0.25                 0.0136944             7.0453e-10            0.010141             
  -0.2                  0.0137292             7.32507e-10           0.0101498            
  -0.15                 0.0137462             7.3646e-10            0.0101541            
  -0.1                  0.0137452             7.14234e-10           0.0101539            
  -0.05                 0.0137264             6.68726e-10           0.0101491            
  0                     0.013691              6.09764e-10           0.0101401            
  0.05                  0.0136408             5.55109e-10           0.0101271            
  0.1                   0.0135785             5.3184e-10            0.0101108            
  0.15                  0.0135071             5.8562e-10            0.0100918            
  0.2                   0.0134307             8.23346e-10           0.010071             
  0.25                  0.0133534             1.57587e-09           0.0100495            
  0.3                   0.01328               3.99238e-09           0.0100288            
  0.35                  0.0132152             1.21523e-08           0.0100102            
  0.4                   0.0131639             4.02142e-08           0.00999519           
  0.45                  0.0131306             1.35299e-07           0.00998537           
  0.5                   0.0131192             4.47009e-07           0.00998199           
  0.55                  0.0131329             1.42772e-06           0.00998602           
  0.6                   0.0131735             4.37195e-06           0.00999791           
  0.65                  0.0132411             1.2727e-05            0.0100174            
  0.7                   0.013334              3.47734e-05           0.0100435            
  0.75                  0.0134475             8.75253e-05           0.0100741            
  0.8                   0.0135736             0.00019816            0.0101062            
  0.85                  0.0137006             0.000393335           0.010136             
  0.9                   0.0138131             0.000670682           0.0101595            
  0.95                  0.0138912             0.00097836            0.0101733            
  1                     0.0139089             0.00125233            0.0101729            
  1.05                  0.0138316             0.00149221            0.0101501            
  1.1                   0.0136151             0.00177741            0.0100908            
  1.15                  0.0132065             0.00222191            0.00997166           
  1.2                   0.0125446             0.00296739            0.00975419           
  1.25                  0.011563              0.00426671            0.0093741            
  1.3                   0.0102031             0.00670608            0.00873202           
  1.35                  0.00845655            0.0116673             0.00770841           
  1.4                   0.00645056            0.0217099             0.00625832           
  1.45                  0.00445224            0.039206              0.00453889           
  1.5                   0.00265826            0.063911              0.00279825           
  1.55                  0.00109348            0.0938018             0.00117157           
  1.6                   -0.000289008          0.127046              -0.000312011         
  1.65                  -0.00153769           0.162466              -0.00166129          
  1.7                   -0.00268813           0.199355              -0.00289214          
  1.75                  -0.00376478           0.237282              -0.00401898          
  1.8                   -0.00478453           0.27597               -0.00505343          
END_DB

BEGIN_DB
 ICCAP_VAR vd         0.1            

 #vg                    id                    ig                    T                    
  -3                    -7.65557e-05          -9.98864e-10          -0.000187769         
  -2.95                 -8.86475e-05          -1.03377e-09          -0.000217464         
  -2.9                  -8.57951e-05          -1.09239e-09          -0.000210458         
  -2.85                 -5.96656e-05          -1.17552e-09          -0.000146307         
  -2.8                  -2.40444e-06          -1.28246e-09          -5.89108e-06         
  -2.75                 9.07434e-05           -1.40964e-09          0.00022203           
  -2.7                  0.000217638           -1.54926e-09          0.000531537          
  -2.65                 0.000365556           -1.68834e-09          0.000890883          
  -2.6                  0.000511016           -1.80915e-09          0.00124275           
  -2.55                 0.00062751            -1.89157e-09          0.00152347           
  -2.5                  0.000701576           -1.91752e-09          0.00170145           
  -2.45                 0.000749208           -1.87594e-09          0.0018157            
  -2.4                  0.000821462           -1.76644e-09          0.00198871           
  -2.35                 0.000996468           -1.59968e-09          0.00240622           
  -2.3                  0.00136227            -1.39436e-09          0.0032719            
  -2.25                 0.00199102            -1.17216e-09          0.00473775           
  -2.2                  0.00290896            -9.52868e-10          0.00682757           
  -2.15                 0.00408578            -7.51245e-10          0.00941957           
  -2.1                  0.00545834            -5.76022e-10          0.0123189            
  -2.05                 0.00696172            -4.30542e-10          0.0153416            
  -2                    0.00853937            -3.14221e-10          0.0183417            
  -1.95                 0.0101392             -2.24107e-10          0.021204             
  -1.9                  0.011711              -1.56164e-10          0.0238399            
  -1.85                 0.0132095             -1.06158e-10          0.0261901            
  -1.8                  0.0145986             -7.0174e-11           0.0282268            
  -1.75                 0.0158549             -4.48599e-11          0.0299513            
  -1.7                  0.0169688             -2.7488e-11           0.0313868            
  -1.65                 0.0179429             -1.59187e-11          0.0325702            
  -1.6                  0.0187887             -8.51514e-12          0.0335433            
  -1.55                 0.0195233             -4.04389e-12          0.0343475            
  -1.5                  0.0201656             -1.58043e-12          0.0350192            
  -1.45                 0.0207336             -4.268e-13            0.035589             
  -1.4                  0.0212428             -4.42428e-14          0.0360803            
  -1.35                 0.0217055             4.78293e-17           0.0365108            
  -1.3                  0.0221306             7.41593e-14           0.0368931            
  -1.25                 0.0225244             5.13081e-13           0.0372358            
  -1.2                  0.0228912             1.64291e-12           0.0375451            
  -1.15                 0.0232341             3.79944e-12           0.0378256            
  -1.1                  0.023555              7.34225e-12           0.0380807            
  -1.05                 0.0238561             1.26652e-11           0.0383133            
  -1                    0.0241389             2.02032e-11           0.038526             
  -0.95                 0.0244054             3.04351e-11           0.0387212            
  -0.9                  0.0246573             4.38814e-11           0.0389012            
  -0.85                 0.0248963             6.1095e-11            0.0390677            
  -0.8                  0.025124              8.26436e-11           0.0392226            
  -0.75                 0.0253416             1.09078e-10           0.0393672            
  -0.7                  0.0255499             1.40886e-10           0.0395026            
  -0.65                 0.0257496             1.78423e-10           0.0396294            
  -0.6                  0.0259406             2.2182e-10            0.0397481            
  -0.55                 0.0261224             2.70859e-10           0.0398586            
  -0.5                  0.0262944             3.24823e-10           0.0399611            
  -0.45                 0.0264553             3.82322e-10           0.040055             
  -0.4                  0.0266039             4.41116e-10           0.0401402            
  -0.35                 0.0267388             4.97977e-10           0.0402161            
  -0.3                  0.0268585             5.48653e-10           0.0402824            
  -0.25                 0.026962              5.88052e-10           0.0403388            
  -0.2                  0.0270482             6.10783e-10           0.0403853            
  -0.15                 0.0271168             6.12192e-10           0.040422             
  -0.1                  0.0271679             5.89933e-10           0.040449             
  -0.05                 0.0272021             5.45842e-10           0.040467             
  0                     0.0272208             4.875e-10             0.0404768            
  0.05                  0.0272258             4.28746e-10           0.0404795            
  0.1                   0.02722               3.89498e-10           0.0404764            
  0.15                  0.0272064             3.99387e-10           0.0404693            
  0.2                   0.0271889             5.21052e-10           0.0404601            
  0.25                  0.0271717             9.46718e-10           0.040451             
  0.3                   0.0271593             2.3667e-09            0.0404445            
  0.35                  0.0271564             7.33663e-09           0.0404429            
  0.4                   0.0271674             2.50936e-08           0.0404488            
  0.45                  0.0271967             8.74739e-08           0.0404642            
  0.5                   0.0272478             2.98522e-07           0.040491             
  0.55                  0.0273237             9.80839e-07           0.0405303            
  0.6                   0.0274258             3.0805e-06            0.0405826            
  0.65                  0.0275542             9.1887e-06            0.0406473            
  0.7                   0.0277067             2.57616e-05           0.0407222            
  0.75                  0.0278785             6.67795e-05           0.0408039            
  0.8                   0.0280617             0.000156525           0.040887             
  0.85                  0.0282446             0.000323401           0.040965             
  0.9                   0.0284114             0.000575881           0.0410305            
  0.95                  0.0285425             0.000875603           0.0410769            
  1                     0.0286124             0.00115643            0.0410969            
  1.05                  0.0285876             0.00139695            0.041078             
  1.1                   0.0284248             0.00165716            0.0409987            
  1.15                  0.0280717             0.00204124            0.0408269            
  1.2                   0.0274673             0.00267418            0.0405139            
  1.25                  0.0265442             0.00375867            0.0399839            
  1.3                   0.0252372             0.00574955            0.0391205            
  1.35                  0.0235172             0.0097463             0.0377702            
  1.4                   0.0214715             0.0180158             0.0358211            
  1.45                  0.0193575             0.0332918             0.0333798            
  1.5                   0.0174267             0.0561508             0.0307528            
  1.55                  0.0157464             0.0848063             0.0281709            
  1.6                   0.0142752             0.117258              0.0257143            
  1.65                  0.0129585             0.152155              0.0233922            
  1.7                   0.0117546             0.188683              0.0211936            
  1.75                  0.0106347             0.226348              0.0191051            
  1.8                   0.00957912            0.26484               0.0171148            
END_DB

BEGIN_DB
 ICCAP_VAR vd         0.15           

 #vg                    id                    ig                    T                    
  -3                    -0.000111864          -1.08015e-09          -0.000411541         
  -2.95                 -0.000135036          -1.11461e-09          -0.000496902         
  -2.9                  -0.000145314          -1.17341e-09          -0.000534776         
  -2.85                 -0.000134286          -1.25719e-09          -0.000494138         
  -2.8                  -9.37156e-05          -1.36497e-09          -0.000344715         
  -2.75                 -1.807e-05            -1.49285e-09          -6.64188e-05         
  -2.7                  9.17149e-05           -1.63264e-09          0.000336755          
  -2.65                 0.000224441           -1.77097e-09          0.00082304           
  -2.6                  0.000358243           -1.88977e-09          0.001312             
  -2.55                 0.000468104           -1.96881e-09          0.00171253           
  -2.5                  0.000541983           -1.99007e-09          0.0019814            
  -2.45                 0.000597804           -1.94276e-09          0.00218428           
  -2.4                  0.000690722           -1.8269e-09           0.00252152           
  -2.35                 0.000909305           -1.65356e-09          0.00331244           
  -2.3                  0.00136636            -1.44178e-09          0.00495533           
  -2.25                 0.00218084            -1.21347e-09          0.00784633           
  -2.2                  0.00343968            -9.88524e-10          0.0122222            
  -2.15                 0.00515139            -7.81729e-10          0.0179925            
